Time Stamp,ID,Extended,Dir,Bus,LEN,D1,D2,D3,D4,D5,D6,D7,D8
49851,00000400,false,Rx,0,8,00,0B,56,F0,00,01,09,A5,
54851,00000408,false,Rx,0,8,00,41,33,0A,FF,FF,09,71,
59851,00000410,false,Rx,0,8,3F,00,AA,30,00,FF,08,52,
64851,00000102,false,Rx,0,8,00,00,19,4F,51,CD,02,C8,
69851,00000103,false,Rx,0,8,02,00,02,00,00,00,02,02,
74851,00000122,false,Rx,0,8,D3,23,00,CA,1C,BB,04,99,
79851,00000411,false,Rx,0,8,32,60,00,00,00,00,00,00,
84851,00000022,false,Rx,0,8,FF,FF,FF,FF,00,00,08,08,
89851,00000231,false,Rx,0,8,00,01,00,00,00,00,03,02,
94851,00000517,false,Rx,0,8,00,00,00,00,00,00,00,00,
99851,00000010,false,Rx,0,8,00,FF,61,30,00,00,03,AD,
104851,00000102,false,Rx,0,8,00,00,19,4F,51,CD,03,C9,
109851,00000103,false,Rx,0,8,02,00,02,00,00,00,03,03,
114851,00000122,false,Rx,0,8,D3,23,00,CA,1C,BB,05,98,
119851,00000110,false,Rx,0,8,00,00,00,7B,01,05,0A,75,
124851,00000308,false,Rx,0,8,00,12,00,00,00,00,82,00,
129851,00000231,false,Rx,0,8,00,01,00,00,00,00,04,05,
134851,00000300,false,Rx,0,8,00,00,0D,8C,00,66,00,00,
139851,00000316,false,Rx,0,8,13,AD,01,27,4E,00,00,00,
144851,00000320,false,Rx,0,8,20,00,00,00,F0,00,82,00,
149851,00000342,false,Rx,0,8,03,C2,99,99,93,00,03,90,
154851,00000516,false,Rx,0,8,00,00,00,00,00,00,00,00,
159851,00000517,false,Rx,0,8,00,00,00,00,00,00,00,00,
164851,00000010,false,Rx,0,8,00,FF,61,30,00,00,04,AA,
169851,00000012,false,Rx,0,8,99,99,32,00,00,00,02,30,
174851,00000013,false,Rx,0,8,FF,01,09,00,00,00,00,00,
179851,00000102,false,Rx,0,8,00,00,19,4F,51,CD,04,CE,
184851,00000103,false,Rx,0,8,02,00,02,00,00,00,04,04,
189851,00000122,false,Rx,0,8,D3,23,00,CA,1C,BB,06,9B,
194851,00000400,false,Rx,0,8,00,0B,56,F0,00,01,0A,A6,
199851,00000408,false,Rx,0,8,00,41,33,0A,FF,FF,0A,72,
204851,00000410,false,Rx,0,8,3F,00,AA,30,00,FF,09,53,
209851,00000411,false,Rx,0,8,32,60,00,00,00,00,00,00,
214851,00000022,false,Rx,0,8,FF,FF,FF,FF,00,00,09,09,
219851,00000231,false,Rx,0,8,00,01,00,00,00,00,05,04,
224851,00000517,false,Rx,0,8,01,00,00,00,00,00,00,00,
229851,00000010,false,Rx,0,8,00,FF,61,30,00,00,05,AB,
234851,00000332,false,Rx,0,8,01,00,00,00,00,00,0E,0F,
239851,00000530,false,Rx,0,8,FF,FF,6B,23,64,04,49,00,
244851,00000102,false,Rx,0,8,00,00,19,4F,51,CD,05,CF,
249851,00000103,false,Rx,0,8,02,00,02,00,00,00,05,05,
254851,00000122,false,Rx,0,8,D3,23,00,CA,1C,BB,07,9A,
259851,00000110,false,Rx,0,8,00,00,00,7B,01,05,0B,74,
264851,00000300,false,Rx,0,8,00,00,0D,8C,00,66,00,00,
269851,00000308,false,Rx,0,8,00,12,00,00,00,00,82,00,
274851,00000316,false,Rx,0,8,13,AD,01,27,4E,00,00,00,
279851,00000320,false,Rx,0,8,20,00,00,00,F0,00,82,00,
284851,00000342,false,Rx,0,8,03,C2,99,99,93,00,03,90,
289851,00000516,false,Rx,0,8,00,00,00,00,00,00,00,00,
294851,00000231,false,Rx,0,8,00,01,00,00,00,00,06,07,
299851,00000517,false,Rx,0,8,01,00,00,00,00,00,00,00,
304851,00000010,false,Rx,0,8,00,FF,61,30,00,00,06,A8,
309851,00000012,false,Rx,0,8,99,99,32,00,01,00,03,30,
314851,00000102,false,Rx,0,8,00,00,19,4F,51,CD,06,CC,
319851,00000103,false,Rx,0,8,02,00,02,00,00,00,06,06,
324851,00000122,false,Rx,0,8,D3,23,00,CA,1C,BB,08,95,
329851,00000400,false,Rx,0,8,00,0B,56,F0,00,01,0B,A7,
334851,00000408,false,Rx,0,8,00,41,33,0A,FF,FF,0B,73,
339851,00000410,false,Rx,0,8,3F,00,AA,30,00,FF,0A,50,
344851,00000411,false,Rx,0,8,32,60,00,00,00,00,00,00,
349851,00000022,false,Rx,0,8,FF,FF,FF,FF,00,00,0A,0A,
354851,00000231,false,Rx,0,8,00,01,00,00,00,00,08,09,
359851,00000517,false,Rx,0,8,00,00,00,00,00,00,00,00,
364851,00000010,false,Rx,0,8,00,FF,61,30,00,00,07,A9,
369851,00000102,false,Rx,0,8,00,00,19,4F,51,CD,07,CD,
374851,00000103,false,Rx,0,8,02,00,02,00,00,00,07,07,
379851,00000122,false,Rx,0,8,D3,23,00,CA,1C,BB,09,94,
384851,00000110,false,Rx,0,8,00,00,00,7B,01,05,0C,73,
389851,00000308,false,Rx,0,8,00,12,00,00,00,00,82,00,
394851,00000300,false,Rx,0,8,00,00,0D,8C,00,66,00,00,
399851,00000316,false,Rx,0,8,13,AD,01,27,4E,00,00,00,
404851,00000320,false,Rx,0,8,20,00,00,00,F0,00,82,00,
409851,00000342,false,Rx,0,8,03,C2,99,99,93,00,03,90,
414851,00000516,false,Rx,0,8,00,00,00,00,00,00,00,00,
419851,00000231,false,Rx,0,8,00,01,00,00,00,00,08,09,
424851,00000517,false,Rx,0,8,00,00,00,00,00,00,00,00,
429851,00000010,false,Rx,0,8,00,FF,61,30,00,00,08,A6,
434851,00000012,false,Rx,0,8,99,99,32,00,00,00,04,36,
439851,00000102,false,Rx,0,8,00,00,19,4F,51,CD,08,C2,
444851,00000103,false,Rx,0,8,02,00,02,00,00,00,08,08,
449851,00000122,false,Rx,0,8,D3,23,00,CA,1C,BB,0A,97,
454851,00000400,false,Rx,0,8,00,0B,56,F0,00,01,0C,A0,
459851,00000408,false,Rx,0,8,00,41,33,0A,FF,FF,0C,74,
464851,00000410,false,Rx,0,8,3F,00,AA,30,00,FF,0B,51,
469851,00000411,false,Rx,0,8,32,60,00,00,00,00,00,00,
474851,00000022,false,Rx,0,8,FF,FF,FF,FF,00,00,0B,0B,
479851,00000231,false,Rx,0,8,00,01,00,00,00,00,0A,0B,
484851,00000517,false,Rx,0,8,01,00,00,00,00,00,00,00,
489851,00000010,false,Rx,0,8,00,FF,61,30,00,00,09,A7,
494851,00000013,false,Rx,0,8,FF,01,09,00,00,00,00,00,
499851,00000102,false,Rx,0,8,00,00,19,4F,51,CD,09,C3,
504851,00000103,false,Rx,0,8,02,00,02,00,00,00,09,09,
509851,00000122,false,Rx,0,8,D3,23,00,CA,1C,BB,0B,96,
514851,00000110,false,Rx,0,8,00,00,00,7B,01,05,0D,72,
519851,00000300,false,Rx,0,8,00,00,0D,8C,00,66,00,00,
524851,00000308,false,Rx,0,8,00,12,00,00,00,00,82,00,
529851,00000316,false,Rx,0,8,13,AD,01,27,4E,00,00,00,
534851,00000320,false,Rx,0,8,20,00,00,00,F0,00,82,00,
539851,00000342,false,Rx,0,8,03,C2,99,99,93,00,03,90,
544851,00000516,false,Rx,0,8,00,00,00,00,00,00,00,00,
549851,00000231,false,Rx,0,8,00,01,00,00,00,00,0B,0A,
554851,00000517,false,Rx,0,8,00,00,00,00,00,00,00,00,
559851,00000102,false,Rx,0,8,00,00,19,4F,51,CD,0A,C0,
564851,00000103,false,Rx,0,8,02,00,02,00,00,00,0A,0A,
569851,00000010,false,Rx,0,8,00,FF,61,30,00,00,0A,A4,
574851,00000122,false,Rx,0,8,D3,23,00,CA,1C,BB,0C,91,
579851,00000012,false,Rx,0,8,99,99,32,00,01,00,05,36,
584851,00000400,false,Rx,0,8,00,0B,56,F0,00,01,0D,A1,
589851,00000408,false,Rx,0,8,00,41,33,0A,FF,FF,0D,75,
594851,00000410,false,Rx,0,8,3F,00,AA,31,00,FF,0D,56,
599851,00000411,false,Rx,0,8,32,60,00,00,00,00,00,00,
604851,00000022,false,Rx,0,8,FF,FF,FF,FF,00,00,0D,0D,
609851,00000231,false,Rx,0,8,00,01,00,00,00,00,0C,0D,
614851,00000517,false,Rx,0,8,00,00,00,00,00,00,00,00,
619851,00000102,false,Rx,0,8,00,00,19,4F,51,CD,0B,C1,
624851,00000103,false,Rx,0,8,02,00,02,00,00,00,0B,0B,
629851,00000122,false,Rx,0,8,D3,23,00,CA,1C,BB,0D,90,
634851,00000110,false,Rx,0,8,00,00,00,7B,01,05,0E,71,
639851,00000308,false,Rx,0,8,00,12,00,00,00,00,82,00,
644851,00000010,false,Rx,0,8,00,FF,61,30,00,00,0B,A5,
649851,00000300,false,Rx,0,8,00,00,0D,8C,00,66,00,00,
654851,00000316,false,Rx,0,8,13,AD,01,27,4E,00,00,00,
659851,00000320,false,Rx,0,8,20,00,00,00,F0,00,82,00,
664851,00000342,false,Rx,0,8,03,C2,99,99,93,00,03,90,
669851,00000516,false,Rx,0,8,00,00,00,00,00,00,00,00,
674851,00000231,false,Rx,0,8,00,01,00,00,00,00,0D,0C,
679851,00000517,false,Rx,0,8,01,00,00,00,00,00,00,00,
684851,00000102,false,Rx,0,8,00,00,19,4F,51,CD,0C,C6,
689851,00000103,false,Rx,0,8,02,00,02,00,00,00,0C,0C,
694851,00000122,false,Rx,0,8,D3,23,00,CA,1C,BB,0E,93,
699851,00000010,false,Rx,0,8,00,FF,61,30,00,00,0C,A2,
704851,00000012,false,Rx,0,8,99,99,32,00,00,00,06,34,
709851,00000400,false,Rx,0,8,00,0B,56,F0,00,01,0E,A2,
714851,00000408,false,Rx,0,8,00,41,33,0A,FF,FF,0E,76,
719851,00000410,false,Rx,0,8,3F,00,AA,31,00,FF,0E,55,
724851,00000411,false,Rx,0,8,32,60,00,00,00,00,00,00,
729851,00000022,false,Rx,0,8,FF,FF,FF,FF,00,00,0E,0E,
734851,00000102,false,Rx,0,8,00,00,19,4F,51,CD,0D,C7,
739851,00000103,false,Rx,0,8,02,00,02,00,00,00,0D,0D,
744851,00000122,false,Rx,0,8,D3,23,00,CA,1C,BB,0F,92,
749851,00000110,false,Rx,0,8,00,00,00,7B,01,05,0F,70,
754851,00000231,false,Rx,0,8,00,01,00,00,00,00,0E,0F,
759851,00000300,false,Rx,0,8,00,00,0D,8C,00,66,00,00,
764851,00000308,false,Rx,0,8,00,12,00,00,00,00,82,00,
769851,00000316,false,Rx,0,8,13,AD,01,27,4E,00,00,00,
774851,00000320,false,Rx,0,8,20,00,00,00,F0,00,82,00,
779851,00000342,false,Rx,0,8,03,C2,99,99,93,00,03,90,
784851,00000516,false,Rx,0,8,00,00,00,00,00,00,00,00,
789851,00000517,false,Rx,0,8,01,00,00,00,00,00,00,00,
794851,00000010,false,Rx,0,8,00,FF,61,30,00,00,0D,A3,
799851,00000102,false,Rx,0,8,00,00,19,4F,51,CD,0E,C4,
804851,00000103,false,Rx,0,8,02,00,02,00,00,00,0E,0E,
809851,00000122,false,Rx,0,8,D3,23,00,CA,1C,BB,00,9D,
814851,00000231,false,Rx,0,8,00,01,00,00,00,00,0F,0E,
819851,00000517,false,Rx,0,8,00,00,00,00,00,00,00,00,
824851,00000010,false,Rx,0,8,00,FF,61,30,00,00,0E,A0,
829851,00000012,false,Rx,0,8,99,99,32,00,01,00,07,34,
834851,00000013,false,Rx,0,8,FF,01,09,00,00,00,00,00,
839851,00000400,false,Rx,0,8,00,0B,56,F0,00,01,0F,A3,
844851,00000408,false,Rx,0,8,00,41,33,0A,FF,FF,0F,77,
849851,00000410,false,Rx,0,8,3F,00,AA,31,00,FF,0F,54,
854851,00000411,false,Rx,0,8,32,60,00,00,00,00,00,00,
859851,00000022,false,Rx,0,8,FF,FF,FF,FF,00,00,0F,0F,
864851,00000332,false,Rx,0,8,01,00,00,00,00,00,0F,0E,
869851,00000530,false,Rx,0,8,FF,FF,6B,23,64,04,49,00,
874851,00000102,false,Rx,0,8,00,00,19,4F,51,CD,0F,C5,
879851,00000103,false,Rx,0,8,02,00,02,00,00,00,0F,0F,
884851,00000122,false,Rx,0,8,D3,23,00,CA,1C,BB,01,9C,
889851,00000110,false,Rx,0,8,00,00,00,7B,01,05,00,7F,
894851,00000308,false,Rx,0,8,00,12,00,00,00,00,82,00,
899851,00000300,false,Rx,0,8,00,00,0D,8C,00,66,00,00,
904851,00000316,false,Rx,0,8,13,AD,01,27,4E,00,00,00,
909851,00000320,false,Rx,0,8,20,00,00,00,F0,00,82,00,
914851,00000342,false,Rx,0,8,03,C2,99,99,93,00,03,90,
919851,00000231,false,Rx,0,8,00,01,00,00,00,00,00,01,
924851,00000516,false,Rx,0,8,00,00,00,00,00,00,00,00,
929851,00000517,false,Rx,0,8,00,00,00,00,00,00,00,00,
934851,00000010,false,Rx,0,8,00,FF,61,30,00,00,0F,A1,
939851,00000102,false,Rx,0,8,00,00,19,4F,51,CD,00,CA,
944851,00000103,false,Rx,0,8,02,00,02,00,00,00,00,00,
949851,00000122,false,Rx,0,8,D3,23,00,CA,1C,BB,02,9F,
954851,00000231,false,Rx,0,8,00,01,00,00,00,00,02,03,
959851,00000517,false,Rx,0,8,01,00,00,00,00,00,00,00,
964851,00000010,false,Rx,0,8,00,FF,61,30,00,00,00,AE,
969851,00000400,false,Rx,0,8,00,0B,56,F0,00,01,00,AC,
974851,00000012,false,Rx,0,8,99,99,32,00,00,00,08,3A,
979851,00000408,false,Rx,0,8,00,41,33,0A,FF,FF,00,78,
984851,00000410,false,Rx,0,8,3F,00,C4,00,00,FF,00,04,
989851,00000411,false,Rx,0,8,32,60,00,00,00,00,00,00,
994851,00000022,false,Rx,0,8,FF,FF,FF,FF,00,00,00,00,
999851,00000102,false,Rx,0,8,00,00,19,4F,51,CD,01,CB,
1004851,00000103,false,Rx,0,8,02,00,02,00,00,00,01,01,
1009851,00000122,false,Rx,0,8,D3,23,00,CA,1C,BB,03,9E,
1014851,00000110,false,Rx,0,8,00,00,00,7B,01,05,01,7E,
1019851,00000300,false,Rx,0,8,00,00,0D,8C,00,66,00,00,
1024851,00000308,false,Rx,0,8,00,12,00,00,00,00,82,00,
1029851,00000316,false,Rx,0,8,13,AD,01,27,4E,00,00,00,
1034851,00000320,false,Rx,0,8,20,00,00,00,F0,00,82,00,
1039851,00000342,false,Rx,0,8,03,C2,99,99,93,00,03,90,
1044851,00000516,false,Rx,0,8,00,00,00,00,00,00,00,00,
1049851,00000231,false,Rx,0,8,00,01,00,00,00,00,02,03,
1054851,00000517,false,Rx,0,8,01,00,00,00,00,00,00,00,
1059851,00000010,false,Rx,0,8,00,FF,61,30,00,00,01,AF,
1064851,00000102,false,Rx,0,8,00,00,19,4F,51,CD,02,C8,
1069851,00000103,false,Rx,0,8,02,00,02,00,00,00,02,02,
1074851,00000122,false,Rx,0,8,D3,23,00,CA,1C,BB,04,99,
1079851,00000231,false,Rx,0,8,00,01,00,00,00,00,04,05,
1084851,00000517,false,Rx,0,8,00,00,00,00,00,00,00,00,
1089851,00000400,false,Rx,0,8,00,0B,56,F0,00,01,01,AD,
1094851,00000408,false,Rx,0,8,00,41,33,0A,FF,FF,01,79,
1099851,00000410,false,Rx,0,8,3F,00,C4,00,00,FF,01,05,
1104851,00000411,false,Rx,0,8,32,60,00,00,00,00,00,00,
1109851,00000010,false,Rx,0,8,00,FF,61,30,00,00,02,AC,
1114851,00000022,false,Rx,0,8,FF,FF,FF,FF,00,00,01,01,
1119851,00000012,false,Rx,0,8,99,99,32,00,01,00,09,3A,
1124851,00000102,false,Rx,0,8,00,00,19,4F,51,CD,03,C9,
1129851,00000103,false,Rx,0,8,02,00,02,00,00,00,03,03,
1134851,00000122,false,Rx,0,8,D3,23,00,CA,1C,BB,05,98,
1139851,00000110,false,Rx,0,8,00,00,00,7B,01,05,02,7D,
1144851,00000308,false,Rx,0,8,00,12,00,00,00,00,82,00,
1149851,00000300,false,Rx,0,8,00,00,0D,8C,00,66,00,00,
1154851,00000316,false,Rx,0,8,13,AD,01,27,4E,00,00,00,
1159851,00000320,false,Rx,0,8,20,00,00,00,F0,00,82,00,
1164851,00000342,false,Rx,0,8,03,C2,99,99,93,00,03,90,
1169851,00000516,false,Rx,0,8,00,00,00,00,00,00,00,00,
1174851,00000231,false,Rx,0,8,00,01,00,00,00,00,05,04,
1179851,00000517,false,Rx,0,8,00,00,00,00,00,00,00,00,
1184851,00000010,false,Rx,0,8,00,FF,61,30,00,00,03,AD,
1189851,00000013,false,Rx,0,8,FF,01,09,00,00,00,00,00,
1194851,00000102,false,Rx,0,8,00,00,19,4F,51,CD,04,CE,
1199851,00000103,false,Rx,0,8,02,00,02,00,00,00,04,04,
1204851,00000122,false,Rx,0,8,D3,23,00,CA,1C,BB,06,9B,
1209851,00000231,false,Rx,0,8,00,01,00,00,00,00,06,07,
1214851,00000517,false,Rx,0,8,01,00,00,00,00,00,00,00,
1219851,00000400,false,Rx,0,8,00,0B,56,F0,00,01,02,AE,
1224851,00000408,false,Rx,0,8,00,41,33,0A,FF,FF,02,7A,
1229851,00000410,false,Rx,0,8,3F,00,C4,00,00,FF,02,06,
1234851,00000411,false,Rx,0,8,32,60,00,00,00,00,00,00,
1239851,00000022,false,Rx,0,8,FF,FF,FF,FF,00,00,02,02,
1244851,00000102,false,Rx,0,8,00,00,19,4F,51,CD,05,CF,
1249851,00000010,false,Rx,0,8,00,FF,61,30,00,00,04,AA,
1254851,00000103,false,Rx,0,8,02,00,02,00,00,00,05,05,
1259851,00000012,false,Rx,0,8,99,99,32,00,00,00,0A,38,
1264851,00000110,false,Rx,0,8,00,00,00,7B,01,05,03,7C,
1269851,00000122,false,Rx,0,8,D3,23,00,CA,1C,BB,07,9A,
1274851,00000300,false,Rx,0,8,00,00,0D,8C,00,66,00,00,
1279851,00000308,false,Rx,0,8,00,12,00,00,00,00,82,00,
1284851,00000316,false,Rx,0,8,13,AD,01,27,4E,00,00,00,
1289851,00000320,false,Rx,0,8,20,00,00,00,F0,00,82,00,
1294851,00000342,false,Rx,0,8,03,C2,99,99,93,00,03,90,
1299851,00000516,false,Rx,0,8,00,00,00,00,00,00,00,00,
1304851,00000231,false,Rx,0,8,00,01,00,00,00,00,07,06,
1309851,00000517,false,Rx,0,8,00,00,00,00,00,00,00,00,
1314851,00000102,false,Rx,0,8,00,00,19,4F,51,CD,06,CC,
1319851,00000103,false,Rx,0,8,02,00,02,00,00,00,06,06,
1324851,00000122,false,Rx,0,8,D3,23,00,CA,1C,BB,08,95,
1329851,00000010,false,Rx,0,8,00,FF,61,30,00,00,05,AB,
1334851,00000231,false,Rx,0,8,00,01,00,00,00,00,08,09,
1339851,00000400,false,Rx,0,8,00,0B,56,F0,00,01,03,AF,
1344851,00000408,false,Rx,0,8,00,41,33,0A,FF,FF,03,7B,
1349851,00000102,false,Rx,0,8,00,00,19,4F,51,CD,07,CD,
1354851,00000103,false,Rx,0,8,02,00,02,00,00,00,07,07,
1359851,00000122,false,Rx,0,8,D3,23,00,CA,1C,BB,09,94,
1364851,00000410,false,Rx,0,8,3F,00,C4,00,00,FF,03,07,
1369851,00000110,false,Rx,0,8,00,00,00,7B,01,05,04,7B,
1374851,00000300,false,Rx,0,8,00,00,0D,8C,00,66,00,00,
1379851,00000308,false,Rx,0,8,00,12,00,00,00,00,82,00,
1384851,00000316,false,Rx,0,8,13,AD,01,27,4E,00,00,00,
1389851,00000320,false,Rx,0,8,20,00,00,00,F0,00,82,00,
1394851,00000010,false,Rx,0,8,00,FF,61,30,00,00,06,A8,
1399851,00000342,false,Rx,0,8,03,C2,99,99,93,00,03,90,
1404851,00000012,false,Rx,0,8,99,99,32,00,01,00,0B,38,
1409851,00000411,false,Rx,0,8,32,60,00,00,00,00,00,00,
1414851,00000516,false,Rx,0,8,00,00,00,00,00,00,00,00,
1419851,00000022,false,Rx,0,8,FF,FF,FF,FF,00,00,03,03,
1424851,00000517,false,Rx,0,8,00,00,00,00,00,00,00,00,
1429851,00000102,false,Rx,0,8,00,00,19,4F,51,CD,08,C2,
1434851,00000103,false,Rx,0,8,02,00,02,00,00,00,08,08,
1439851,00000122,false,Rx,0,8,D3,23,00,CA,1C,BB,0A,97,
1444851,00000231,false,Rx,0,8,00,01,00,00,00,00,09,08,
1449851,00000517,false,Rx,0,8,01,00,00,00,00,00,00,00,
1454851,00000010,false,Rx,0,8,00,FF,61,30,00,00,07,A9,
1459851,00000332,false,Rx,0,8,01,00,00,00,00,00,00,01,
1464851,00000530,false,Rx,0,8,FF,FF,6B,23,64,04,49,00,
1469851,00000102,false,Rx,0,8,00,00,19,4F,51,CD,09,C3,
1474851,00000103,false,Rx,0,8,02,00,02,00,00,00,09,09,
1479851,00000122,false,Rx,0,8,D3,23,00,CA,1C,BB,0B,96,
1484851,00000110,false,Rx,0,8,00,00,00,7B,01,05,05,7A,
1489851,00000300,false,Rx,0,8,00,00,0D,8C,00,66,00,00,
1494851,00000308,false,Rx,0,8,00,12,00,00,00,00,82,00,
1499851,00000316,false,Rx,0,8,13,AD,01,27,4E,00,00,00,
1504851,00000320,false,Rx,0,8,20,00,00,00,F0,00,82,00,
1509851,00000342,false,Rx,0,8,03,C2,99,99,93,00,03,90,
1514851,00000400,false,Rx,0,8,00,0B,56,F0,00,01,04,A8,
1519851,00000516,false,Rx,0,8,00,00,00,00,00,00,00,00,
1524851,00000408,false,Rx,0,8,00,41,33,0A,FF,FF,04,7C,
1529851,00000410,false,Rx,0,8,3F,00,AA,30,00,FF,04,5E,
1534851,00000411,false,Rx,0,8,32,60,00,00,00,00,00,00,
1539851,00000022,false,Rx,0,8,FF,FF,FF,FF,00,00,04,04,
1544851,00000231,false,Rx,0,8,00,01,00,00,00,00,0A,0B,
1549851,00000517,false,Rx,0,8,01,00,00,00,00,00,00,00,
1554851,00000010,false,Rx,0,8,00,FF,61,30,00,00,08,A6,
1559851,00000012,false,Rx,0,8,99,99,32,00,00,00,0C,3E,
1564851,00000013,false,Rx,0,8,FF,01,09,00,00,00,00,00,
1569851,00000102,false,Rx,0,8,00,00,19,4F,51,CD,0A,C0,
1574851,00000103,false,Rx,0,8,02,00,02,00,00,00,0A,0A,
1579851,00000122,false,Rx,0,8,D3,23,00,CA,1C,BB,0C,91,
1584851,00000231,false,Rx,0,8,00,01,00,00,00,00,0B,0A,
1589851,00000517,false,Rx,0,8,00,00,00,00,00,00,00,00,
1594851,00000010,false,Rx,0,8,00,FF,61,30,00,00,09,A7,
1599851,00000102,false,Rx,0,8,00,00,19,4F,51,CD,0B,C1,
1604851,00000103,false,Rx,0,8,02,00,02,00,00,00,0B,0B,
1609851,00000122,false,Rx,0,8,D3,23,00,CA,1C,BB,0D,90,
1614851,00000110,false,Rx,0,8,00,00,00,7B,01,05,06,79,
1619851,00000308,false,Rx,0,8,00,12,00,00,00,00,82,00,
1624851,00000300,false,Rx,0,8,00,00,0D,8C,00,66,00,00,
1629851,00000316,false,Rx,0,8,13,AD,01,27,4E,00,00,00,
1634851,00000320,false,Rx,0,8,20,00,00,00,F0,00,82,00,
1639851,00000342,false,Rx,0,8,03,C2,99,99,93,00,03,90,
1644851,00000400,false,Rx,0,8,00,0B,56,F0,00,01,05,A9,
1649851,00000516,false,Rx,0,8,00,00,00,00,00,00,00,00,
1654851,00000408,false,Rx,0,8,00,41,33,0A,FF,FF,05,7D,
1659851,00000410,false,Rx,0,8,3F,00,AA,30,00,FF,05,5F,
1664851,00000411,false,Rx,0,8,32,60,00,00,00,00,00,00,
1669851,00000022,false,Rx,0,8,FF,FF,FF,FF,00,00,05,05,
1674851,00000231,false,Rx,0,8,00,01,00,00,00,00,0C,0D,
1679851,00000517,false,Rx,0,8,00,00,00,00,00,00,00,00,
1684851,00000010,false,Rx,0,8,00,FF,61,30,00,00,0A,A4,
1689851,00000012,false,Rx,0,8,99,99,32,00,01,00,0D,3E,
1694851,00000102,false,Rx,0,8,00,00,19,4F,51,CD,0C,C6,
1699851,00000103,false,Rx,0,8,02,00,02,00,00,00,0C,0C,
1704851,00000122,false,Rx,0,8,D3,23,00,CA,1C,BB,0E,93,
1709851,00000231,false,Rx,0,8,00,01,00,00,00,00,0E,0F,
1714851,00000517,false,Rx,0,8,01,00,00,00,00,00,00,00,
1719851,00000010,false,Rx,0,8,00,FF,61,30,00,00,0B,A5,
1724851,00000102,false,Rx,0,8,00,00,19,4F,51,CD,0D,C7,
1729851,00000103,false,Rx,0,8,02,00,02,00,00,00,0D,0D,
1734851,00000122,false,Rx,0,8,D3,23,00,CA,1C,BB,0F,92,
1739851,00000110,false,Rx,0,8,00,00,00,7B,01,05,07,78,
1744851,00000300,false,Rx,0,8,00,00,0D,8C,00,66,00,00,
1749851,00000308,false,Rx,0,8,00,12,00,00,00,00,82,00,
1754851,00000316,false,Rx,0,8,13,AD,01,27,4E,00,00,00,
1759851,00000320,false,Rx,0,8,20,00,00,00,F0,00,82,00,
1764851,00000342,false,Rx,0,8,03,C2,99,99,93,00,03,90,
1769851,00000516,false,Rx,0,8,00,00,00,00,00,00,00,00,
1774851,00000400,false,Rx,0,8,00,0B,56,F0,00,01,06,AA,
1779851,00000408,false,Rx,0,8,00,41,33,0A,FF,FF,06,7E,
1784851,00000410,false,Rx,0,8,3F,00,AA,30,00,FF,06,5C,
1789851,00000411,false,Rx,0,8,32,60,00,00,00,00,00,00,
1794851,00000022,false,Rx,0,8,FF,FF,FF,FF,00,00,06,06,
1799851,00000231,false,Rx,0,8,00,01,00,00,00,00,0E,0F,
1804851,00000517,false,Rx,0,8,01,00,00,00,00,00,00,00,
1809851,00000010,false,Rx,0,8,00,FF,61,30,00,00,0C,A2,
1814851,00000012,false,Rx,0,8,99,99,32,00,00,00,0E,3C,
1819851,00000102,false,Rx,0,8,00,00,19,4F,51,CD,0E,C4,
1824851,00000103,false,Rx,0,8,02,00,02,00,00,00,0E,0E,
1829851,00000122,false,Rx,0,8,D3,23,00,CA,1C,BB,00,9D,
1834851,00000231,false,Rx,0,8,00,01,00,00,00,00,00,01,
1839851,00000517,false,Rx,0,8,00,00,00,00,00,00,00,00,
1844851,00000010,false,Rx,0,8,00,FF,61,30,00,00,0D,A3,
1849851,00000013,false,Rx,0,8,FF,01,09,00,00,00,00,00,
1854851,00000102,false,Rx,0,8,00,00,19,4F,51,CD,0F,C5,
1859851,00000103,false,Rx,0,8,02,00,02,00,00,00,0F,0F,
1864851,00000122,false,Rx,0,8,D3,23,00,CA,1C,BB,01,9C,
1869851,00000110,false,Rx,0,8,00,00,00,7B,01,05,08,77,
1874851,00000308,false,Rx,0,8,00,12,00,00,00,00,82,00,
1879851,00000300,false,Rx,0,8,00,00,0D,8C,00,66,00,00,
1884851,00000316,false,Rx,0,8,13,AD,01,27,4E,00,00,00,
1889851,00000320,false,Rx,0,8,20,00,00,00,F0,00,82,00,
1894851,00000342,false,Rx,0,8,03,C2,99,99,93,00,03,90,
1899851,00000516,false,Rx,0,8,00,00,00,00,00,00,00,00,
1904851,00000400,false,Rx,0,8,00,0B,56,F0,00,01,07,AB,
1909851,00000408,false,Rx,0,8,00,41,33,0A,FF,FF,07,7F,
1914851,00000410,false,Rx,0,8,3F,00,AA,30,00,FF,07,5D,
1919851,00000411,false,Rx,0,8,32,60,00,00,00,00,00,00,
1924851,00000022,false,Rx,0,8,FF,FF,FF,FF,00,00,07,07,
1929851,00000231,false,Rx,0,8,00,01,00,00,00,00,01,00,
1934851,00000517,false,Rx,0,8,01,00,00,00,00,00,00,00,
1939851,00000102,false,Rx,0,8,00,00,19,4F,51,CD,00,CA,
1944851,00000010,false,Rx,0,8,00,FF,61,30,00,00,0E,A0,
1949851,00000103,false,Rx,0,8,02,00,02,00,00,00,00,00,
1954851,00000012,false,Rx,0,8,99,99,32,00,01,00,0F,3C,
1959851,00000122,false,Rx,0,8,D3,23,00,CA,1C,BB,02,9F,
1964851,00000231,false,Rx,0,8,00,01,00,00,00,00,02,03,
1969851,00000517,false,Rx,0,8,01,00,00,00,00,00,00,00,
1974851,00000102,false,Rx,0,8,00,00,19,4F,51,CD,01,CB,
1979851,00000103,false,Rx,0,8,02,00,02,00,00,00,01,01,
1984851,00000122,false,Rx,0,8,D3,23,00,CA,1C,BB,03,9E,
1989851,00000110,false,Rx,0,8,00,00,00,7B,01,05,09,76,
1994851,00000300,false,Rx,0,8,00,00,0D,8C,00,66,00,00,
1999851,00000010,false,Rx,0,8,00,FF,61,30,00,00,0F,A1,
2004851,00000308,false,Rx,0,8,00,12,00,00,00,00,82,00,
2009851,00000316,false,Rx,0,8,13,AD,01,27,4E,00,00,00,
2014851,00000320,false,Rx,0,8,20,00,00,00,F0,00,82,00,
2019851,00000342,false,Rx,0,8,03,C2,99,99,93,00,03,90,
2024851,00000516,false,Rx,0,8,00,00,00,00,00,00,00,00,
2029851,00000400,false,Rx,0,8,00,0B,56,F0,00,01,08,A4,
2034851,00000408,false,Rx,0,8,00,41,33,0A,FF,FF,08,70,
2039851,00000410,false,Rx,0,8,3F,00,AA,31,00,FF,08,53,
2044851,00000411,false,Rx,0,8,32,60,00,00,00,00,00,00,
2049851,00000022,false,Rx,0,8,FF,FF,FF,FF,00,00,08,08,
2054851,00000231,false,Rx,0,8,00,01,00,00,00,00,03,02,
2059851,00000517,false,Rx,0,8,00,00,00,00,00,00,00,00,
2064851,00000102,false,Rx,0,8,00,00,19,4F,51,CD,02,C8,
2069851,00000103,false,Rx,0,8,02,00,02,00,00,00,02,02,
2074851,00000122,false,Rx,0,8,D3,23,00,CA,1C,BB,04,99,
2079851,00000010,false,Rx,0,8,00,FF,61,30,00,00,00,AE,
2084851,00000012,false,Rx,0,8,99,99,32,00,00,00,00,32,
2089851,00000102,false,Rx,0,8,00,00,19,4F,51,CD,03,C9,
2094851,00000103,false,Rx,0,8,02,00,02,00,00,00,03,03,
2099851,00000122,false,Rx,0,8,D3,23,00,CA,1C,BB,05,98,
2104851,00000231,false,Rx,0,8,00,01,00,00,00,00,04,05,
2109851,00000110,false,Rx,0,8,00,00,00,7B,01,05,0A,75,
2114851,00000300,false,Rx,0,8,00,00,0D,8C,00,66,00,00,
2119851,00000308,false,Rx,0,8,00,12,00,00,00,00,82,00,
2124851,00000316,false,Rx,0,8,13,AD,01,27,4E,00,00,00,
2129851,00000320,false,Rx,0,8,20,00,00,00,F0,00,82,00,
2134851,00000332,false,Rx,0,8,01,00,00,00,00,00,01,00,
2139851,00000342,false,Rx,0,8,03,C2,99,99,93,00,03,90,
2144851,00000516,false,Rx,0,8,00,00,00,00,00,00,00,00,
2149851,00000517,false,Rx,0,8,00,00,00,00,00,00,00,00,
2154851,00000010,false,Rx,0,8,00,FF,61,30,00,00,01,AF,
2159851,00000530,false,Rx,0,8,FF,FF,6B,23,64,04,49,00,
2164851,00000400,false,Rx,0,8,00,0B,56,F0,00,01,09,A5,
2169851,00000408,false,Rx,0,8,00,41,33,0A,FF,FF,09,71,
2174851,00000410,false,Rx,0,8,3F,00,AA,31,00,FF,09,52,
2179851,00000411,false,Rx,0,8,32,60,00,00,00,00,00,00,
2184851,00000022,false,Rx,0,8,FF,FF,FF,FF,00,00,09,09,
2189851,00000102,false,Rx,0,8,00,00,19,4F,51,CD,04,CE,
2194851,00000103,false,Rx,0,8,02,00,02,00,00,00,04,04,
2199851,00000122,false,Rx,0,8,D3,23,00,CA,1C,BB,06,9B,
2204851,00000231,false,Rx,0,8,00,01,00,00,00,00,05,04,
2209851,00000517,false,Rx,0,8,01,00,00,00,00,00,00,00,
2214851,00000010,false,Rx,0,8,00,FF,61,30,00,00,02,AC,
2219851,00000012,false,Rx,0,8,99,99,32,00,01,00,01,32,
2224851,00000013,false,Rx,0,8,FF,01,09,00,00,00,00,00,
2229851,00000102,false,Rx,0,8,00,00,19,4F,51,CD,05,CF,
2234851,00000103,false,Rx,0,8,02,00,02,00,00,00,05,05,
2239851,00000122,false,Rx,0,8,D3,23,00,CA,1C,BB,07,9A,
2244851,00000110,false,Rx,0,8,00,00,00,7B,01,05,0B,74,
2249851,00000300,false,Rx,0,8,00,00,0D,8C,00,66,00,00,
2254851,00000308,false,Rx,0,8,00,12,00,00,00,00,82,00,
2259851,00000316,false,Rx,0,8,13,AD,01,27,4E,00,00,00,
2264851,00000320,false,Rx,0,8,20,00,00,00,F0,00,82,00,
2269851,00000342,false,Rx,0,8,03,C2,99,99,93,00,03,90,
2274851,00000516,false,Rx,0,8,00,00,00,00,00,00,00,00,
2279851,00000231,false,Rx,0,8,00,01,00,00,00,00,06,07,
2284851,00000517,false,Rx,0,8,01,00,00,00,00,00,00,00,
2289851,00000010,false,Rx,0,8,00,FF,61,30,00,00,03,AD,
2294851,00000400,false,Rx,0,8,00,0B,56,F0,00,01,0A,A6,
2299851,00000408,false,Rx,0,8,00,41,33,0A,FF,FF,0A,72,
2304851,00000410,false,Rx,0,8,3F,00,AA,31,00,FF,0A,51,
2309851,00000411,false,Rx,0,8,32,60,00,00,00,00,00,00,
2314851,00000022,false,Rx,0,8,FF,FF,FF,FF,00,00,0A,0A,
2319851,00000102,false,Rx,0,8,00,00,19,4F,51,CD,06,CC,
2324851,00000103,false,Rx,0,8,02,00,02,00,00,00,06,06,
2329851,00000122,false,Rx,0,8,D3,23,00,CA,1C,BB,08,95,
2334851,00000231,false,Rx,0,8,00,01,00,00,00,00,08,09,
2339851,00000517,false,Rx,0,8,00,00,00,00,00,00,00,00,
2344851,00000010,false,Rx,0,8,00,FF,61,30,00,00,04,AA,
2349851,00000012,false,Rx,0,8,99,99,32,00,00,00,02,30,
2354851,00000102,false,Rx,0,8,00,00,19,4F,51,CD,07,CD,
2359851,00000103,false,Rx,0,8,02,00,02,00,00,00,07,07,
2364851,00000122,false,Rx,0,8,D3,23,00,CA,1C,BB,09,94,
2369851,00000110,false,Rx,0,8,00,00,00,7B,01,05,0C,73,
2374851,00000308,false,Rx,0,8,00,12,00,00,00,00,82,00,
2379851,00000300,false,Rx,0,8,00,00,0D,8C,00,66,00,00,
2384851,00000316,false,Rx,0,8,13,AD,01,27,4E,00,00,00,
2389851,00000320,false,Rx,0,8,20,00,00,00,F0,00,82,00,
2394851,00000342,false,Rx,0,8,03,C2,99,99,93,00,03,90,
2399851,00000516,false,Rx,0,8,00,00,00,00,00,00,00,00,
2404851,00000231,false,Rx,0,8,00,01,00,00,00,00,08,09,
2409851,00000517,false,Rx,0,8,00,00,00,00,00,00,00,00,
2414851,00000010,false,Rx,0,8,00,FF,61,30,00,00,05,AB,
2419851,00000400,false,Rx,0,8,00,0B,56,F0,00,01,0C,A0,
2424851,00000408,false,Rx,0,8,00,41,33,0A,FF,FF,0C,74,
2429851,00000410,false,Rx,0,8,3F,00,AA,31,00,FF,0B,50,
2434851,00000411,false,Rx,0,8,32,60,00,00,00,00,00,00,
2439851,00000022,false,Rx,0,8,FF,FF,FF,FF,00,00,0B,0B,
2444851,00000102,false,Rx,0,8,00,00,19,4F,51,CD,08,C2,
2449851,00000103,false,Rx,0,8,02,00,02,00,00,00,08,08,
2454851,00000122,false,Rx,0,8,D3,23,00,CA,1C,BB,0A,97,
2459851,00000231,false,Rx,0,8,00,00,00,00,00,00,0A,0A,
2464851,00000517,false,Rx,0,8,01,00,00,00,00,00,00,00,
2469851,00000010,false,Rx,0,8,00,FF,61,30,00,00,06,A8,
2474851,00000012,false,Rx,0,8,99,99,32,00,01,00,03,30,
2479851,00000102,false,Rx,0,8,00,00,19,4F,51,CD,09,C3,
2484851,00000103,false,Rx,0,8,02,00,02,00,00,00,09,09,
2489851,00000122,false,Rx,0,8,D3,23,00,CA,1C,BB,0B,96,
2494851,00000110,false,Rx,0,8,00,00,00,7B,01,05,0D,72,
2499851,00000300,false,Rx,0,8,00,00,0D,8C,00,66,00,00,
2504851,00000308,false,Rx,0,8,00,12,00,00,00,00,82,00,
2509851,00000316,false,Rx,0,8,13,AD,01,27,4E,00,00,00,
2514851,00000320,false,Rx,0,8,20,00,00,00,F0,00,82,00,
2519851,00000342,false,Rx,0,8,03,C2,99,99,93,00,03,90,
2524851,00000516,false,Rx,0,8,00,00,00,00,00,00,00,00,
2529851,00000231,false,Rx,0,8,00,00,00,00,00,00,0B,0B,
2534851,00000517,false,Rx,0,8,00,00,00,00,00,00,00,00,
2539851,00000400,false,Rx,0,8,00,0B,56,F0,00,01,0D,A1,
2544851,00000408,false,Rx,0,8,00,41,33,0A,FF,FF,0D,75,
2549851,00000410,false,Rx,0,8,3F,00,C4,00,00,FF,0C,08,
2554851,00000010,false,Rx,0,8,00,FF,61,30,00,00,07,A9,
2559851,00000411,false,Rx,0,8,32,60,00,00,00,00,00,00,
2564851,00000013,false,Rx,0,8,FF,01,09,00,00,00,00,00,
2569851,00000022,false,Rx,0,8,FF,FF,FF,FF,00,00,0C,0C,
2574851,00000102,false,Rx,0,8,00,00,19,4F,51,CD,0A,C0,
2579851,00000103,false,Rx,0,8,02,00,02,00,00,00,0A,0A,
2584851,00000122,false,Rx,0,8,D3,23,00,CA,1C,BB,0C,91,
2589851,00000231,false,Rx,0,8,00,00,00,00,00,00,0C,0C,
2594851,00000517,false,Rx,0,8,00,00,00,00,00,00,00,00,
2599851,00000102,false,Rx,0,8,00,00,19,4F,51,CD,0B,C1,
2604851,00000010,false,Rx,0,8,00,FF,61,30,00,00,08,A6,
2609851,00000103,false,Rx,0,8,02,00,02,00,00,00,0B,0B,
2614851,00000012,false,Rx,0,8,99,99,32,00,00,00,04,36,
2619851,00000122,false,Rx,0,8,D3,23,00,CA,1C,BB,0D,90,
2624851,00000110,false,Rx,0,8,00,00,00,7B,01,05,0E,71,
2629851,00000300,false,Rx,0,8,00,00,0D,8C,00,66,00,00,
2634851,00000308,false,Rx,0,8,00,12,00,00,00,00,82,00,
2639851,00000316,false,Rx,0,8,13,AD,01,27,4E,00,00,00,
2644851,00000320,false,Rx,0,8,20,00,00,00,F0,00,82,00,
2649851,00000342,false,Rx,0,8,03,C2,99,99,93,00,03,90,
2654851,00000516,false,Rx,0,8,00,00,00,00,00,00,00,00,
2659851,00000231,false,Rx,0,8,00,00,00,00,00,00,0D,0D,
2664851,00000517,false,Rx,0,8,01,00,00,00,00,00,00,00,
2669851,00000400,false,Rx,0,8,00,0B,56,F0,00,01,0E,A2,
2674851,00000408,false,Rx,0,8,00,41,33,0A,FF,FF,0E,76,
2679851,00000410,false,Rx,0,8,3F,00,C4,00,00,FF,0D,09,
2684851,00000102,false,Rx,0,8,00,00,19,4F,51,CD,0C,C6,
2689851,00000103,false,Rx,0,8,02,00,02,00,00,00,0C,0C,
2694851,00000122,false,Rx,0,8,D3,23,00,CA,1C,BB,0E,93,
2699851,00000411,false,Rx,0,8,32,60,00,00,00,00,00,00,
2704851,00000010,false,Rx,0,8,00,FF,61,30,00,00,09,A7,
2709851,00000022,false,Rx,0,8,FF,FF,FF,FF,00,00,0D,0D,
2714851,00000231,false,Rx,0,8,00,00,00,00,00,00,0E,0E,
2719851,00000517,false,Rx,0,8,01,00,00,00,00,00,00,00,
2724851,00000102,false,Rx,0,8,00,00,19,4F,51,CD,0D,C7,
2729851,00000103,false,Rx,0,8,02,00,02,00,00,00,0D,0D,
2734851,00000122,false,Rx,0,8,D3,23,00,CA,1C,BB,0F,92,
2739851,00000110,false,Rx,0,8,00,00,00,7B,01,05,0F,70,
2744851,00000300,false,Rx,0,8,00,00,0D,8C,00,66,00,00,
2749851,00000308,false,Rx,0,8,00,12,00,00,00,00,82,00,
2754851,00000316,false,Rx,0,8,13,AD,01,27,4E,00,00,00,
2759851,00000320,false,Rx,0,8,20,00,00,00,F0,00,82,00,
2764851,00000332,false,Rx,0,8,01,00,00,00,00,00,02,03,
2769851,00000010,false,Rx,0,8,00,FF,61,30,00,00,0A,A4,
2774851,00000342,false,Rx,0,8,03,C2,99,99,93,00,03,90,
2779851,00000012,false,Rx,0,8,99,99,32,00,01,00,05,36,
2784851,00000516,false,Rx,0,8,00,00,00,00,00,00,00,00,
2789851,00000530,false,Rx,0,8,FF,FF,6B,23,64,04,49,00,
2794851,00000102,false,Rx,0,8,00,00,19,4F,51,CD,0E,C4,
2799851,00000103,false,Rx,0,8,02,00,02,00,00,00,0E,0E,
2804851,00000122,false,Rx,0,8,D3,23,00,CA,1C,BB,00,9D,
2809851,00000231,false,Rx,0,8,00,00,00,00,00,00,0F,0F,
2814851,00000400,false,Rx,0,8,00,0B,56,F0,00,01,0F,A3,
2819851,00000408,false,Rx,0,8,00,41,33,0A,FF,FF,0F,77,
2824851,00000410,false,Rx,0,8,3F,00,C4,00,00,FF,0E,0A,
2829851,00000411,false,Rx,0,8,32,60,00,00,00,00,00,00,
2834851,00000022,false,Rx,0,8,FF,FF,FF,FF,00,00,0E,0E,
2839851,00000517,false,Rx,0,8,00,00,00,00,00,00,00,00,
2844851,00000010,false,Rx,0,8,00,FF,61,30,00,00,0B,A5,
2849851,00000102,false,Rx,0,8,00,00,19,4F,51,CD,0F,C5,
2854851,00000103,false,Rx,0,8,02,00,02,00,00,00,0F,0F,
2859851,00000122,false,Rx,0,8,D3,23,00,CA,1C,BB,01,9C,
2864851,00000110,false,Rx,0,8,00,00,00,7B,01,05,00,7F,
2869851,00000300,false,Rx,0,8,00,00,0D,8C,00,66,00,00,
2874851,00000231,false,Rx,0,8,00,00,00,00,00,00,00,00,
2879851,00000308,false,Rx,0,8,00,12,00,00,00,00,82,00,
2884851,00000316,false,Rx,0,8,13,AD,01,27,4E,00,00,00,
2889851,00000320,false,Rx,0,8,20,00,00,00,F0,00,82,00,
2894851,00000342,false,Rx,0,8,03,C2,99,99,93,00,03,90,
2899851,00000516,false,Rx,0,8,00,00,00,00,00,00,00,00,
2904851,00000517,false,Rx,0,8,00,00,00,00,00,00,00,00,
2909851,00000010,false,Rx,0,8,00,FF,61,30,00,00,0C,A2,
2914851,00000012,false,Rx,0,8,99,99,32,00,00,00,06,34,
2919851,00000013,false,Rx,0,8,FF,01,09,00,00,00,00,00,
2924851,00000102,false,Rx,0,8,00,00,19,4F,51,CD,00,CA,
2929851,00000103,false,Rx,0,8,02,00,02,00,00,00,00,00,
2934851,00000122,false,Rx,0,8,D3,23,00,CA,1C,BB,02,9F,
2939851,00000400,false,Rx,0,8,00,0B,56,F0,00,01,00,AC,
2944851,00000408,false,Rx,0,8,00,41,33,0A,FF,FF,00,78,
2949851,00000410,false,Rx,0,8,3F,00,C4,00,00,FF,0F,0B,
2954851,00000411,false,Rx,0,8,32,60,00,00,00,00,00,00,
2959851,00000022,false,Rx,0,8,FF,FF,FF,FF,00,00,0F,0F,
2964851,00000231,false,Rx,0,8,00,00,00,00,00,00,01,01,
2969851,00000517,false,Rx,0,8,01,00,00,00,00,00,00,00,
2974851,00000010,false,Rx,0,8,00,FF,61,30,00,00,0D,A3,
2979851,00000102,false,Rx,0,8,00,00,19,4F,51,CD,01,CB,
2984851,00000103,false,Rx,0,8,02,00,02,00,00,00,01,01,
2989851,00000122,false,Rx,0,8,D3,23,00,CA,1C,BB,03,9E,
2994851,00000110,false,Rx,0,8,00,00,00,7B,01,05,01,7E,
2999851,00000300,false,Rx,0,8,00,00,0D,8C,00,66,00,00,
3004851,00000308,false,Rx,0,8,00,12,00,00,00,00,82,00,
3009851,00000316,false,Rx,0,8,13,AD,01,27,4E,00,00,00,
3014851,00000320,false,Rx,0,8,20,00,00,00,F0,00,82,00,
3019851,00000342,false,Rx,0,8,03,C2,99,99,93,00,03,90,
3024851,00000516,false,Rx,0,8,00,00,00,00,00,00,00,00,
3029851,00000231,false,Rx,0,8,00,00,00,00,00,00,02,02,
3034851,00000517,false,Rx,0,8,01,00,00,00,00,00,00,00,
3039851,00000010,false,Rx,0,8,00,FF,61,30,00,00,0E,A0,
3044851,00000012,false,Rx,0,8,99,99,32,00,01,00,07,34,
3049851,00000102,false,Rx,0,8,00,00,19,4F,51,CD,02,C8,
3054851,00000103,false,Rx,0,8,02,00,02,00,00,00,02,02,
3059851,00000122,false,Rx,0,8,D3,23,00,CA,1C,BB,04,99,
3064851,00000400,false,Rx,0,8,00,0B,56,F0,00,01,01,AD,
3069851,00000408,false,Rx,0,8,00,41,33,0A,FF,FF,01,79,
3074851,00000410,false,Rx,0,8,3F,00,AA,30,00,FF,00,5A,
3079851,00000411,false,Rx,0,8,32,60,00,00,00,00,00,00,
3084851,00000022,false,Rx,0,8,FF,FF,FF,FF,00,00,00,00,
3089851,00000231,false,Rx,0,8,00,00,00,00,00,00,04,04,
3094851,00000517,false,Rx,0,8,00,00,00,00,00,00,00,00,
3099851,00000010,false,Rx,0,8,00,FF,61,30,00,00,0F,A1,
3104851,00000102,false,Rx,0,8,00,00,19,4F,51,CD,03,C9,
3109851,00000103,false,Rx,0,8,02,00,02,00,00,00,03,03,
3114851,00000122,false,Rx,0,8,D3,23,00,CA,1C,BB,05,98,
3119851,00000110,false,Rx,0,8,00,00,00,7B,01,05,02,7D,
3124851,00000308,false,Rx,0,8,00,12,00,00,00,00,82,00,
3129851,00000300,false,Rx,0,8,00,00,0D,8C,00,66,00,00,
3134851,00000316,false,Rx,0,8,13,AD,01,27,4E,00,00,00,
3139851,00000320,false,Rx,0,8,20,00,00,00,F0,00,82,00,
3144851,00000342,false,Rx,0,8,03,C2,99,99,93,00,03,90,
3149851,00000516,false,Rx,0,8,00,00,00,00,00,00,00,00,
3154851,00000231,false,Rx,0,8,00,00,00,00,00,00,04,04,
3159851,00000517,false,Rx,0,8,00,00,00,00,00,00,00,00,
3164851,00000010,false,Rx,0,8,00,FF,61,30,00,00,00,AE,
3169851,00000012,false,Rx,0,8,99,99,32,00,00,00,08,3A,
3174851,00000102,false,Rx,0,8,00,00,19,4F,51,CD,04,CE,
3179851,00000103,false,Rx,0,8,02,00,02,00,00,00,04,04,
3184851,00000122,false,Rx,0,8,D3,23,00,CA,1C,BB,06,9B,
3189851,00000400,false,Rx,0,8,00,0B,56,F0,00,01,02,AE,
3194851,00000408,false,Rx,0,8,00,41,33,0A,FF,FF,02,7A,
3199851,00000410,false,Rx,0,8,3F,00,AA,30,00,FF,02,58,
3204851,00000411,false,Rx,0,8,32,60,00,00,00,00,00,00,
3209851,00000022,false,Rx,0,8,FF,FF,FF,FF,00,00,02,02,
3214851,00000231,false,Rx,0,8,00,00,00,00,00,00,06,06,
3219851,00000517,false,Rx,0,8,01,00,00,00,00,00,00,00,
3224851,00000010,false,Rx,0,8,00,FF,61,30,00,00,01,AF,
3229851,00000013,false,Rx,0,8,FF,01,09,00,00,00,00,00,
3234851,00000102,false,Rx,0,8,00,00,19,4F,51,CD,05,CF,
3239851,00000103,false,Rx,0,8,02,00,02,00,00,00,05,05,
3244851,00000122,false,Rx,0,8,D3,23,00,CA,1C,BB,07,9A,
3249851,00000110,false,Rx,0,8,00,00,00,7B,01,05,03,7C,
3254851,00000300,false,Rx,0,8,00,00,0D,8C,00,66,00,00,
3259851,00000308,false,Rx,0,8,00,12,00,00,00,00,82,00,
3264851,00000316,false,Rx,0,8,13,AD,01,27,4E,00,00,00,
3269851,00000320,false,Rx,0,8,20,00,00,00,F0,00,82,00,
3274851,00000342,false,Rx,0,8,03,C2,99,99,93,00,03,90,
3279851,00000516,false,Rx,0,8,00,00,00,00,00,00,00,00,
3284851,00000231,false,Rx,0,8,00,00,00,00,00,00,07,07,
3289851,00000517,false,Rx,0,8,00,00,00,00,00,00,00,00,
3294851,00000010,false,Rx,0,8,00,FF,61,30,00,00,02,AC,
3299851,00000102,false,Rx,0,8,00,00,19,4F,51,CD,06,CC,
3304851,00000012,false,Rx,0,8,99,99,32,00,01,00,09,3A,
3309851,00000103,false,Rx,0,8,02,00,02,00,00,00,06,06,
3314851,00000122,false,Rx,0,8,D3,23,00,CA,1C,BB,08,95,
3319851,00000400,false,Rx,0,8,00,0B,56,F0,00,01,03,AF,
3324851,00000408,false,Rx,0,8,00,41,33,0A,FF,FF,03,7B,
3329851,00000410,false,Rx,0,8,3F,00,AA,30,00,FF,03,59,
3334851,00000411,false,Rx,0,8,32,60,00,00,00,00,00,00,
3339851,00000022,false,Rx,0,8,FF,FF,FF,FF,00,00,03,03,
3344851,00000231,false,Rx,0,8,00,00,00,00,00,00,08,08,
3349851,00000517,false,Rx,0,8,00,00,00,00,00,00,00,00,
3354851,00000102,false,Rx,0,8,00,00,19,4F,51,CD,07,CD,
3359851,00000103,false,Rx,0,8,02,00,02,00,00,00,07,07,
3364851,00000122,false,Rx,0,8,D3,23,00,CA,1C,BB,09,94,
3369851,00000010,false,Rx,0,8,00,FF,61,30,00,00,03,AD,
3374851,00000110,false,Rx,0,8,00,00,00,7B,01,05,04,7B,
3379851,00000300,false,Rx,0,8,00,00,0D,8C,00,66,00,00,
3384851,00000308,false,Rx,0,8,00,12,00,00,00,00,82,00,
3389851,00000316,false,Rx,0,8,13,AD,01,27,4E,00,00,00,
3394851,00000320,false,Rx,0,8,20,00,00,00,F0,00,82,00,
3399851,00000332,false,Rx,0,8,01,00,00,00,00,00,03,02,
3404851,00000342,false,Rx,0,8,03,C2,99,99,93,00,03,90,
3409851,00000516,false,Rx,0,8,00,00,00,00,00,00,00,00,
3414851,00000530,false,Rx,0,8,FF,FF,6B,23,64,04,49,00,
3419851,00000231,false,Rx,0,8,00,00,00,00,00,00,09,09,
3424851,00000517,false,Rx,0,8,01,00,00,00,00,00,00,00,
3429851,00000102,false,Rx,0,8,00,00,19,4F,51,CD,08,C2,
3434851,00000103,false,Rx,0,8,02,00,02,00,00,00,08,08,
3439851,00000122,false,Rx,0,8,D3,23,00,CA,1C,BB,0A,97,
3444851,00000010,false,Rx,0,8,00,FF,61,30,00,00,04,AA,
3449851,00000012,false,Rx,0,8,99,99,32,00,00,00,0A,38,
3454851,00000400,false,Rx,0,8,00,0B,56,F0,00,01,04,A8,
3459851,00000408,false,Rx,0,8,00,41,33,0A,FF,FF,04,7C,
3464851,00000410,false,Rx,0,8,3F,00,AA,31,00,FF,04,5F,
3469851,00000411,false,Rx,0,8,32,60,00,00,00,00,00,00,
3474851,00000022,false,Rx,0,8,FF,FF,FF,FF,00,00,04,04,
3479851,00000102,false,Rx,0,8,00,00,19,4F,51,CD,09,C3,
3484851,00000103,false,Rx,0,8,02,00,02,00,00,00,09,09,
3489851,00000122,false,Rx,0,8,D3,23,00,CA,1C,BB,0B,96,
3494851,00000110,false,Rx,0,8,00,00,00,7B,01,05,05,7A,
3499851,00000231,false,Rx,0,8,00,00,00,00,00,00,0A,0A,
3504851,00000300,false,Rx,0,8,00,00,0D,8C,00,66,00,00,
3509851,00000308,false,Rx,0,8,00,12,00,00,00,00,82,00,
3514851,00000316,false,Rx,0,8,13,AD,01,27,4E,00,00,00,
3519851,00000320,false,Rx,0,8,20,00,00,00,F0,00,82,00,
3524851,00000342,false,Rx,0,8,03,C2,99,99,93,00,03,90,
3529851,00000516,false,Rx,0,8,00,00,00,00,00,00,00,00,
3534851,00000517,false,Rx,0,8,01,00,00,00,00,00,00,00,
3539851,00000010,false,Rx,0,8,00,FF,61,30,00,00,05,AB,
3544851,00000102,false,Rx,0,8,00,00,19,4F,51,CD,0A,C0,
3549851,00000103,false,Rx,0,8,02,00,02,00,00,00,0A,0A,
3554851,00000122,false,Rx,0,8,D3,23,00,CA,1C,BB,0C,91,
3559851,00000231,false,Rx,0,8,00,00,00,00,00,00,0B,0B,
3564851,00000517,false,Rx,0,8,00,00,00,00,00,00,00,00,
3569851,00000010,false,Rx,0,8,00,FF,61,30,00,00,06,A8,
3574851,00000012,false,Rx,0,8,99,99,32,00,01,00,0B,38,
3579851,00000013,false,Rx,0,8,FF,01,09,00,00,00,00,00,
3584851,00000400,false,Rx,0,8,00,0B,56,F0,00,01,05,A9,
3589851,00000408,false,Rx,0,8,00,41,33,0A,FF,FF,05,7D,
3594851,00000410,false,Rx,0,8,3F,00,AA,31,00,FF,05,5E,
3599851,00000411,false,Rx,0,8,32,60,00,00,00,00,00,00,
3604851,00000022,false,Rx,0,8,FF,FF,FF,FF,00,00,05,05,
3609851,00000102,false,Rx,0,8,00,00,19,4F,51,CD,0B,C1,
3614851,00000103,false,Rx,0,8,02,00,02,00,00,00,0B,0B,
3619851,00000122,false,Rx,0,8,D3,23,00,CA,1C,BB,0D,90,
3624851,00000110,false,Rx,0,8,00,00,00,7B,01,05,06,79,
3629851,00000308,false,Rx,0,8,00,12,00,00,00,00,82,00,
3634851,00000300,false,Rx,0,8,00,00,0D,8C,00,66,00,00,
3639851,00000316,false,Rx,0,8,13,AD,01,27,4E,00,00,00,
3644851,00000320,false,Rx,0,8,20,00,00,00,F0,00,82,00,
3649851,00000342,false,Rx,0,8,03,C2,99,99,93,00,03,90,
3654851,00000231,false,Rx,0,8,00,00,00,00,00,00,0C,0C,
3659851,00000516,false,Rx,0,8,00,00,00,00,00,00,00,00,
3664851,00000517,false,Rx,0,8,00,00,00,00,00,00,00,00,
3669851,00000010,false,Rx,0,8,00,FF,61,30,00,00,07,A9,
3674851,00000102,false,Rx,0,8,00,00,19,4F,51,CD,0C,C6,
3679851,00000103,false,Rx,0,8,02,00,02,00,00,00,0C,0C,
3684851,00000122,false,Rx,0,8,D3,23,00,CA,1C,BB,0E,93,
3689851,00000231,false,Rx,0,8,00,00,00,00,00,00,0E,0E,
3694851,00000517,false,Rx,0,8,01,00,00,00,00,00,00,00,
3699851,00000010,false,Rx,0,8,00,FF,61,30,00,00,08,A6,
3704851,00000012,false,Rx,0,8,99,99,32,00,00,00,0C,3E,
3709851,00000400,false,Rx,0,8,00,0B,56,F0,00,01,06,AA,
3714851,00000408,false,Rx,0,8,00,41,33,0A,FF,FF,06,7E,
3719851,00000410,false,Rx,0,8,3F,00,AA,31,00,FF,06,5D,
3724851,00000411,false,Rx,0,8,32,60,00,00,00,00,00,00,
3729851,00000022,false,Rx,0,8,FF,FF,FF,FF,00,00,06,06,
3734851,00000102,false,Rx,0,8,00,00,19,4F,51,CD,0D,C7,
3739851,00000103,false,Rx,0,8,02,00,02,00,00,00,0D,0D,
3744851,00000122,false,Rx,0,8,D3,23,00,CA,1C,BB,0F,92,
3749851,00000110,false,Rx,0,8,00,00,00,7B,01,05,07,78,
3754851,00000300,false,Rx,0,8,00,00,0D,8C,00,66,00,00,
3759851,00000308,false,Rx,0,8,00,12,00,00,00,00,82,00,
3764851,00000316,false,Rx,0,8,13,AD,01,27,4E,00,00,00,
3769851,00000320,false,Rx,0,8,20,00,00,00,F0,00,82,00,
3774851,00000342,false,Rx,0,8,03,C2,99,99,93,00,03,90,
3779851,00000516,false,Rx,0,8,00,00,00,00,00,00,00,00,
3784851,00000231,false,Rx,0,8,00,00,00,00,00,00,0E,0E,
3789851,00000517,false,Rx,0,8,01,00,00,00,00,00,00,00,
3794851,00000010,false,Rx,0,8,00,FF,61,30,00,00,09,A7,
3799851,00000102,false,Rx,0,8,00,00,19,4F,51,CD,0E,C4,
3804851,00000103,false,Rx,0,8,02,00,02,00,00,00,0E,0E,
3809851,00000122,false,Rx,0,8,D3,23,00,CA,1C,BB,00,9D,
3814851,00000231,false,Rx,0,8,00,00,00,00,00,00,00,00,
3819851,00000517,false,Rx,0,8,00,00,00,00,00,00,00,00,
3824851,00000010,false,Rx,0,8,00,FF,61,30,00,00,0A,A4,
3829851,00000012,false,Rx,0,8,99,99,32,00,01,00,0D,3E,
3834851,00000400,false,Rx,0,8,00,0B,56,F0,00,01,07,AB,
3839851,00000408,false,Rx,0,8,00,41,33,0A,FF,FF,07,7F,
3844851,00000410,false,Rx,0,8,3F,00,AA,31,00,FF,07,5C,
3849851,00000411,false,Rx,0,8,32,60,00,00,00,00,00,00,
3854851,00000022,false,Rx,0,8,FF,FF,FF,FF,00,00,07,07,
3859851,00000102,false,Rx,0,8,00,00,19,4F,51,CD,0F,C5,
3864851,00000103,false,Rx,0,8,02,00,02,00,00,00,0F,0F,
3869851,00000122,false,Rx,0,8,D3,23,00,CA,1C,BB,01,9C,
3874851,00000110,false,Rx,0,8,00,00,00,7B,01,05,08,77,
3879851,00000300,false,Rx,0,8,00,00,0D,8C,00,66,00,00,
3884851,00000308,false,Rx,0,8,00,12,00,00,00,00,82,00,
3889851,00000316,false,Rx,0,8,13,AD,01,27,4E,00,00,00,
3894851,00000320,false,Rx,0,8,20,00,00,00,F0,00,82,00,
3899851,00000342,false,Rx,0,8,03,C2,99,99,93,00,03,90,
3904851,00000516,false,Rx,0,8,00,00,00,00,00,00,00,00,
3909851,00000231,false,Rx,0,8,00,00,00,00,00,00,01,01,
3914851,00000517,false,Rx,0,8,00,00,00,00,00,00,00,00,
3919851,00000010,false,Rx,0,8,00,FF,61,30,00,00,0B,A5,
3924851,00000013,false,Rx,0,8,FF,01,09,00,00,00,00,00,
3929851,00000102,false,Rx,0,8,00,00,19,4F,51,CD,00,CA,
3934851,00000103,false,Rx,0,8,02,00,02,00,00,00,00,00,
3939851,00000122,false,Rx,0,8,D3,23,00,CA,1C,BB,02,9F,
3944851,00000231,false,Rx,0,8,00,00,00,00,00,00,02,02,
3949851,00000517,false,Rx,0,8,01,00,00,00,00,00,00,00,
3954851,00000400,false,Rx,0,8,00,0B,56,F0,00,01,08,A4,
3959851,00000408,false,Rx,0,8,00,41,33,0A,FF,FF,08,70,
3964851,00000010,false,Rx,0,8,00,FF,61,30,00,00,0C,A2,
3969851,00000102,false,Rx,0,8,00,00,19,4F,51,CD,01,CB,
3974851,00000012,false,Rx,0,8,99,99,32,00,00,00,0E,3C,
3979851,00000103,false,Rx,0,8,02,00,02,00,00,00,01,01,
3984851,00000122,false,Rx,0,8,D3,23,00,CA,1C,BB,03,9E,
3989851,00000110,false,Rx,0,8,00,00,00,7B,01,05,09,76,
3994851,00000300,false,Rx,0,8,00,00,0D,8C,00,66,00,00,
3999851,00000308,false,Rx,0,8,00,12,00,00,00,00,82,00,
4004851,00000316,false,Rx,0,8,13,AD,01,27,4E,00,00,00,
4009851,00000320,false,Rx,0,8,20,00,00,00,F0,00,82,00,
4014851,00000342,false,Rx,0,8,03,C2,99,99,93,00,03,90,
4019851,00000410,false,Rx,0,8,3F,00,C4,00,00,FF,08,0C,
4024851,00000516,false,Rx,0,8,00,00,00,00,00,00,00,00,
4029851,00000411,false,Rx,0,8,32,60,00,00,00,00,00,00,
4034851,00000022,false,Rx,0,8,FF,FF,FF,FF,00,00,08,08,
4039851,00000332,false,Rx,0,8,01,00,00,00,00,00,04,05,
4044851,00000530,false,Rx,0,8,FF,FF,6B,23,64,04,49,00,
4049851,00000231,false,Rx,0,8,00,00,00,00,00,00,03,03,
4054851,00000517,false,Rx,0,8,00,00,00,00,00,00,00,00,
4059851,00000102,false,Rx,0,8,00,00,19,4F,51,CD,02,C8,
4064851,00000103,false,Rx,0,8,02,00,02,00,00,00,02,02,
4069851,00000122,false,Rx,0,8,D3,23,00,CA,1C,BB,04,99,
4074851,00000010,false,Rx,0,8,00,FF,61,30,00,00,0D,A3,
4079851,00000231,false,Rx,0,8,00,00,00,00,00,00,04,04,
4084851,00000517,false,Rx,0,8,00,00,00,00,00,00,00,00,
4089851,00000102,false,Rx,0,8,00,00,19,4F,51,CD,03,C9,
4094851,00000103,false,Rx,0,8,02,00,02,00,00,00,03,03,
4099851,00000122,false,Rx,0,8,D3,23,00,CA,1C,BB,05,98,
4104851,00000400,false,Rx,0,8,00,0B,56,F0,00,01,09,A5,
4109851,00000110,false,Rx,0,8,00,00,00,7B,01,05,0A,75,
4114851,00000300,false,Rx,0,8,00,00,0D,8C,00,66,00,00,
4119851,00000308,false,Rx,0,8,00,12,00,00,00,00,82,00,
4124851,00000316,false,Rx,0,8,13,AD,01,27,4E,00,00,00,
4129851,00000010,false,Rx,0,8,00,FF,61,30,00,00,0E,A0,
4134851,00000320,false,Rx,0,8,20,00,00,00,F0,00,82,00,
4139851,00000012,false,Rx,0,8,99,99,32,00,01,00,0F,3C,
4144851,00000342,false,Rx,0,8,03,C2,99,99,93,00,03,90,
4149851,00000408,false,Rx,0,8,00,41,33,0A,FF,FF,09,71,
4154851,00000516,false,Rx,0,8,00,00,00,00,00,00,00,00,
4159851,00000410,false,Rx,0,8,3F,00,C4,00,00,FF,09,0D,
4164851,00000411,false,Rx,0,8,32,60,00,00,00,00,00,00,
4169851,00000022,false,Rx,0,8,FF,FF,FF,FF,00,00,09,09,
4174851,00000102,false,Rx,0,8,00,00,19,4F,51,CD,04,CE,
4179851,00000103,false,Rx,0,8,02,00,02,00,00,00,04,04,
4184851,00000122,false,Rx,0,8,D3,23,00,CA,1C,BB,06,9B,
4189851,00000231,false,Rx,0,8,00,00,00,00,00,00,05,05,
4194851,00000517,false,Rx,0,8,01,00,00,00,00,00,00,00,
4199851,00000010,false,Rx,0,8,00,FF,61,30,00,00,0F,A1,
4204851,00000102,false,Rx,0,8,00,00,19,4F,51,CD,05,CF,
4209851,00000103,false,Rx,0,8,02,00,02,00,00,00,05,05,
4214851,00000122,false,Rx,0,8,D3,23,00,CA,1C,BB,07,9A,
4219851,00000110,false,Rx,0,8,00,00,00,7B,01,05,0B,74,
4224851,00000300,false,Rx,0,8,00,00,0D,8C,00,66,00,00,
4229851,00000308,false,Rx,0,8,00,12,00,00,00,00,82,00,
4234851,00000231,false,Rx,0,8,00,00,00,00,00,00,06,06,
4239851,00000316,false,Rx,0,8,13,AD,01,27,4E,00,00,00,
4244851,00000320,false,Rx,0,8,20,00,00,00,F0,00,82,00,
4249851,00000342,false,Rx,0,8,03,C2,99,99,93,00,03,90,
4254851,00000400,false,Rx,0,8,00,0B,56,F0,00,01,0A,A6,
4259851,00000516,false,Rx,0,8,00,00,00,00,00,00,00,00,
4264851,00000408,false,Rx,0,8,00,41,33,0A,FF,FF,0A,72,
4269851,00000410,false,Rx,0,8,3F,00,C4,00,00,FF,0A,0E,
4274851,00000411,false,Rx,0,8,32,60,00,00,00,00,00,00,
4279851,00000022,false,Rx,0,8,FF,FF,FF,FF,00,00,0A,0A,
4284851,00000010,false,Rx,0,8,00,FF,61,30,00,00,00,AE,
4289851,00000517,false,Rx,0,8,01,00,00,00,00,00,00,00,
4294851,00000012,false,Rx,0,8,99,99,32,00,00,00,00,32,
4299851,00000013,false,Rx,0,8,FF,01,09,00,00,00,00,00,
4304851,00000102,false,Rx,0,8,00,00,19,4F,51,CD,06,CC,
4309851,00000103,false,Rx,0,8,02,00,02,00,00,00,06,06,
4314851,00000122,false,Rx,0,8,D3,23,00,CA,1C,BB,08,95,
4319851,00000231,false,Rx,0,8,00,00,00,00,00,00,07,07,
4324851,00000517,false,Rx,0,8,00,00,00,00,00,00,00,00,
4329851,00000010,false,Rx,0,8,00,FF,61,30,00,00,01,AF,
4334851,00000102,false,Rx,0,8,00,00,19,4F,51,CD,07,CD,
4339851,00000103,false,Rx,0,8,02,00,02,00,00,00,07,07,
4344851,00000122,false,Rx,0,8,D3,23,00,CA,1C,BB,09,94,
4349851,00000110,false,Rx,0,8,00,00,00,7B,01,05,0C,73,
4354851,00000308,false,Rx,0,8,00,12,00,00,00,00,82,00,
4359851,00000300,false,Rx,0,8,00,00,0D,8C,00,66,00,00,
4364851,00000316,false,Rx,0,8,13,AD,01,27,4E,00,00,00,
4369851,00000320,false,Rx,0,8,20,00,00,00,F0,00,82,00,
4374851,00000342,false,Rx,0,8,03,C2,99,99,93,00,03,90,
4379851,00000400,false,Rx,0,8,00,0B,56,F0,00,01,0B,A7,
4384851,00000516,false,Rx,0,8,00,00,00,00,00,00,00,00,
4389851,00000408,false,Rx,0,8,00,41,33,0A,FF,FF,0B,73,
4394851,00000410,false,Rx,0,8,3F,00,C4,00,00,FF,0B,0F,
4399851,00000411,false,Rx,0,8,32,60,00,00,00,00,00,00,
4404851,00000022,false,Rx,0,8,FF,FF,FF,FF,00,00,0B,0B,
4409851,00000231,false,Rx,0,8,00,00,00,00,00,00,08,08,
4414851,00000517,false,Rx,0,8,00,00,00,00,00,00,00,00,
4419851,00000010,false,Rx,0,8,00,FF,61,30,00,00,02,AC,
4424851,00000012,false,Rx,0,8,99,99,32,00,01,00,01,32,
4429851,00000102,false,Rx,0,8,00,00,19,4F,51,CD,08,C2,
4434851,00000103,false,Rx,0,8,02,00,02,00,00,00,08,08,
4439851,00000122,false,Rx,0,8,D3,23,00,CA,1C,BB,0A,97,
4444851,00000231,false,Rx,0,8,00,00,00,00,00,00,0A,0A,
4449851,00000517,false,Rx,0,8,01,00,00,00,00,00,00,00,
4454851,00000010,false,Rx,0,8,00,FF,61,30,00,00,03,AD,
4459851,00000102,false,Rx,0,8,00,00,19,4F,51,CD,09,C3,
4464851,00000103,false,Rx,0,8,02,00,02,00,00,00,09,09,
4469851,00000122,false,Rx,0,8,D3,23,00,CA,1C,BB,0B,96,
4474851,00000110,false,Rx,0,8,00,00,00,7B,01,05,0D,72,
4479851,00000300,false,Rx,0,8,00,00,0D,8C,00,66,00,00,
4484851,00000308,false,Rx,0,8,00,12,00,00,00,00,82,00,
4489851,00000316,false,Rx,0,8,13,AD,01,27,4E,00,00,00,
4494851,00000320,false,Rx,0,8,20,00,00,00,F0,00,82,00,
4499851,00000342,false,Rx,0,8,03,C2,99,99,93,00,03,90,
4504851,00000516,false,Rx,0,8,00,00,00,00,00,00,00,00,
4509851,00000400,false,Rx,0,8,00,0B,56,F0,00,01,0C,A0,
4514851,00000408,false,Rx,0,8,00,41,33,0A,FF,FF,0C,74,
4519851,00000410,false,Rx,0,8,3F,00,AA,30,00,FF,0C,56,
4524851,00000411,false,Rx,0,8,32,60,00,00,00,00,00,00,
4529851,00000022,false,Rx,0,8,FF,FF,FF,FF,00,00,0C,0C,
4534851,00000231,false,Rx,0,8,00,00,00,00,00,00,0A,0A,
4539851,00000517,false,Rx,0,8,01,00,00,00,00,00,00,00,
4544851,00000010,false,Rx,0,8,00,FF,61,30,00,00,04,AA,
4549851,00000012,false,Rx,0,8,99,99,32,00,00,00,02,30,
4554851,00000102,false,Rx,0,8,00,00,19,4F,51,CD,0A,C0,
4559851,00000103,false,Rx,0,8,02,00,02,00,00,00,0A,0A,
4564851,00000122,false,Rx,0,8,D3,23,00,CA,1C,BB,0C,91,
4569851,00000231,false,Rx,0,8,00,01,00,00,00,00,0C,0D,
4574851,00000517,false,Rx,0,8,00,00,00,00,00,00,00,00,
4579851,00000010,false,Rx,0,8,00,FF,61,30,00,00,05,AB,
4584851,00000013,false,Rx,0,8,FF,01,09,00,00,00,00,00,
4589851,00000102,false,Rx,0,8,00,00,19,4F,51,CD,0B,C1,
4594851,00000103,false,Rx,0,8,02,00,02,00,00,00,0B,0B,
4599851,00000122,false,Rx,0,8,D3,23,00,CA,1C,BB,0D,90,
4604851,00000110,false,Rx,0,8,00,00,00,7B,01,05,0E,71,
4609851,00000308,false,Rx,0,8,00,12,00,00,00,00,82,00,
4614851,00000300,false,Rx,0,8,00,00,0D,8C,00,66,00,00,
4619851,00000316,false,Rx,0,8,13,AD,01,27,4E,00,00,00,
4624851,00000320,false,Rx,0,8,20,00,00,00,F0,00,82,00,
4629851,00000342,false,Rx,0,8,03,C2,99,99,93,00,03,90,
4634851,00000516,false,Rx,0,8,00,00,00,00,00,00,00,00,
4639851,00000400,false,Rx,0,8,00,0B,56,F0,00,01,0D,A1,
4644851,00000408,false,Rx,0,8,00,41,33,0A,FF,FF,0D,75,
4649851,00000410,false,Rx,0,8,3F,00,AA,30,00,FF,0D,57,
4654851,00000411,false,Rx,0,8,32,60,00,00,00,00,00,00,
4659851,00000332,false,Rx,0,8,01,00,00,00,00,00,05,04,
4664851,00000022,false,Rx,0,8,FF,FF,FF,FF,00,00,0D,0D,
4669851,00000530,false,Rx,0,8,FF,FF,6B,23,64,04,49,00,
4674851,00000231,false,Rx,0,8,00,01,00,00,00,00,0C,0D,
4679851,00000517,false,Rx,0,8,00,00,00,00,00,00,00,00,
4684851,00000010,false,Rx,0,8,00,FF,61,30,00,00,06,A8,
4689851,00000012,false,Rx,0,8,99,99,32,00,01,00,03,30,
4694851,00000102,false,Rx,0,8,00,00,19,4F,51,CD,0C,C6,
4699851,00000103,false,Rx,0,8,02,00,02,00,00,00,0C,0C,
4704851,00000122,false,Rx,0,8,D3,23,00,CA,1C,BB,0E,93,
4709851,00000231,false,Rx,0,8,00,01,00,00,00,00,0E,0F,
4714851,00000517,false,Rx,0,8,01,00,00,00,00,00,00,00,
4719851,00000102,false,Rx,0,8,00,00,19,4F,51,CD,0D,C7,
4724851,00000103,false,Rx,0,8,02,00,02,00,00,00,0D,0D,
4729851,00000122,false,Rx,0,8,D3,23,00,CA,1C,BB,0F,92,
4734851,00000010,false,Rx,0,8,00,FF,61,30,00,00,07,A9,
4739851,00000110,false,Rx,0,8,00,00,00,7B,01,05,0F,70,
4744851,00000300,false,Rx,0,8,00,00,0D,8C,00,66,00,00,
4749851,00000308,false,Rx,0,8,00,12,00,00,00,00,82,00,
4754851,00000316,false,Rx,0,8,13,AD,01,27,4E,00,00,00,
4759851,00000320,false,Rx,0,8,20,00,00,00,F0,00,82,00,
4764851,00000342,false,Rx,0,8,03,C2,99,99,93,00,03,90,
4769851,00000516,false,Rx,0,8,00,00,00,00,00,00,00,00,
4774851,00000400,false,Rx,0,8,00,0B,56,F0,00,01,0E,A2,
4779851,00000408,false,Rx,0,8,00,41,33,0A,FF,FF,0E,76,
4784851,00000410,false,Rx,0,8,3F,00,AA,30,00,FF,0E,54,
4789851,00000411,false,Rx,0,8,32,60,00,00,00,00,00,00,
4794851,00000022,false,Rx,0,8,FF,FF,FF,FF,00,00,0E,0E,
4799851,00000231,false,Rx,0,8,00,01,00,00,00,00,0F,0E,
4804851,00000517,false,Rx,0,8,00,00,00,00,00,00,00,00,
4809851,00000102,false,Rx,0,8,00,00,19,4F,51,CD,0E,C4,
4814851,00000103,false,Rx,0,8,02,00,02,00,00,00,0E,0E,
4819851,00000122,false,Rx,0,8,D3,23,00,CA,1C,BB,00,9D,
4824851,00000010,false,Rx,0,8,00,FF,61,30,00,00,08,A6,
4829851,00000012,false,Rx,0,8,99,99,32,00,00,00,04,36,
4834851,00000102,false,Rx,0,8,00,00,19,4F,51,CD,0F,C5,
4839851,00000103,false,Rx,0,8,02,00,02,00,00,00,0F,0F,
4844851,00000122,false,Rx,0,8,D3,23,00,CA,1C,BB,01,9C,
4849851,00000231,false,Rx,0,8,00,01,00,00,00,00,00,01,
4854851,00000517,false,Rx,0,8,00,00,00,00,00,00,00,00,
4859851,00000110,false,Rx,0,8,00,00,00,7B,01,05,00,7F,
4864851,00000300,false,Rx,0,8,00,00,0D,8C,00,66,00,00,
4869851,00000308,false,Rx,0,8,00,12,00,00,00,00,82,00,
4874851,00000316,false,Rx,0,8,13,AD,01,27,4E,00,00,00,
4879851,00000320,false,Rx,0,8,20,00,00,00,F0,00,82,00,
4884851,00000342,false,Rx,0,8,03,C2,99,99,93,00,03,90,
4889851,00000010,false,Rx,0,8,00,FF,61,30,00,00,09,A7,
4894851,00000516,false,Rx,0,8,00,00,00,00,00,00,00,00,
4899851,00000400,false,Rx,0,8,00,0B,56,F0,00,01,0F,A3,
4904851,00000408,false,Rx,0,8,00,41,33,0A,FF,FF,0F,77,
4909851,00000410,false,Rx,0,8,3F,00,AA,30,00,FF,0F,55,
4914851,00000411,false,Rx,0,8,32,60,00,00,00,00,00,00,
4919851,00000022,false,Rx,0,8,FF,FF,FF,FF,00,00,0F,0F,
4924851,00000102,false,Rx,0,8,00,00,19,4F,51,CD,00,CA,
4929851,00000103,false,Rx,0,8,02,00,02,00,00,00,00,00,
4934851,00000122,false,Rx,0,8,D3,23,00,CA,1C,BB,02,9F,
4939851,00000231,false,Rx,0,8,00,01,00,00,00,00,01,00,
4944851,00000517,false,Rx,0,8,01,00,00,00,00,00,00,00,
4949851,00000010,false,Rx,0,8,00,FF,61,30,00,00,0A,A4,
4954851,00000012,false,Rx,0,8,99,99,32,00,01,00,05,36,
4959851,00000013,false,Rx,0,8,FF,01,09,00,00,00,00,00,
4964851,00000102,false,Rx,0,8,00,00,19,4F,51,CD,01,CB,
4969851,00000103,false,Rx,0,8,02,00,02,00,00,00,01,01,
4974851,00000122,false,Rx,0,8,D3,23,00,CA,1C,BB,03,9E,
4979851,00000110,false,Rx,0,8,00,00,00,7B,01,05,01,7E,
4984851,00000300,false,Rx,0,8,00,00,0D,8C,00,66,00,00,
4989851,00000308,false,Rx,0,8,00,12,00,00,00,00,82,00,
4994851,00000316,false,Rx,0,8,13,AD,01,27,4E,00,00,00,
4999851,00000320,false,Rx,0,8,20,00,00,00,F0,00,82,00,
5004851,00000342,false,Rx,0,8,03,C2,99,99,93,00,03,90,
5009851,00000516,false,Rx,0,8,00,00,00,00,00,00,00,00,
5014851,00000231,false,Rx,0,8,00,01,00,00,00,00,02,03,
5019851,00000517,false,Rx,0,8,01,00,00,00,00,00,00,00,
5024851,00000010,false,Rx,0,8,00,FF,61,30,00,00,0B,A5,
5029851,00000400,false,Rx,0,8,00,0B,56,F0,00,01,01,AD,
5034851,00000408,false,Rx,0,8,00,41,33,0A,FF,FF,01,79,
5039851,00000410,false,Rx,0,8,3F,00,AA,31,00,FF,00,5B,
5044851,00000411,false,Rx,0,8,32,60,00,00,00,00,00,00,
5049851,00000022,false,Rx,0,8,FF,FF,FF,FF,00,00,00,00,
5054851,00000102,false,Rx,0,8,00,00,19,4F,51,CD,02,C8,
5059851,00000103,false,Rx,0,8,02,00,02,00,00,00,02,02,
5064851,00000122,false,Rx,0,8,D3,23,00,CA,1C,BB,04,99,
5069851,00000231,false,Rx,0,8,00,01,00,00,00,00,04,05,
5074851,00000517,false,Rx,0,8,00,00,00,00,00,00,00,00,
5079851,00000010,false,Rx,0,8,00,FF,61,30,00,00,0C,A2,
5084851,00000012,false,Rx,0,8,99,99,32,00,00,00,06,34,
5089851,00000102,false,Rx,0,8,00,00,19,4F,51,CD,03,C9,
5094851,00000103,false,Rx,0,8,02,00,02,00,00,00,03,03,
5099851,00000122,false,Rx,0,8,D3,23,00,CA,1C,BB,05,98,
5104851,00000110,false,Rx,0,8,00,00,00,7B,01,05,02,7D,
5109851,00000308,false,Rx,0,8,00,12,00,00,00,00,82,00,
5114851,00000300,false,Rx,0,8,00,00,0D,8C,00,66,00,00,
5119851,00000316,false,Rx,0,8,13,AD,01,27,4E,00,00,00,
5124851,00000320,false,Rx,0,8,20,00,00,00,F0,00,82,00,
5129851,00000342,false,Rx,0,8,03,C2,99,99,93,00,03,90,
5134851,00000516,false,Rx,0,8,00,00,00,00,00,00,00,00,
5139851,00000231,false,Rx,0,8,00,01,00,00,00,00,04,05,
5144851,00000517,false,Rx,0,8,00,00,00,00,00,00,00,00,
5149851,00000010,false,Rx,0,8,00,FF,61,30,00,00,0D,A3,
5154851,00000400,false,Rx,0,8,00,0B,56,F0,00,01,02,AE,
5159851,00000408,false,Rx,0,8,00,41,33,0A,FF,FF,02,7A,
5164851,00000410,false,Rx,0,8,3F,00,AA,31,00,FF,01,5A,
5169851,00000411,false,Rx,0,8,32,60,00,00,00,00,00,00,
5174851,00000022,false,Rx,0,8,FF,FF,FF,FF,00,00,01,01,
5179851,00000102,false,Rx,0,8,00,00,19,4F,51,CD,04,CE,
5184851,00000103,false,Rx,0,8,02,00,02,00,00,00,04,04,
5189851,00000122,false,Rx,0,8,D3,23,00,CA,1C,BB,06,9B,
5194851,00000231,false,Rx,0,8,00,01,00,00,00,00,06,07,
5199851,00000517,false,Rx,0,8,01,00,00,00,00,00,00,00,
5204851,00000010,false,Rx,0,8,00,FF,61,30,00,00,0E,A0,
5209851,00000012,false,Rx,0,8,99,99,32,00,01,00,07,34,
5214851,00000102,false,Rx,0,8,00,00,19,4F,51,CD,05,CF,
5219851,00000103,false,Rx,0,8,02,00,02,00,00,00,05,05,
5224851,00000122,false,Rx,0,8,D3,23,00,CA,1C,BB,07,9A,
5229851,00000110,false,Rx,0,8,00,00,00,7B,01,05,03,7C,
5234851,00000300,false,Rx,0,8,00,00,0D,8C,00,66,00,00,
5239851,00000308,false,Rx,0,8,00,12,00,00,00,00,82,00,
5244851,00000316,false,Rx,0,8,13,AD,01,27,4E,00,00,00,
5249851,00000320,false,Rx,0,8,20,00,00,00,F0,00,82,00,
5254851,00000342,false,Rx,0,8,03,C2,99,99,93,00,03,90,
5259851,00000516,false,Rx,0,8,00,00,00,00,00,00,00,00,
5264851,00000332,false,Rx,0,8,01,00,00,00,00,00,06,07,
5269851,00000530,false,Rx,0,8,FF,FF,6B,23,64,04,49,00,
5274851,00000231,false,Rx,0,8,00,01,00,00,00,00,06,07,
5279851,00000517,false,Rx,0,8,01,00,00,00,00,00,00,00,
5284851,00000010,false,Rx,0,8,00,FF,61,30,00,00,0F,A1,
5289851,00000013,false,Rx,0,8,FF,01,09,00,00,00,00,00,
5294851,00000400,false,Rx,0,8,00,0B,56,F0,00,01,03,AF,
5299851,00000408,false,Rx,0,8,00,41,33,0A,FF,FF,03,7B,
5304851,00000410,false,Rx,0,8,3F,00,AA,31,00,FF,02,59,
5309851,00000102,false,Rx,0,8,00,00,19,4F,51,CD,06,CC,
5314851,00000103,false,Rx,0,8,02,00,02,00,00,00,06,06,
5319851,00000122,false,Rx,0,8,D3,23,00,CA,1C,BB,08,95,
5324851,00000411,false,Rx,0,8,32,60,00,00,00,00,00,00,
5329851,00000022,false,Rx,0,8,FF,FF,FF,FF,00,00,02,02,
5334851,00000231,false,Rx,0,8,00,01,00,00,00,00,08,09,
5339851,00000517,false,Rx,0,8,00,00,00,00,00,00,00,00,
5344851,00000010,false,Rx,0,8,00,FF,61,30,00,00,00,AE,
5349851,00000012,false,Rx,0,8,99,99,32,00,00,00,08,3A,
5354851,00000102,false,Rx,0,8,00,00,19,4F,51,CD,07,CD,
5359851,00000103,false,Rx,0,8,02,00,02,00,00,00,07,07,
5364851,00000122,false,Rx,0,8,D3,23,00,CA,1C,BB,09,94,
5369851,00000110,false,Rx,0,8,00,00,00,7B,01,05,04,7B,
5374851,00000300,false,Rx,0,8,00,00,0D,8C,00,66,00,00,
5379851,00000308,false,Rx,0,8,00,12,00,00,00,00,82,00,
5384851,00000316,false,Rx,0,8,13,AD,01,27,4E,00,00,00,
5389851,00000320,false,Rx,0,8,20,00,00,00,F0,00,82,00,
5394851,00000342,false,Rx,0,8,03,C2,99,99,93,00,03,90,
5399851,00000516,false,Rx,0,8,00,00,00,00,00,00,00,00,
5404851,00000231,false,Rx,0,8,00,01,00,00,00,00,09,08,
5409851,00000517,false,Rx,0,8,01,00,00,00,00,00,00,00,
5414851,00000102,false,Rx,0,8,00,00,19,4F,51,CD,08,C2,
5419851,00000103,false,Rx,0,8,02,00,02,00,00,00,08,08,
5424851,00000122,false,Rx,0,8,D3,23,00,CA,1C,BB,0A,97,
5429851,00000010,false,Rx,0,8,00,FF,61,30,00,00,01,AF,
5434851,00000400,false,Rx,0,8,00,0B,56,F0,00,01,04,A8,
5439851,00000408,false,Rx,0,8,00,41,33,0A,FF,FF,04,7C,
5444851,00000410,false,Rx,0,8,3F,00,AA,31,00,FF,03,58,
5449851,00000411,false,Rx,0,8,32,60,00,00,00,00,00,00,
5454851,00000022,false,Rx,0,8,FF,FF,FF,FF,00,00,03,03,
5459851,00000231,false,Rx,0,8,00,01,00,00,00,00,0A,0B,
5464851,00000517,false,Rx,0,8,01,00,00,00,00,00,00,00,
5469851,00000102,false,Rx,0,8,00,00,19,4F,51,CD,09,C3,
5474851,00000103,false,Rx,0,8,02,00,02,00,00,00,09,09,
5479851,00000122,false,Rx,0,8,D3,23,00,CA,1C,BB,0B,96,
5484851,00000110,false,Rx,0,8,00,00,00,7B,01,05,05,7A,
5489851,00000300,false,Rx,0,8,00,00,0D,8C,00,66,00,00,
5494851,00000308,false,Rx,0,8,00,12,00,00,00,00,82,00,
5499851,00000316,false,Rx,0,8,13,AD,01,27,4E,00,00,00,
5504851,00000010,false,Rx,0,8,00,FF,61,30,00,00,02,AC,
5509851,00000320,false,Rx,0,8,20,00,00,00,F0,00,82,00,
5514851,00000012,false,Rx,0,8,99,99,32,00,01,00,09,3A,
5519851,00000342,false,Rx,0,8,03,C2,99,99,93,00,03,90,
5524851,00000516,false,Rx,0,8,00,00,00,00,00,00,00,00,
5529851,00000102,false,Rx,0,8,00,00,19,4F,51,CD,0A,C0,
5534851,00000103,false,Rx,0,8,02,00,02,00,00,00,0A,0A,
5539851,00000122,false,Rx,0,8,D3,23,00,CA,1C,BB,0C,91,
5544851,00000231,false,Rx,0,8,00,01,00,00,00,00,0B,0A,
5549851,00000517,false,Rx,0,8,00,00,00,00,00,00,00,00,
5554851,00000400,false,Rx,0,8,00,0B,56,F0,00,01,05,A9,
5559851,00000408,false,Rx,0,8,00,41,33,0A,FF,FF,05,7D,
5564851,00000410,false,Rx,0,8,3F,00,C4,00,00,FF,04,00,
5569851,00000411,false,Rx,0,8,32,60,00,00,00,00,00,00,
5574851,00000022,false,Rx,0,8,FF,FF,FF,FF,00,00,04,04,
5579851,00000010,false,Rx,0,8,00,FF,61,30,00,00,03,AD,
5584851,00000102,false,Rx,0,8,00,00,19,4F,51,CD,0B,C1,
5589851,00000103,false,Rx,0,8,02,00,02,00,00,00,0B,0B,
5594851,00000122,false,Rx,0,8,D3,23,00,CA,1C,BB,0D,90,
5599851,00000110,false,Rx,0,8,00,00,00,7B,01,05,06,79,
5604851,00000308,false,Rx,0,8,00,12,00,00,00,00,82,00,
5609851,00000231,false,Rx,0,8,00,01,00,00,00,00,0C,0D,
5614851,00000300,false,Rx,0,8,00,00,0D,8C,00,66,00,00,
5619851,00000316,false,Rx,0,8,13,AD,01,27,4E,00,00,00,
5624851,00000320,false,Rx,0,8,20,00,00,00,F0,00,82,00,
5629851,00000342,false,Rx,0,8,03,C2,99,99,93,00,03,90,
5634851,00000516,false,Rx,0,8,00,00,00,00,00,00,00,00,
5639851,00000517,false,Rx,0,8,00,00,00,00,00,00,00,00,
5644851,00000010,false,Rx,0,8,00,FF,61,30,00,00,04,AA,
5649851,00000012,false,Rx,0,8,99,99,32,00,00,00,0A,38,
5654851,00000013,false,Rx,0,8,FF,01,09,00,00,00,00,00,
5659851,00000102,false,Rx,0,8,00,00,19,4F,51,CD,0C,C6,
5664851,00000103,false,Rx,0,8,02,00,02,00,00,00,0C,0C,
5669851,00000122,false,Rx,0,8,D3,23,00,CA,1C,BB,0E,93,
5674851,00000231,false,Rx,0,8,00,01,00,00,00,00,0D,0C,
5679851,00000400,false,Rx,0,8,00,0B,56,F0,00,01,06,AA,
5684851,00000408,false,Rx,0,8,00,41,33,0A,FF,FF,06,7E,
5689851,00000410,false,Rx,0,8,3F,00,C4,00,00,FF,05,01,
5694851,00000411,false,Rx,0,8,32,60,00,00,00,00,00,00,
5699851,00000022,false,Rx,0,8,FF,FF,FF,FF,00,00,05,05,
5704851,00000517,false,Rx,0,8,01,00,00,00,00,00,00,00,
5709851,00000010,false,Rx,0,8,00,FF,61,30,00,00,05,AB,
5714851,00000102,false,Rx,0,8,00,00,19,4F,51,CD,0D,C7,
5719851,00000103,false,Rx,0,8,02,00,02,00,00,00,0D,0D,
5724851,00000122,false,Rx,0,8,D3,23,00,CA,1C,BB,0F,92,
5729851,00000110,false,Rx,0,8,00,00,00,7B,01,05,07,78,
5734851,00000300,false,Rx,0,8,00,00,0D,8C,00,66,00,00,
5739851,00000308,false,Rx,0,8,00,12,00,00,00,00,82,00,
5744851,00000316,false,Rx,0,8,13,AD,01,27,4E,00,00,00,
5749851,00000320,false,Rx,0,8,20,00,00,00,F0,00,82,00,
5754851,00000342,false,Rx,0,8,03,C2,99,99,93,00,03,90,
5759851,00000516,false,Rx,0,8,00,00,00,00,00,00,00,00,
5764851,00000231,false,Rx,0,8,00,01,00,00,00,00,0E,0F,
5769851,00000517,false,Rx,0,8,01,00,00,00,00,00,00,00,
5774851,00000010,false,Rx,0,8,00,FF,61,30,00,00,06,A8,
5779851,00000012,false,Rx,0,8,99,99,32,00,01,00,0B,38,
5784851,00000102,false,Rx,0,8,00,00,19,4F,51,CD,0E,C4,
5789851,00000103,false,Rx,0,8,02,00,02,00,00,00,0E,0E,
5794851,00000122,false,Rx,0,8,D3,23,00,CA,1C,BB,00,9D,
5799851,00000400,false,Rx,0,8,00,0B,56,F0,00,01,07,AB,
5804851,00000408,false,Rx,0,8,00,41,33,0A,FF,FF,07,7F,
5809851,00000410,false,Rx,0,8,3F,00,C4,00,00,FF,07,03,
5814851,00000411,false,Rx,0,8,32,60,00,00,00,00,00,00,
5819851,00000022,false,Rx,0,8,FF,FF,FF,FF,00,00,07,07,
5824851,00000231,false,Rx,0,8,00,01,00,00,00,00,00,01,
5829851,00000517,false,Rx,0,8,00,00,00,00,00,00,00,00,
5834851,00000010,false,Rx,0,8,00,FF,61,30,00,00,07,A9,
5839851,00000102,false,Rx,0,8,00,00,19,4F,51,CD,0F,C5,
5844851,00000103,false,Rx,0,8,02,00,02,00,00,00,0F,0F,
5849851,00000122,false,Rx,0,8,D3,23,00,CA,1C,BB,01,9C,
5854851,00000110,false,Rx,0,8,00,00,00,7B,01,05,08,77,
5859851,00000308,false,Rx,0,8,00,12,00,00,00,00,82,00,
5864851,00000300,false,Rx,0,8,00,00,0D,8C,00,66,00,00,
5869851,00000316,false,Rx,0,8,13,AD,01,27,4E,00,00,00,
5874851,00000320,false,Rx,0,8,20,00,00,00,F0,00,82,00,
5879851,00000342,false,Rx,0,8,03,C2,99,99,93,00,03,90,
5884851,00000516,false,Rx,0,8,00,00,00,00,00,00,00,00,
5889851,00000231,false,Rx,0,8,00,01,00,00,00,00,00,01,
5894851,00000517,false,Rx,0,8,00,00,00,00,00,00,00,00,
5899851,00000332,false,Rx,0,8,01,00,00,00,00,00,07,06,
5904851,00000530,false,Rx,0,8,FF,FF,6B,24,64,04,49,00,
5909851,00000010,false,Rx,0,8,00,FF,61,30,00,00,08,A6,
5914851,00000012,false,Rx,0,8,99,99,32,00,00,00,0C,3E,
5919851,00000102,false,Rx,0,8,00,00,19,4F,51,CD,00,CA,
5924851,00000103,false,Rx,0,8,02,00,02,00,00,00,00,00,
5929851,00000122,false,Rx,0,8,D3,23,00,CA,1C,BB,02,9F,
5934851,00000400,false,Rx,0,8,00,0B,56,F0,00,01,08,A4,
5939851,00000408,false,Rx,0,8,00,41,33,0A,FF,FF,08,70,
5944851,00000410,false,Rx,0,8,3F,00,AA,30,00,FF,08,52,
5949851,00000411,false,Rx,0,8,32,60,00,00,00,00,00,00,
5954851,00000022,false,Rx,0,8,FF,FF,FF,FF,00,00,08,08,
5959851,00000231,false,Rx,0,8,00,01,00,00,00,00,02,03,
5964851,00000517,false,Rx,0,8,01,00,00,00,00,00,00,00,
5969851,00000010,false,Rx,0,8,00,FF,61,30,00,00,09,A7,
5974851,00000013,false,Rx,0,8,FF,01,09,00,00,00,00,00,
5979851,00000102,false,Rx,0,8,00,00,19,4F,51,CD,01,CB,
5984851,00000103,false,Rx,0,8,02,00,02,00,00,00,01,01,
5989851,00000122,false,Rx,0,8,D3,23,00,CA,1C,BB,03,9E,
5994851,00000110,false,Rx,0,8,00,00,00,7B,01,05,09,76,
5999851,00000300,false,Rx,0,8,00,00,0D,8C,00,66,00,00,
6004851,00000308,false,Rx,0,8,00,12,00,00,00,00,82,00,
6009851,00000316,false,Rx,0,8,13,AD,01,27,4E,00,00,00,
6014851,00000320,false,Rx,0,8,20,00,00,00,F0,00,82,00,
6019851,00000342,false,Rx,0,8,03,C2,99,99,93,00,03,90,
6024851,00000516,false,Rx,0,8,00,00,00,00,00,00,00,00,
6029851,00000231,false,Rx,0,8,00,01,00,00,00,00,03,02,
6034851,00000517,false,Rx,0,8,00,00,00,00,00,00,00,00,
6039851,00000010,false,Rx,0,8,00,FF,61,30,00,00,0A,A4,
6044851,00000012,false,Rx,0,8,99,99,32,00,01,00,0D,3E,
6049851,00000102,false,Rx,0,8,00,00,19,4F,51,CD,02,C8,
6054851,00000103,false,Rx,0,8,02,00,02,00,00,00,02,02,
6059851,00000122,false,Rx,0,8,D3,23,00,CA,1C,BB,04,99,
6064851,00000400,false,Rx,0,8,00,0B,56,F0,00,01,09,A5,
6069851,00000408,false,Rx,0,8,00,41,33,0A,FF,FF,09,71,
6074851,00000410,false,Rx,0,8,3F,00,AA,30,00,FF,09,53,
6079851,00000411,false,Rx,0,8,32,60,00,00,00,00,00,00,
6084851,00000022,false,Rx,0,8,FF,FF,FF,FF,00,00,09,09,
6089851,00000231,false,Rx,0,8,00,01,00,00,00,00,04,05,
6094851,00000517,false,Rx,0,8,00,00,00,00,00,00,00,00,
6099851,00000102,false,Rx,0,8,00,00,19,4F,51,CD,03,C9,
6104851,00000103,false,Rx,0,8,02,00,02,00,00,00,03,03,
6109851,00000122,false,Rx,0,8,D3,23,00,CA,1C,BB,05,98,
6114851,00000010,false,Rx,0,8,00,FF,61,30,00,00,0B,A5,
6119851,00000110,false,Rx,0,8,00,00,00,7B,01,05,0A,75,
6124851,00000300,false,Rx,0,8,00,00,0D,8C,00,66,00,00,
6129851,00000308,false,Rx,0,8,00,12,00,00,00,00,82,00,
6134851,00000316,false,Rx,0,8,13,AD,01,27,4E,00,00,00,
6139851,00000320,false,Rx,0,8,20,00,00,00,F0,00,82,00,
6144851,00000342,false,Rx,0,8,03,C2,99,99,93,00,03,90,
6149851,00000516,false,Rx,0,8,00,00,00,00,00,00,00,00,
6154851,00000231,false,Rx,0,8,00,01,00,00,00,00,05,04,
6159851,00000517,false,Rx,0,8,01,00,00,00,00,00,00,00,
6164851,00000102,false,Rx,0,8,00,00,19,4F,51,CD,04,CE,
6169851,00000103,false,Rx,0,8,02,00,02,00,00,00,04,04,
6174851,00000122,false,Rx,0,8,D3,23,00,CA,1C,BB,06,9B,
6179851,00000010,false,Rx,0,8,00,FF,61,30,00,00,0C,A2,
6184851,00000012,false,Rx,0,8,99,99,32,00,00,00,0E,3C,
6189851,00000400,false,Rx,0,8,00,0B,56,F0,00,01,0A,A6,
6194851,00000408,false,Rx,0,8,00,41,33,0A,FF,FF,0A,72,
6199851,00000410,false,Rx,0,8,3F,00,AA,30,00,FF,0A,50,
6204851,00000411,false,Rx,0,8,32,60,00,00,00,00,00,00,
6209851,00000022,false,Rx,0,8,FF,FF,FF,FF,00,00,0A,0A,
6214851,00000102,false,Rx,0,8,00,00,19,4F,51,CD,05,CF,
6219851,00000103,false,Rx,0,8,02,00,02,00,00,00,05,05,
6224851,00000122,false,Rx,0,8,D3,23,00,CA,1C,BB,07,9A,
6229851,00000110,false,Rx,0,8,00,00,00,7B,01,05,0B,74,
6234851,00000231,false,Rx,0,8,00,01,00,00,00,00,06,07,
6239851,00000300,false,Rx,0,8,00,00,0D,8C,00,66,00,00,
6244851,00000308,false,Rx,0,8,00,12,00,00,00,00,82,00,
6249851,00000316,false,Rx,0,8,13,AD,01,27,4E,00,00,00,
6254851,00000320,false,Rx,0,8,20,00,00,00,F0,00,82,00,
6259851,00000342,false,Rx,0,8,03,C2,99,99,93,00,03,90,
6264851,00000516,false,Rx,0,8,00,00,00,00,00,00,00,00,
6269851,00000010,false,Rx,0,8,00,FF,61,30,00,00,0D,A3,
6274851,00000517,false,Rx,0,8,01,00,00,00,00,00,00,00,
6279851,00000102,false,Rx,0,8,00,00,19,4F,51,CD,06,CC,
6284851,00000103,false,Rx,0,8,02,00,02,00,00,00,06,06,
6289851,00000122,false,Rx,0,8,D3,23,00,CA,1C,BB,08,95,
6294851,00000231,false,Rx,0,8,00,01,00,00,00,00,07,06,
6299851,00000517,false,Rx,0,8,00,00,00,00,00,00,00,00,
6304851,00000010,false,Rx,0,8,00,FF,61,30,00,00,0E,A0,
6309851,00000012,false,Rx,0,8,99,99,32,00,01,00,0F,3C,
6314851,00000013,false,Rx,0,8,FF,01,09,00,00,00,00,00,
6319851,00000400,false,Rx,0,8,00,0B,56,F0,00,01,0B,A7,
6324851,00000408,false,Rx,0,8,00,41,33,0A,FF,FF,0B,73,
6329851,00000410,false,Rx,0,8,3F,00,AA,30,00,FF,0B,51,
6334851,00000411,false,Rx,0,8,32,60,00,00,00,00,00,00,
6339851,00000022,false,Rx,0,8,FF,FF,FF,FF,00,00,0B,0B,
6344851,00000102,false,Rx,0,8,00,00,19,4F,51,CD,07,CD,
6349851,00000103,false,Rx,0,8,02,00,02,00,00,00,07,07,
6354851,00000122,false,Rx,0,8,D3,23,00,CA,1C,BB,09,94,
6359851,00000110,false,Rx,0,8,00,00,00,7B,01,05,0C,73,
6364851,00000308,false,Rx,0,8,00,12,00,00,00,00,82,00,
6369851,00000300,false,Rx,0,8,00,00,0D,8C,00,66,00,00,
6374851,00000316,false,Rx,0,8,13,AD,01,27,4E,00,00,00,
6379851,00000320,false,Rx,0,8,20,00,00,00,F0,00,82,00,
6384851,00000342,false,Rx,0,8,03,C2,99,99,93,00,03,90,
6389851,00000231,false,Rx,0,8,00,01,00,00,00,00,08,09,
6394851,00000516,false,Rx,0,8,00,00,00,00,00,00,00,00,
6399851,00000517,false,Rx,0,8,00,00,00,00,00,00,00,00,
6404851,00000010,false,Rx,0,8,00,FF,61,30,00,00,0F,A1,
6409851,00000102,false,Rx,0,8,00,00,19,4F,51,CD,08,C2,
6414851,00000103,false,Rx,0,8,02,00,02,00,00,00,08,08,
6419851,00000122,false,Rx,0,8,D3,23,00,CA,1C,BB,0A,97,
6424851,00000231,false,Rx,0,8,00,01,00,00,00,00,0A,0B,
6429851,00000517,false,Rx,0,8,01,00,00,00,00,00,00,00,
6434851,00000010,false,Rx,0,8,00,FF,61,30,00,00,00,AE,
6439851,00000012,false,Rx,0,8,99,99,32,00,00,00,00,32,
6444851,00000400,false,Rx,0,8,00,0B,56,F0,00,01,0C,A0,
6449851,00000408,false,Rx,0,8,00,41,33,0A,FF,FF,0C,74,
6454851,00000410,false,Rx,0,8,3F,00,AA,31,00,FF,0C,57,
6459851,00000411,false,Rx,0,8,32,60,00,00,00,00,00,00,
6464851,00000022,false,Rx,0,8,FF,FF,FF,FF,00,00,0C,0C,
6469851,00000102,false,Rx,0,8,00,00,19,4F,51,CD,09,C3,
6474851,00000103,false,Rx,0,8,02,00,02,00,00,00,09,09,
6479851,00000122,false,Rx,0,8,D3,23,00,CA,1C,BB,0B,96,
6484851,00000110,false,Rx,0,8,00,00,00,7B,01,05,0D,72,
6489851,00000300,false,Rx,0,8,00,00,0D,8C,00,66,00,00,
6494851,00000308,false,Rx,0,8,00,12,00,00,00,00,82,00,
6499851,00000316,false,Rx,0,8,13,AD,01,27,4E,00,00,00,
6504851,00000320,false,Rx,0,8,20,00,00,00,F0,00,82,00,
6509851,00000342,false,Rx,0,8,03,C2,99,99,93,00,03,90,
6514851,00000516,false,Rx,0,8,00,00,00,00,00,00,00,00,
6519851,00000231,false,Rx,0,8,00,01,00,00,00,00,0A,0B,
6524851,00000517,false,Rx,0,8,01,00,00,00,00,00,00,00,
6529851,00000010,false,Rx,0,8,00,FF,61,30,00,00,01,AF,
6534851,00000332,false,Rx,0,8,01,00,00,00,00,00,08,09,
6539851,00000530,false,Rx,0,8,FF,FF,6B,24,64,04,49,00,
6544851,00000102,false,Rx,0,8,00,00,19,4F,51,CD,0A,C0,
6549851,00000103,false,Rx,0,8,02,00,02,00,00,00,0A,0A,
6554851,00000122,false,Rx,0,8,D3,23,00,CA,1C,BB,0C,91,
6559851,00000231,false,Rx,0,8,00,01,00,00,00,00,0C,0D,
6564851,00000517,false,Rx,0,8,00,00,00,00,00,00,00,00,
6569851,00000010,false,Rx,0,8,00,FF,61,30,00,00,02,AC,
6574851,00000012,false,Rx,0,8,99,99,32,00,01,00,01,32,
6579851,00000400,false,Rx,0,8,00,0B,56,F0,00,01,0D,A1,
6584851,00000408,false,Rx,0,8,00,41,33,0A,FF,FF,0D,75,
6589851,00000410,false,Rx,0,8,3F,00,AA,31,00,FF,0D,56,
6594851,00000102,false,Rx,0,8,00,00,19,4F,51,CD,0B,C1,
6599851,00000103,false,Rx,0,8,02,00,02,00,00,00,0B,0B,
6604851,00000122,false,Rx,0,8,D3,23,00,CA,1C,BB,0D,90,
6609851,00000411,false,Rx,0,8,32,60,00,00,00,00,00,00,
6614851,00000110,false,Rx,0,8,00,00,00,7B,01,05,0E,71,
6619851,00000022,false,Rx,0,8,FF,FF,FF,FF,00,00,0D,0D,
6624851,00000300,false,Rx,0,8,00,00,0D,8C,00,66,00,00,
6629851,00000308,false,Rx,0,8,00,12,00,00,00,00,82,00,
6634851,00000316,false,Rx,0,8,13,AD,01,27,4E,00,00,00,
6639851,00000320,false,Rx,0,8,20,00,00,00,F0,00,82,00,
6644851,00000342,false,Rx,0,8,03,C2,99,99,93,00,03,90,
6649851,00000516,false,Rx,0,8,00,00,00,00,00,00,00,00,
6654851,00000231,false,Rx,0,8,00,01,00,00,00,00,0C,0D,
6659851,00000517,false,Rx,0,8,00,00,00,00,00,00,00,00,
6664851,00000010,false,Rx,0,8,00,FF,61,30,00,00,03,AD,
6669851,00000013,false,Rx,0,8,FF,01,09,00,00,00,00,00,
6674851,00000102,false,Rx,0,8,00,00,19,4F,51,CD,0C,C6,
6679851,00000103,false,Rx,0,8,02,00,02,00,00,00,0C,0C,
6684851,00000122,false,Rx,0,8,D3,23,00,CA,1C,BB,0E,93,
6689851,00000231,false,Rx,0,8,00,01,00,00,00,00,0E,0F,
6694851,00000517,false,Rx,0,8,01,00,00,00,00,00,00,00,
6699851,00000010,false,Rx,0,8,00,FF,61,30,00,00,04,AA,
6704851,00000012,false,Rx,0,8,99,99,32,00,00,00,02,30,
6709851,00000102,false,Rx,0,8,00,00,19,4F,51,CD,0D,C7,
6714851,00000103,false,Rx,0,8,02,00,02,00,00,00,0D,0D,
6719851,00000122,false,Rx,0,8,D3,23,00,CA,1C,BB,0F,92,
6724851,00000110,false,Rx,0,8,00,00,00,7B,01,05,0F,70,
6729851,00000300,false,Rx,0,8,00,00,0D,8C,00,66,00,00,
6734851,00000308,false,Rx,0,8,00,12,00,00,00,00,82,00,
6739851,00000316,false,Rx,0,8,13,AD,01,27,4E,00,00,00,
6744851,00000320,false,Rx,0,8,20,00,00,00,F0,00,82,00,
6749851,00000342,false,Rx,0,8,03,C2,99,99,93,00,03,90,
6754851,00000400,false,Rx,0,8,00,0B,56,F0,00,01,0E,A2,
6759851,00000516,false,Rx,0,8,00,00,00,00,00,00,00,00,
6764851,00000408,false,Rx,0,8,00,41,33,0A,FF,FF,0E,76,
6769851,00000410,false,Rx,0,8,3F,00,AA,31,00,FF,0E,55,
6774851,00000411,false,Rx,0,8,32,60,00,00,00,00,00,00,
6779851,00000022,false,Rx,0,8,FF,FF,FF,FF,00,00,0E,0E,
6784851,00000231,false,Rx,0,8,00,01,00,00,00,00,0F,0E,
6789851,00000517,false,Rx,0,8,00,00,00,00,00,00,00,00,
6794851,00000102,false,Rx,0,8,00,00,19,4F,51,CD,0E,C4,
6799851,00000103,false,Rx,0,8,02,00,02,00,00,00,0E,0E,
6804851,00000010,false,Rx,0,8,00,FF,61,30,00,00,05,AB,
6809851,00000122,false,Rx,0,8,D3,23,00,CA,1C,BB,00,9D,
6814851,00000231,false,Rx,0,8,00,01,00,00,00,00,00,01,
6819851,00000517,false,Rx,0,8,00,00,00,00,00,00,00,00,
6824851,00000102,false,Rx,0,8,00,00,19,4F,51,CD,0F,C5,
6829851,00000103,false,Rx,0,8,02,00,02,00,00,00,0F,0F,
6834851,00000122,false,Rx,0,8,D3,23,00,CA,1C,BB,01,9C,
6839851,00000110,false,Rx,0,8,00,00,00,7B,01,05,00,7F,
6844851,00000300,false,Rx,0,8,00,00,0D,8C,00,66,00,00,
6849851,00000010,false,Rx,0,8,00,FF,61,30,00,00,06,A8,
6854851,00000308,false,Rx,0,8,00,12,00,00,00,00,82,00,
6859851,00000012,false,Rx,0,8,99,99,32,00,01,00,03,30,
6864851,00000316,false,Rx,0,8,13,AD,01,27,4E,00,00,00,
6869851,00000320,false,Rx,0,8,20,00,00,00,F0,00,82,00,
6874851,00000342,false,Rx,0,8,03,C2,99,99,93,00,03,90,
6879851,00000400,false,Rx,0,8,00,0B,56,F0,00,01,0F,A3,
6884851,00000516,false,Rx,0,8,00,00,00,00,00,00,00,00,
6889851,00000408,false,Rx,0,8,00,41,33,0A,FF,FF,0F,77,
6894851,00000410,false,Rx,0,8,3F,00,AA,31,00,FF,0F,54,
6899851,00000411,false,Rx,0,8,32,60,00,00,00,00,00,00,
6904851,00000022,false,Rx,0,8,FF,FF,FF,FF,00,00,0F,0F,
6909851,00000102,false,Rx,0,8,00,00,19,4F,51,CD,00,CA,
6914851,00000103,false,Rx,0,8,02,00,02,00,00,00,00,00,
6919851,00000122,false,Rx,0,8,D3,23,00,CA,1C,BB,02,9F,
6924851,00000231,false,Rx,0,8,00,01,00,00,00,00,01,00,
6929851,00000517,false,Rx,0,8,01,00,00,00,00,00,00,00,
6934851,00000010,false,Rx,0,8,00,FF,61,30,00,00,07,A9,
6939851,00000102,false,Rx,0,8,00,00,19,4F,51,CD,01,CB,
6944851,00000103,false,Rx,0,8,02,00,02,00,00,00,01,01,
6949851,00000122,false,Rx,0,8,D3,23,00,CA,1C,BB,03,9E,
6954851,00000110,false,Rx,0,8,00,00,00,7B,01,05,01,7E,
6959851,00000300,false,Rx,0,8,00,00,0D,8C,00,66,00,00,
6964851,00000308,false,Rx,0,8,00,12,00,00,00,00,82,00,
6969851,00000231,false,Rx,0,8,00,01,00,00,00,00,02,03,
6974851,00000316,false,Rx,0,8,13,AD,01,27,4E,00,00,00,
6979851,00000320,false,Rx,0,8,20,00,00,00,F0,00,82,00,
6984851,00000342,false,Rx,0,8,03,C2,99,99,93,00,03,90,
6989851,00000516,false,Rx,0,8,00,00,00,00,00,00,00,00,
6994851,00000517,false,Rx,0,8,01,00,00,00,00,00,00,00,
6999851,00000400,false,Rx,0,8,00,0B,56,F0,00,01,00,AC,
7004851,00000408,false,Rx,0,8,00,41,33,0A,FF,FF,00,78,
7009851,00000010,false,Rx,0,8,00,FF,61,30,00,00,08,A6,
7014851,00000410,false,Rx,0,8,3F,00,C4,00,00,FF,00,04,
7019851,00000012,false,Rx,0,8,99,99,32,00,00,00,04,36,
7024851,00000411,false,Rx,0,8,32,60,00,00,00,00,00,00,
7029851,00000013,false,Rx,0,8,FF,01,09,00,00,00,00,00,
7034851,00000022,false,Rx,0,8,FF,FF,FF,FF,00,00,00,00,
7039851,00000102,false,Rx,0,8,00,00,19,4F,51,CD,02,C8,
7044851,00000103,false,Rx,0,8,02,00,02,00,00,00,02,02,
7049851,00000122,false,Rx,0,8,D3,23,00,CA,1C,BB,04,99,
7054851,00000231,false,Rx,0,8,00,01,00,00,00,00,03,02,
7059851,00000517,false,Rx,0,8,00,00,00,00,00,00,00,00,
7064851,00000010,false,Rx,0,8,00,FF,61,30,00,00,09,A7,
7069851,00000102,false,Rx,0,8,00,00,19,4F,51,CD,03,C9,
7074851,00000103,false,Rx,0,8,02,00,02,00,00,00,03,03,
7079851,00000122,false,Rx,0,8,D3,23,00,CA,1C,BB,05,98,
7084851,00000110,false,Rx,0,8,00,00,00,7B,01,05,02,7D,
7089851,00000308,false,Rx,0,8,00,12,00,00,00,00,82,00,
7094851,00000300,false,Rx,0,8,00,00,0D,8C,00,66,00,00,
7099851,00000316,false,Rx,0,8,13,AD,01,27,4E,00,00,00,
7104851,00000320,false,Rx,0,8,20,00,00,00,F0,00,82,00,
7109851,00000342,false,Rx,0,8,03,C2,99,99,93,00,03,90,
7114851,00000516,false,Rx,0,8,00,00,00,00,00,00,00,00,
7119851,00000231,false,Rx,0,8,00,01,00,00,00,00,04,05,
7124851,00000400,false,Rx,0,8,00,0B,56,F0,00,01,01,AD,
7129851,00000408,false,Rx,0,8,00,41,33,0A,FF,FF,01,79,
7134851,00000410,false,Rx,0,8,3F,00,C4,00,00,FF,01,05,
7139851,00000411,false,Rx,0,8,32,60,00,00,00,00,00,00,
7144851,00000022,false,Rx,0,8,FF,FF,FF,FF,00,00,01,01,
7149851,00000517,false,Rx,0,8,00,00,00,00,00,00,00,00,
7154851,00000010,false,Rx,0,8,00,FF,61,30,00,00,0A,A4,
7159851,00000012,false,Rx,0,8,99,99,32,00,01,00,05,36,
7164851,00000332,false,Rx,0,8,01,00,00,00,00,00,09,08,
7169851,00000530,false,Rx,0,8,FF,FF,6B,24,64,04,49,00,
7174851,00000102,false,Rx,0,8,00,00,19,4F,51,CD,04,CE,
7179851,00000103,false,Rx,0,8,02,00,02,00,00,00,04,04,
7184851,00000122,false,Rx,0,8,D3,23,00,CA,1C,BB,06,9B,
7189851,00000231,false,Rx,0,8,00,01,00,00,00,00,06,07,
7194851,00000517,false,Rx,0,8,01,00,00,00,00,00,00,00,
7199851,00000010,false,Rx,0,8,00,FF,61,30,00,00,0B,A5,
7204851,00000102,false,Rx,0,8,00,00,19,4F,51,CD,05,CF,
7209851,00000103,false,Rx,0,8,02,00,02,00,00,00,05,05,
7214851,00000122,false,Rx,0,8,D3,23,00,CA,1C,BB,07,9A,
7219851,00000110,false,Rx,0,8,00,00,00,7B,01,05,03,7C,
7224851,00000300,false,Rx,0,8,00,00,0D,8C,00,66,00,00,
7229851,00000308,false,Rx,0,8,00,12,00,00,00,00,82,00,
7234851,00000316,false,Rx,0,8,13,AD,01,27,4E,00,00,00,
7239851,00000320,false,Rx,0,8,20,00,00,00,F0,00,82,00,
7244851,00000342,false,Rx,0,8,03,C2,99,99,93,00,03,90,
7249851,00000516,false,Rx,0,8,00,00,00,00,00,00,00,00,
7254851,00000400,false,Rx,0,8,00,0B,56,F0,00,01,02,AE,
7259851,00000408,false,Rx,0,8,00,41,33,0A,FF,FF,02,7A,
7264851,00000410,false,Rx,0,8,3F,00,C4,00,00,FF,02,06,
7269851,00000411,false,Rx,0,8,32,60,00,00,00,00,00,00,
7274851,00000022,false,Rx,0,8,FF,FF,FF,FF,00,00,02,02,
7279851,00000231,false,Rx,0,8,00,01,00,00,00,00,06,07,
7284851,00000517,false,Rx,0,8,01,00,00,00,00,00,00,00,
7289851,00000010,false,Rx,0,8,00,FF,61,30,00,00,0C,A2,
7294851,00000012,false,Rx,0,8,99,99,32,00,00,00,06,34,
7299851,00000102,false,Rx,0,8,00,00,19,4F,51,CD,06,CC,
7304851,00000103,false,Rx,0,8,02,00,02,00,00,00,06,06,
7309851,00000122,false,Rx,0,8,D3,23,00,CA,1C,BB,08,95,
7314851,00000231,false,Rx,0,8,00,01,00,00,00,00,08,09,
7319851,00000517,false,Rx,0,8,00,00,00,00,00,00,00,00,
7324851,00000010,false,Rx,0,8,00,FF,61,30,00,00,0D,A3,
7329851,00000013,false,Rx,0,8,FF,01,09,00,00,00,00,00,
7334851,00000102,false,Rx,0,8,00,00,19,4F,51,CD,07,CD,
7339851,00000103,false,Rx,0,8,02,00,02,00,00,00,07,07,
7344851,00000122,false,Rx,0,8,D3,23,00,CA,1C,BB,09,94,
7349851,00000110,false,Rx,0,8,00,00,00,7B,01,05,04,7B,
7354851,00000300,false,Rx,0,8,00,00,0D,8C,00,66,00,00,
7359851,00000308,false,Rx,0,8,00,12,00,00,00,00,82,00,
7364851,00000316,false,Rx,0,8,13,AD,01,27,4E,00,00,00,
7369851,00000320,false,Rx,0,8,20,00,00,00,F0,00,82,00,
7374851,00000342,false,Rx,0,8,03,C2,99,99,93,00,03,90,
7379851,00000516,false,Rx,0,8,00,00,00,00,00,00,00,00,
7384851,00000400,false,Rx,0,8,00,0B,56,F0,00,01,03,AF,
7389851,00000408,false,Rx,0,8,00,41,33,0A,FF,FF,03,7B,
7394851,00000410,false,Rx,0,8,3F,00,C4,00,00,FF,03,07,
7399851,00000411,false,Rx,0,8,32,60,00,00,00,00,00,00,
7404851,00000022,false,Rx,0,8,FF,FF,FF,FF,00,00,03,03,
7409851,00000231,false,Rx,0,8,00,01,00,00,00,00,09,08,
7414851,00000517,false,Rx,0,8,01,00,00,00,00,00,00,00,
7419851,00000010,false,Rx,0,8,00,FF,61,30,00,00,0E,A0,
7424851,00000012,false,Rx,0,8,99,99,32,00,01,00,07,34,
7429851,00000102,false,Rx,0,8,00,00,19,4F,51,CD,08,C2,
7434851,00000103,false,Rx,0,8,02,00,02,00,00,00,08,08,
7439851,00000122,false,Rx,0,8,D3,23,00,CA,1C,BB,0A,97,
7444851,00000231,false,Rx,0,8,00,01,00,00,00,00,0A,0B,
7449851,00000517,false,Rx,0,8,01,00,00,00,00,00,00,00,
7454851,00000102,false,Rx,0,8,00,00,19,4F,51,CD,09,C3,
7459851,00000103,false,Rx,0,8,02,00,02,00,00,00,09,09,
7464851,00000010,false,Rx,0,8,00,FF,61,30,00,00,0F,A1,
7469851,00000110,false,Rx,0,8,00,00,00,7B,01,05,05,7A,
7474851,00000122,false,Rx,0,8,D3,23,00,CA,1C,BB,0B,96,
7479851,00000300,false,Rx,0,8,00,00,0D,8C,00,66,00,00,
7484851,00000308,false,Rx,0,8,00,12,00,00,00,00,82,00,
7489851,00000316,false,Rx,0,8,13,AD,01,27,4E,00,00,00,
7494851,00000320,false,Rx,0,8,20,00,00,00,F0,00,82,00,
7499851,00000342,false,Rx,0,8,03,C2,99,99,93,00,03,90,
7504851,00000516,false,Rx,0,8,00,00,00,00,00,00,00,00,
7509851,00000400,false,Rx,0,8,00,0B,56,F0,00,01,05,A9,
7514851,00000408,false,Rx,0,8,00,41,33,0A,FF,FF,05,7D,
7519851,00000410,false,Rx,0,8,3F,00,AA,30,00,FF,04,5E,
7524851,00000411,false,Rx,0,8,32,60,00,00,00,00,00,00,
7529851,00000022,false,Rx,0,8,FF,FF,FF,FF,00,00,04,04,
7534851,00000231,false,Rx,0,8,00,01,00,00,00,00,0B,0A,
7539851,00000517,false,Rx,0,8,00,00,00,00,00,00,00,00,
7544851,00000102,false,Rx,0,8,00,00,19,4F,51,CD,0A,C0,
7549851,00000103,false,Rx,0,8,02,00,02,00,00,00,0A,0A,
7554851,00000122,false,Rx,0,8,D3,23,00,CA,1C,BB,0C,91,
7559851,00000010,false,Rx,0,8,00,FF,61,30,00,00,00,AE,
7564851,00000012,false,Rx,0,8,99,99,32,00,00,00,08,3A,
7569851,00000102,false,Rx,0,8,00,00,19,4F,51,CD,0B,C1,
7574851,00000103,false,Rx,0,8,02,00,02,00,00,00,0B,0B,
7579851,00000122,false,Rx,0,8,D3,23,00,CA,1C,BB,0D,90,
7584851,00000231,false,Rx,0,8,00,01,00,00,00,00,0C,0D,
7589851,00000110,false,Rx,0,8,00,00,00,7B,01,05,06,79,
7594851,00000300,false,Rx,0,8,00,00,0D,8C,00,66,00,00,
7599851,00000308,false,Rx,0,8,00,12,00,00,00,00,82,00,
7604851,00000316,false,Rx,0,8,13,AD,01,27,4E,00,00,00,
7609851,00000320,false,Rx,0,8,20,00,00,00,F0,00,82,00,
7614851,00000342,false,Rx,0,8,03,C2,99,99,93,00,03,90,
7619851,00000010,false,Rx,0,8,00,FF,61,30,00,00,01,AF,
7624851,00000516,false,Rx,0,8,00,00,00,00,00,00,00,00,
7629851,00000517,false,Rx,0,8,00,00,00,00,00,00,00,00,
7634851,00000400,false,Rx,0,8,00,0B,56,F0,00,01,06,AA,
7639851,00000408,false,Rx,0,8,00,41,33,0A,FF,FF,06,7E,
7644851,00000410,false,Rx,0,8,3F,00,AA,30,00,FF,05,5F,
7649851,00000411,false,Rx,0,8,32,60,00,00,00,00,00,00,
7654851,00000022,false,Rx,0,8,FF,FF,FF,FF,00,00,05,05,
7659851,00000102,false,Rx,0,8,00,00,19,4F,51,CD,0C,C6,
7664851,00000103,false,Rx,0,8,02,00,02,00,00,00,0C,0C,
7669851,00000122,false,Rx,0,8,D3,23,00,CA,1C,BB,0E,93,
7674851,00000231,false,Rx,0,8,00,01,00,00,00,00,0D,0C,
7679851,00000517,false,Rx,0,8,01,00,00,00,00,00,00,00,
7684851,00000010,false,Rx,0,8,00,FF,61,30,00,00,02,AC,
7689851,00000012,false,Rx,0,8,99,99,32,00,01,00,09,3A,
7694851,00000013,false,Rx,0,8,FF,01,09,00,00,00,00,00,
7699851,00000102,false,Rx,0,8,00,00,19,4F,51,CD,0D,C7,
7704851,00000103,false,Rx,0,8,02,00,02,00,00,00,0D,0D,
7709851,00000122,false,Rx,0,8,D3,23,00,CA,1C,BB,0F,92,
7714851,00000110,false,Rx,0,8,00,00,00,7B,01,05,07,78,
7719851,00000300,false,Rx,0,8,00,00,0D,8C,00,66,00,00,
7724851,00000308,false,Rx,0,8,00,12,00,00,00,00,82,00,
7729851,00000316,false,Rx,0,8,13,AD,01,27,4E,00,00,00,
7734851,00000320,false,Rx,0,8,20,00,00,00,F0,00,82,00,
7739851,00000342,false,Rx,0,8,03,C2,99,99,93,00,03,90,
7744851,00000516,false,Rx,0,8,00,00,00,00,00,00,00,00,
7749851,00000231,false,Rx,0,8,00,01,00,00,00,00,0E,0F,
7754851,00000517,false,Rx,0,8,01,00,00,00,00,00,00,00,
7759851,00000010,false,Rx,0,8,00,FF,61,30,00,00,03,AD,
7764851,00000400,false,Rx,0,8,00,0B,56,F0,00,01,07,AB,
7769851,00000408,false,Rx,0,8,00,41,33,0A,FF,FF,07,7F,
7774851,00000410,false,Rx,0,8,3F,00,AA,30,00,FF,06,5C,
7779851,00000411,false,Rx,0,8,32,60,00,00,00,00,00,00,
7784851,00000022,false,Rx,0,8,FF,FF,FF,FF,00,00,06,06,
7789851,00000332,false,Rx,0,8,01,00,00,00,00,00,0A,0B,
7794851,00000102,false,Rx,0,8,00,00,19,4F,51,CD,0E,C4,
7799851,00000103,false,Rx,0,8,02,00,02,00,00,00,0E,0E,
7804851,00000122,false,Rx,0,8,D3,23,00,CA,1C,BB,00,9D,
7809851,00000530,false,Rx,0,8,FF,FF,6B,24,64,04,49,00,
7814851,00000231,false,Rx,0,8,00,01,00,00,00,00,00,01,
7819851,00000517,false,Rx,0,8,00,00,00,00,00,00,00,00,
7824851,00000010,false,Rx,0,8,00,FF,61,30,00,00,04,AA,
7829851,00000012,false,Rx,0,8,99,99,32,00,00,00,0A,38,
7834851,00000102,false,Rx,0,8,00,00,19,4F,51,CD,0F,C5,
7839851,00000103,false,Rx,0,8,02,00,02,00,00,00,0F,0F,
7844851,00000122,false,Rx,0,8,D3,23,00,CA,1C,BB,01,9C,
7849851,00000110,false,Rx,0,8,00,00,00,7B,01,05,08,77,
7854851,00000300,false,Rx,0,8,00,00,0D,8C,00,66,00,00,
7859851,00000308,false,Rx,0,8,00,12,00,00,00,00,82,00,
7864851,00000316,false,Rx,0,8,13,AD,01,27,4E,00,00,00,
7869851,00000320,false,Rx,0,8,20,00,00,00,F0,00,82,00,
7874851,00000342,false,Rx,0,8,03,C2,99,99,93,00,03,90,
7879851,00000516,false,Rx,0,8,00,00,00,00,00,00,00,00,
7884851,00000231,false,Rx,0,8,00,01,00,00,00,00,00,01,
7889851,00000517,false,Rx,0,8,00,00,00,00,00,00,00,00,
7894851,00000010,false,Rx,0,8,00,FF,61,30,00,00,05,AB,
7899851,00000400,false,Rx,0,8,00,0B,56,F0,00,01,08,A4,
7904851,00000408,false,Rx,0,8,00,41,33,0A,FF,FF,08,70,
7909851,00000410,false,Rx,0,8,3F,00,AA,30,00,FF,07,5D,
7914851,00000102,false,Rx,0,8,00,00,19,4F,51,CD,00,CA,
7919851,00000103,false,Rx,0,8,02,00,02,00,00,00,00,00,
7924851,00000122,false,Rx,0,8,D3,23,00,CA,1C,BB,02,9F,
7929851,00000411,false,Rx,0,8,32,60,00,00,00,00,00,00,
7934851,00000022,false,Rx,0,8,FF,FF,FF,FF,00,00,07,07,
7939851,00000231,false,Rx,0,8,00,01,00,00,00,00,02,03,
7944851,00000517,false,Rx,0,8,01,00,00,00,00,00,00,00,
7949851,00000010,false,Rx,0,8,00,FF,61,30,00,00,06,A8,
7954851,00000012,false,Rx,0,8,99,99,32,00,01,00,0B,38,
7959851,00000102,false,Rx,0,8,00,00,19,4F,51,CD,01,CB,
7964851,00000103,false,Rx,0,8,02,00,02,00,00,00,01,01,
7969851,00000122,false,Rx,0,8,D3,23,00,CA,1C,BB,03,9E,
7974851,00000110,false,Rx,0,8,00,00,00,7B,01,05,09,76,
7979851,00000300,false,Rx,0,8,00,00,0D,8C,00,66,00,00,
7984851,00000308,false,Rx,0,8,00,12,00,00,00,00,82,00,
7989851,00000316,false,Rx,0,8,13,AD,01,27,4E,00,00,00,
7994851,00000320,false,Rx,0,8,20,00,00,00,F0,00,82,00,
7999851,00000342,false,Rx,0,8,03,C2,99,99,93,00,03,90,
8004851,00000516,false,Rx,0,8,00,00,00,00,00,00,00,00,
8009851,00000231,false,Rx,0,8,00,01,00,00,00,00,03,02,
8014851,00000517,false,Rx,0,8,00,00,00,00,00,00,00,00,
8019851,00000010,false,Rx,0,8,00,FF,61,30,00,00,07,A9,
8024851,00000013,false,Rx,0,8,FF,01,09,00,00,00,00,00,
8029851,00000102,false,Rx,0,8,00,00,19,4F,51,CD,02,C8,
8034851,00000103,false,Rx,0,8,02,00,02,00,00,00,02,02,
8039851,00000122,false,Rx,0,8,D3,23,00,CA,1C,BB,04,99,
8044851,00000400,false,Rx,0,8,00,0B,56,F0,00,01,09,A5,
8049851,00000408,false,Rx,0,8,00,41,33,0A,FF,FF,09,71,
8054851,00000410,false,Rx,0,8,3F,00,AA,31,00,FF,08,53,
8059851,00000411,false,Rx,0,8,32,60,00,00,00,00,00,00,
8064851,00000022,false,Rx,0,8,FF,FF,FF,FF,00,00,08,08,
8069851,00000231,false,Rx,0,8,00,01,00,00,00,00,04,05,
8074851,00000517,false,Rx,0,8,00,00,00,00,00,00,00,00,
8079851,00000010,false,Rx,0,8,00,FF,61,30,00,00,08,A6,
8084851,00000012,false,Rx,0,8,99,99,32,00,00,00,0C,3E,
8089851,00000102,false,Rx,0,8,00,00,19,4F,51,CD,03,C9,
8094851,00000103,false,Rx,0,8,02,00,02,00,00,00,03,03,
8099851,00000122,false,Rx,0,8,D3,23,00,CA,1C,BB,05,98,
8104851,00000110,false,Rx,0,8,00,00,00,7B,01,05,0A,75,
8109851,00000308,false,Rx,0,8,00,12,00,00,00,00,82,00,
8114851,00000300,false,Rx,0,8,00,00,0D,8C,00,66,00,00,
8119851,00000316,false,Rx,0,8,13,AD,01,27,4E,00,00,00,
8124851,00000320,false,Rx,0,8,20,00,00,00,F0,00,82,00,
8129851,00000342,false,Rx,0,8,03,C2,99,99,93,00,03,90,
8134851,00000516,false,Rx,0,8,00,00,00,00,00,00,00,00,
8139851,00000231,false,Rx,0,8,00,01,00,00,00,00,05,04,
8144851,00000517,false,Rx,0,8,01,00,00,00,00,00,00,00,
8149851,00000102,false,Rx,0,8,00,00,19,4F,51,CD,04,CE,
8154851,00000010,false,Rx,0,8,00,FF,61,30,00,00,09,A7,
8159851,00000103,false,Rx,0,8,02,00,02,00,00,00,04,04,
8164851,00000122,false,Rx,0,8,D3,23,00,CA,1C,BB,06,9B,
8169851,00000400,false,Rx,0,8,00,0B,56,F0,00,01,0A,A6,
8174851,00000408,false,Rx,0,8,00,41,33,0A,FF,FF,0A,72,
8179851,00000410,false,Rx,0,8,3F,00,AA,31,00,FF,09,52,
8184851,00000411,false,Rx,0,8,32,60,00,00,00,00,00,00,
8189851,00000022,false,Rx,0,8,FF,FF,FF,FF,00,00,09,09,
8194851,00000231,false,Rx,0,8,00,01,00,00,00,00,06,07,
8199851,00000517,false,Rx,0,8,01,00,00,00,00,00,00,00,
8204851,00000102,false,Rx,0,8,00,00,19,4F,51,CD,05,CF,
8209851,00000103,false,Rx,0,8,02,00,02,00,00,00,05,05,
8214851,00000122,false,Rx,0,8,D3,23,00,CA,1C,BB,07,9A,
8219851,00000110,false,Rx,0,8,00,00,00,7B,01,05,0B,74,
8224851,00000300,false,Rx,0,8,00,00,0D,8C,00,66,00,00,
8229851,00000308,false,Rx,0,8,00,12,00,00,00,00,82,00,
8234851,00000010,false,Rx,0,8,00,FF,61,30,00,00,0A,A4,
8239851,00000316,false,Rx,0,8,13,AD,01,27,4E,00,00,00,
8244851,00000012,false,Rx,0,8,99,99,32,00,01,00,0D,3E,
8249851,00000320,false,Rx,0,8,20,00,00,00,F0,00,82,00,
8254851,00000342,false,Rx,0,8,03,C2,99,99,93,00,03,90,
8259851,00000516,false,Rx,0,8,00,00,00,00,00,00,00,00,
8264851,00000102,false,Rx,0,8,00,00,19,4F,51,CD,06,CC,
8269851,00000103,false,Rx,0,8,02,00,02,00,00,00,06,06,
8274851,00000122,false,Rx,0,8,D3,23,00,CA,1C,BB,08,95,
8279851,00000231,false,Rx,0,8,00,01,00,00,00,00,07,06,
8284851,00000517,false,Rx,0,8,00,00,00,00,00,00,00,00,
8289851,00000010,false,Rx,0,8,00,FF,61,30,00,00,0B,A5,
8294851,00000400,false,Rx,0,8,00,0B,56,F0,00,01,0B,A7,
8299851,00000408,false,Rx,0,8,00,41,33,0A,FF,FF,0B,73,
8304851,00000410,false,Rx,0,8,3F,00,AA,31,00,FF,0A,51,
8309851,00000411,false,Rx,0,8,32,60,00,00,00,00,00,00,
8314851,00000022,false,Rx,0,8,FF,FF,FF,FF,00,00,0A,0A,
8319851,00000102,false,Rx,0,8,00,00,19,4F,51,CD,07,CD,
8324851,00000103,false,Rx,0,8,02,00,02,00,00,00,07,07,
8329851,00000122,false,Rx,0,8,D3,23,00,CA,1C,BB,09,94,
8334851,00000110,false,Rx,0,8,00,00,00,7B,01,05,0C,73,
8339851,00000308,false,Rx,0,8,00,12,00,00,00,00,82,00,
8344851,00000231,false,Rx,0,8,00,01,00,00,00,00,08,09,
8349851,00000300,false,Rx,0,8,00,00,0D,8C,00,66,00,00,
8354851,00000316,false,Rx,0,8,13,AD,01,27,4E,00,00,00,
8359851,00000320,false,Rx,0,8,20,00,00,00,F0,00,82,00,
8364851,00000342,false,Rx,0,8,03,C2,99,99,93,00,03,90,
8369851,00000516,false,Rx,0,8,00,00,00,00,00,00,00,00,
8374851,00000517,false,Rx,0,8,00,00,00,00,00,00,00,00,
8379851,00000010,false,Rx,0,8,00,FF,61,30,00,00,0C,A2,
8384851,00000012,false,Rx,0,8,99,99,32,00,00,00,0E,3C,
8389851,00000013,false,Rx,0,8,FF,01,09,00,00,00,00,00,
8394851,00000102,false,Rx,0,8,00,00,19,4F,51,CD,08,C2,
8399851,00000103,false,Rx,0,8,02,00,02,00,00,00,08,08,
8404851,00000122,false,Rx,0,8,D3,23,00,CA,1C,BB,0A,97,
8409851,00000332,false,Rx,0,8,01,00,00,00,00,00,0B,0A,
8414851,00000530,false,Rx,0,8,FF,FF,6B,24,64,04,49,00,
8419851,00000231,false,Rx,0,8,00,01,00,00,00,00,09,08,
8424851,00000517,false,Rx,0,8,01,00,00,00,00,00,00,00,
8429851,00000400,false,Rx,0,8,00,0B,56,F0,00,01,0C,A0,
8434851,00000408,false,Rx,0,8,00,41,33,0A,FF,FF,0C,74,
8439851,00000410,false,Rx,0,8,3F,00,C4,00,00,FF,0C,08,
8444851,00000010,false,Rx,0,8,00,FF,61,30,00,00,0D,A3,
8449851,00000411,false,Rx,0,8,32,60,00,00,00,00,00,00,
8454851,00000022,false,Rx,0,8,FF,FF,FF,FF,00,00,0C,0C,
8459851,00000102,false,Rx,0,8,00,00,19,4F,51,CD,09,C3,
8464851,00000103,false,Rx,0,8,02,00,02,00,00,00,09,09,
8469851,00000122,false,Rx,0,8,D3,23,00,CA,1C,BB,0B,96,
8474851,00000110,false,Rx,0,8,00,00,00,7B,01,05,0D,72,
8479851,00000300,false,Rx,0,8,00,00,0D,8C,00,66,00,00,
8484851,00000308,false,Rx,0,8,00,12,00,00,00,00,82,00,
8489851,00000316,false,Rx,0,8,13,AD,01,27,4E,00,00,00,
8494851,00000320,false,Rx,0,8,20,00,00,00,F0,00,82,00,
8499851,00000342,false,Rx,0,8,03,C2,99,99,93,00,03,90,
8504851,00000516,false,Rx,0,8,00,00,00,00,00,00,00,00,
8509851,00000231,false,Rx,0,8,00,01,00,00,00,00,0A,0B,
8514851,00000517,false,Rx,0,8,01,00,00,00,00,00,00,00,
8519851,00000010,false,Rx,0,8,00,FF,61,30,00,00,0E,A0,
8524851,00000012,false,Rx,0,8,99,99,32,00,01,00,0F,3C,
8529851,00000102,false,Rx,0,8,00,00,19,4F,51,CD,0A,C0,
8534851,00000103,false,Rx,0,8,02,00,02,00,00,00,0A,0A,
8539851,00000122,false,Rx,0,8,D3,23,00,CA,1C,BB,0C,91,
8544851,00000231,false,Rx,0,8,00,01,00,00,00,00,0C,0D,
8549851,00000400,false,Rx,0,8,00,0B,56,F0,00,01,0D,A1,
8554851,00000408,false,Rx,0,8,00,41,33,0A,FF,FF,0D,75,
8559851,00000410,false,Rx,0,8,3F,00,C4,00,00,FF,0D,09,
8564851,00000411,false,Rx,0,8,32,60,00,00,00,00,00,00,
8569851,00000022,false,Rx,0,8,FF,FF,FF,FF,00,00,0D,0D,
8574851,00000517,false,Rx,0,8,00,00,00,00,00,00,00,00,
8579851,00000010,false,Rx,0,8,00,FF,61,30,00,00,0F,A1,
8584851,00000102,false,Rx,0,8,00,00,19,4F,51,CD,0B,C1,
8589851,00000103,false,Rx,0,8,02,00,02,00,00,00,0B,0B,
8594851,00000122,false,Rx,0,8,D3,23,00,CA,1C,BB,0D,90,
8599851,00000110,false,Rx,0,8,00,00,00,7B,01,05,0E,71,
8604851,00000308,false,Rx,0,8,00,12,00,00,00,00,82,00,
8609851,00000300,false,Rx,0,8,00,00,0D,8C,00,66,00,00,
8614851,00000316,false,Rx,0,8,13,AD,01,27,4E,00,00,00,
8619851,00000320,false,Rx,0,8,20,00,00,00,F0,00,82,00,
8624851,00000342,false,Rx,0,8,03,C2,99,99,93,00,03,90,
8629851,00000516,false,Rx,0,8,00,00,00,00,00,00,00,00,
8634851,00000231,false,Rx,0,8,00,01,00,00,00,00,0C,0D,
8639851,00000517,false,Rx,0,8,00,00,00,00,00,00,00,00,
8644851,00000010,false,Rx,0,8,00,FF,61,30,00,00,00,AE,
8649851,00000012,false,Rx,0,8,99,99,32,00,00,00,00,32,
8654851,00000102,false,Rx,0,8,00,00,19,4F,51,CD,0C,C6,
8659851,00000103,false,Rx,0,8,02,00,02,00,00,00,0C,0C,
8664851,00000122,false,Rx,0,8,D3,23,00,CA,1C,BB,0E,93,
8669851,00000400,false,Rx,0,8,00,0B,56,F0,00,01,0E,A2,
8674851,00000408,false,Rx,0,8,00,41,33,0A,FF,FF,0E,76,
8679851,00000410,false,Rx,0,8,3F,00,C4,00,00,FF,0E,0A,
8684851,00000411,false,Rx,0,8,32,60,00,00,00,00,00,00,
8689851,00000022,false,Rx,0,8,FF,FF,FF,FF,00,00,0E,0E,
8694851,00000231,false,Rx,0,8,00,01,00,00,00,00,0E,0F,
8699851,00000517,false,Rx,0,8,01,00,00,00,00,00,00,00,
8704851,00000010,false,Rx,0,8,00,FF,61,30,00,00,01,AF,
8709851,00000013,false,Rx,0,8,FF,01,09,00,00,00,00,00,
8714851,00000102,false,Rx,0,8,00,00,19,4F,51,CD,0D,C7,
8719851,00000103,false,Rx,0,8,02,00,02,00,00,00,0D,0D,
8724851,00000122,false,Rx,0,8,D3,23,00,CA,1C,BB,0F,92,
8729851,00000110,false,Rx,0,8,00,00,00,7B,01,05,0F,70,
8734851,00000300,false,Rx,0,8,00,00,0D,8C,00,66,00,00,
8739851,00000308,false,Rx,0,8,00,12,00,00,00,00,82,00,
8744851,00000316,false,Rx,0,8,13,AD,01,27,4E,00,00,00,
8749851,00000320,false,Rx,0,8,20,00,00,00,F0,00,82,00,
8754851,00000342,false,Rx,0,8,03,C2,99,99,93,00,03,90,
8759851,00000516,false,Rx,0,8,00,00,00,00,00,00,00,00,
8764851,00000231,false,Rx,0,8,00,01,00,00,00,00,0F,0E,
8769851,00000517,false,Rx,0,8,00,00,00,00,00,00,00,00,
8774851,00000010,false,Rx,0,8,00,FF,61,30,00,00,02,AC,
8779851,00000012,false,Rx,0,8,99,99,32,00,01,00,01,32,
8784851,00000102,false,Rx,0,8,00,00,19,4F,51,CD,0E,C4,
8789851,00000103,false,Rx,0,8,02,00,02,00,00,00,0E,0E,
8794851,00000122,false,Rx,0,8,D3,23,00,CA,1C,BB,00,9D,
8799851,00000400,false,Rx,0,8,00,0B,56,F0,00,01,0F,A3,
8804851,00000408,false,Rx,0,8,00,41,33,0A,FF,FF,0F,77,
8809851,00000410,false,Rx,0,8,3F,00,C4,00,00,FF,0F,0B,
8814851,00000411,false,Rx,0,8,32,60,00,00,00,00,00,00,
8819851,00000022,false,Rx,0,8,FF,FF,FF,FF,00,00,0F,0F,
8824851,00000231,false,Rx,0,8,00,01,00,00,00,00,00,01,
8829851,00000517,false,Rx,0,8,00,00,00,00,00,00,00,00,
8834851,00000102,false,Rx,0,8,00,00,19,4F,51,CD,0F,C5,
8839851,00000010,false,Rx,0,8,00,FF,61,30,00,00,03,AD,
8844851,00000103,false,Rx,0,8,02,00,02,00,00,00,0F,0F,
8849851,00000122,false,Rx,0,8,D3,23,00,CA,1C,BB,01,9C,
8854851,00000110,false,Rx,0,8,00,00,00,7B,01,05,00,7F,
8859851,00000300,false,Rx,0,8,00,00,0D,8C,00,66,00,00,
8864851,00000308,false,Rx,0,8,00,12,00,00,00,00,82,00,
8869851,00000316,false,Rx,0,8,13,AD,01,27,4E,00,00,00,
8874851,00000320,false,Rx,0,8,20,00,00,00,F0,00,82,00,
8879851,00000342,false,Rx,0,8,03,C2,99,99,93,00,03,90,
8884851,00000516,false,Rx,0,8,00,00,00,00,00,00,00,00,
8889851,00000231,false,Rx,0,8,00,01,00,00,00,00,01,00,
8894851,00000517,false,Rx,0,8,01,00,00,00,00,00,00,00,
8899851,00000102,false,Rx,0,8,00,00,19,4F,51,CD,00,CA,
8904851,00000103,false,Rx,0,8,02,00,02,00,00,00,00,00,
8909851,00000122,false,Rx,0,8,D3,23,00,CA,1C,BB,02,9F,
8914851,00000010,false,Rx,0,8,00,FF,61,30,00,00,04,AA,
8919851,00000012,false,Rx,0,8,99,99,32,00,00,00,02,30,
8924851,00000400,false,Rx,0,8,00,0B,56,F0,00,01,00,AC,
8929851,00000408,false,Rx,0,8,00,41,33,0A,FF,FF,00,78,
8934851,00000410,false,Rx,0,8,3F,00,AA,30,00,FF,00,5A,
8939851,00000411,false,Rx,0,8,32,60,00,00,00,00,00,00,
8944851,00000022,false,Rx,0,8,FF,FF,FF,FF,00,00,00,00,
8949851,00000102,false,Rx,0,8,00,00,19,4F,51,CD,01,CB,
8954851,00000103,false,Rx,0,8,02,00,02,00,00,00,01,01,
8959851,00000122,false,Rx,0,8,D3,23,00,CA,1C,BB,03,9E,
8964851,00000110,false,Rx,0,8,00,00,00,7B,01,05,01,7E,
8969851,00000231,false,Rx,0,8,00,01,00,00,00,00,02,03,
8974851,00000300,false,Rx,0,8,00,00,0D,8C,00,66,00,00,
8979851,00000308,false,Rx,0,8,00,12,00,00,00,00,82,00,
8984851,00000316,false,Rx,0,8,13,AD,01,27,4E,00,00,00,
8989851,00000320,false,Rx,0,8,20,00,00,00,F0,00,82,00,
8994851,00000010,false,Rx,0,8,00,FF,61,30,00,00,05,AB,
8999851,00000342,false,Rx,0,8,03,C2,99,99,93,00,03,90,
9004851,00000516,false,Rx,0,8,00,00,00,00,00,00,00,00,
9009851,00000517,false,Rx,0,8,01,00,00,00,00,00,00,00,
9014851,00000102,false,Rx,0,8,00,00,19,4F,51,CD,02,C8,
9019851,00000103,false,Rx,0,8,02,00,02,00,00,00,02,02,
9024851,00000122,false,Rx,0,8,D3,23,00,CA,1C,BB,04,99,
9029851,00000231,false,Rx,0,8,00,01,00,00,00,00,03,02,
9034851,00000332,false,Rx,0,8,01,00,00,00,00,00,0C,0D,
9039851,00000517,false,Rx,0,8,00,00,00,00,00,00,00,00,
9044851,00000530,false,Rx,0,8,FF,FF,6B,24,64,04,49,00,
9049851,00000010,false,Rx,0,8,00,FF,61,30,00,00,06,A8,
9054851,00000012,false,Rx,0,8,99,99,32,00,01,00,03,30,
9059851,00000013,false,Rx,0,8,FF,01,09,00,00,00,00,00,
9064851,00000400,false,Rx,0,8,00,0B,56,F0,00,01,01,AD,
9069851,00000408,false,Rx,0,8,00,41,33,0A,FF,FF,01,79,
9074851,00000410,false,Rx,0,8,3F,00,AA,30,00,FF,01,5B,
9079851,00000411,false,Rx,0,8,32,60,00,00,00,00,00,00,
9084851,00000022,false,Rx,0,8,FF,FF,FF,FF,00,00,01,01,
9089851,00000102,false,Rx,0,8,00,00,19,4F,51,CD,03,C9,
9094851,00000103,false,Rx,0,8,02,00,02,00,00,00,03,03,
9099851,00000122,false,Rx,0,8,D3,23,00,CA,1C,BB,05,98,
9104851,00000110,false,Rx,0,8,00,00,00,7B,01,05,02,7D,
9109851,00000308,false,Rx,0,8,00,12,00,00,00,00,82,00,
9114851,00000300,false,Rx,0,8,00,00,0D,8C,00,66,00,00,
9119851,00000316,false,Rx,0,8,13,AD,01,27,4E,00,00,00,
9124851,00000320,false,Rx,0,8,20,00,00,00,F0,00,82,00,
9129851,00000342,false,Rx,0,8,03,C2,99,99,93,00,03,90,
9134851,00000231,false,Rx,0,8,00,01,00,00,00,00,04,05,
9139851,00000516,false,Rx,0,8,00,00,00,00,00,00,00,00,
9144851,00000517,false,Rx,0,8,00,00,00,00,00,00,00,00,
