(0000000000.049851) vcan0 400#000B56F0000109A5
(0000000000.054851) vcan0 408#0041330AFFFF0971
(0000000000.059851) vcan0 410#3F00AA3000FF0852
(0000000000.064851) vcan0 102#0000194F51CD02C8
(0000000000.069851) vcan0 103#0200020000000202
(0000000000.074851) vcan0 122#D32300CA1CBB0499
(0000000000.079851) vcan0 411#3260000000000000
(0000000000.084851) vcan0 022#FFFFFFFF00000808
(0000000000.089851) vcan0 231#0001000000000302
(0000000000.094851) vcan0 517#0000000000000000
(0000000000.099851) vcan0 010#00FF6130000003AD
(0000000000.104851) vcan0 102#0000194F51CD03C9
(0000000000.109851) vcan0 103#0200020000000303
(0000000000.114851) vcan0 122#D32300CA1CBB0598
(0000000000.119851) vcan0 110#0000007B01050A75
(0000000000.124851) vcan0 308#0012000000008200
(0000000000.129851) vcan0 231#0001000000000405
(0000000000.134851) vcan0 300#00000D8C00660000
(0000000000.139851) vcan0 316#13AD01274E000000
(0000000000.144851) vcan0 320#20000000F0008200
(0000000000.149851) vcan0 342#03C2999993000390
(0000000000.154851) vcan0 516#0000000000000000
(0000000000.159851) vcan0 517#0000000000000000
(0000000000.164851) vcan0 010#00FF6130000004AA
(0000000000.169851) vcan0 012#9999320000000230
(0000000000.174851) vcan0 013#FF01090000000000
(0000000000.179851) vcan0 102#0000194F51CD04CE
(0000000000.184851) vcan0 103#0200020000000404
(0000000000.189851) vcan0 122#D32300CA1CBB069B
(0000000000.194851) vcan0 400#000B56F000010AA6
(0000000000.199851) vcan0 408#0041330AFFFF0A72
(0000000000.204851) vcan0 410#3F00AA3000FF0953
(0000000000.209851) vcan0 411#3260000000000000
(0000000000.214851) vcan0 022#FFFFFFFF00000909
(0000000000.219851) vcan0 231#0001000000000504
(0000000000.224851) vcan0 517#0100000000000000
(0000000000.229851) vcan0 010#00FF6130000005AB
(0000000000.234851) vcan0 332#0100000000000E0F
(0000000000.239851) vcan0 530#FFFF6B2364044900
(0000000000.244851) vcan0 102#0000194F51CD05CF
(0000000000.249851) vcan0 103#0200020000000505
(0000000000.254851) vcan0 122#D32300CA1CBB079A
(0000000000.259851) vcan0 110#0000007B01050B74
(0000000000.264851) vcan0 300#00000D8C00660000
(0000000000.269851) vcan0 308#0012000000008200
(0000000000.274851) vcan0 316#13AD01274E000000
(0000000000.279851) vcan0 320#20000000F0008200
(0000000000.284851) vcan0 342#03C2999993000390
(0000000000.289851) vcan0 516#0000000000000000
(0000000000.294851) vcan0 231#0001000000000607
(0000000000.299851) vcan0 517#0100000000000000
(0000000000.304851) vcan0 010#00FF6130000006A8
(0000000000.309851) vcan0 012#9999320001000330
(0000000000.314851) vcan0 102#0000194F51CD06CC
(0000000000.319851) vcan0 103#0200020000000606
(0000000000.324851) vcan0 122#D32300CA1CBB0895
(0000000000.329851) vcan0 400#000B56F000010BA7
(0000000000.334851) vcan0 408#0041330AFFFF0B73
(0000000000.339851) vcan0 410#3F00AA3000FF0A50
(0000000000.344851) vcan0 411#3260000000000000
(0000000000.349851) vcan0 022#FFFFFFFF00000A0A
(0000000000.354851) vcan0 231#0001000000000809
(0000000000.359851) vcan0 517#0000000000000000
(0000000000.364851) vcan0 010#00FF6130000007A9
(0000000000.369851) vcan0 102#0000194F51CD07CD
(0000000000.374851) vcan0 103#0200020000000707
(0000000000.379851) vcan0 122#D32300CA1CBB0994
(0000000000.384851) vcan0 110#0000007B01050C73
(0000000000.389851) vcan0 308#0012000000008200
(0000000000.394851) vcan0 300#00000D8C00660000
(0000000000.399851) vcan0 316#13AD01274E000000
(0000000000.404851) vcan0 320#20000000F0008200
(0000000000.409851) vcan0 342#03C2999993000390
(0000000000.414851) vcan0 516#0000000000000000
(0000000000.419851) vcan0 231#0001000000000809
(0000000000.424851) vcan0 517#0000000000000000
(0000000000.429851) vcan0 010#00FF6130000008A6
(0000000000.434851) vcan0 012#9999320000000436
(0000000000.439851) vcan0 102#0000194F51CD08C2
(0000000000.444851) vcan0 103#0200020000000808
(0000000000.449851) vcan0 122#D32300CA1CBB0A97
(0000000000.454851) vcan0 400#000B56F000010CA0
(0000000000.459851) vcan0 408#0041330AFFFF0C74
(0000000000.464851) vcan0 410#3F00AA3000FF0B51
(0000000000.469851) vcan0 411#3260000000000000
(0000000000.474851) vcan0 022#FFFFFFFF00000B0B
(0000000000.479851) vcan0 231#0001000000000A0B
(0000000000.484851) vcan0 517#0100000000000000
(0000000000.489851) vcan0 010#00FF6130000009A7
(0000000000.494851) vcan0 013#FF01090000000000
(0000000000.499851) vcan0 102#0000194F51CD09C3
(0000000000.504851) vcan0 103#0200020000000909
(0000000000.509851) vcan0 122#D32300CA1CBB0B96
(0000000000.514851) vcan0 110#0000007B01050D72
(0000000000.519851) vcan0 300#00000D8C00660000
(0000000000.524851) vcan0 308#0012000000008200
(0000000000.529851) vcan0 316#13AD01274E000000
(0000000000.534851) vcan0 320#20000000F0008200
(0000000000.539851) vcan0 342#03C2999993000390
(0000000000.544851) vcan0 516#0000000000000000
(0000000000.549851) vcan0 231#0001000000000B0A
(0000000000.554851) vcan0 517#0000000000000000
(0000000000.559851) vcan0 102#0000194F51CD0AC0
(0000000000.564851) vcan0 103#0200020000000A0A
(0000000000.569851) vcan0 010#00FF613000000AA4
(0000000000.574851) vcan0 122#D32300CA1CBB0C91
(0000000000.579851) vcan0 012#9999320001000536
(0000000000.584851) vcan0 400#000B56F000010DA1
(0000000000.589851) vcan0 408#0041330AFFFF0D75
(0000000000.594851) vcan0 410#3F00AA3100FF0D56
(0000000000.599851) vcan0 411#3260000000000000
(0000000000.604851) vcan0 022#FFFFFFFF00000D0D
(0000000000.609851) vcan0 231#0001000000000C0D
(0000000000.614851) vcan0 517#0000000000000000
(0000000000.619851) vcan0 102#0000194F51CD0BC1
(0000000000.624851) vcan0 103#0200020000000B0B
(0000000000.629851) vcan0 122#D32300CA1CBB0D90
(0000000000.634851) vcan0 110#0000007B01050E71
(0000000000.639851) vcan0 308#0012000000008200
(0000000000.644851) vcan0 010#00FF613000000BA5
(0000000000.649851) vcan0 300#00000D8C00660000
(0000000000.654851) vcan0 316#13AD01274E000000
(0000000000.659851) vcan0 320#20000000F0008200
(0000000000.664851) vcan0 342#03C2999993000390
(0000000000.669851) vcan0 516#0000000000000000
(0000000000.674851) vcan0 231#0001000000000D0C
(0000000000.679851) vcan0 517#0100000000000000
(0000000000.684851) vcan0 102#0000194F51CD0CC6
(0000000000.689851) vcan0 103#0200020000000C0C
(0000000000.694851) vcan0 122#D32300CA1CBB0E93
(0000000000.699851) vcan0 010#00FF613000000CA2
(0000000000.704851) vcan0 012#9999320000000634
(0000000000.709851) vcan0 400#000B56F000010EA2
(0000000000.714851) vcan0 408#0041330AFFFF0E76
(0000000000.719851) vcan0 410#3F00AA3100FF0E55
(0000000000.724851) vcan0 411#3260000000000000
(0000000000.729851) vcan0 022#FFFFFFFF00000E0E
(0000000000.734851) vcan0 102#0000194F51CD0DC7
(0000000000.739851) vcan0 103#0200020000000D0D
(0000000000.744851) vcan0 122#D32300CA1CBB0F92
(0000000000.749851) vcan0 110#0000007B01050F70
(0000000000.754851) vcan0 231#0001000000000E0F
(0000000000.759851) vcan0 300#00000D8C00660000
(0000000000.764851) vcan0 308#0012000000008200
(0000000000.769851) vcan0 316#13AD01274E000000
(0000000000.774851) vcan0 320#20000000F0008200
(0000000000.779851) vcan0 342#03C2999993000390
(0000000000.784851) vcan0 516#0000000000000000
(0000000000.789851) vcan0 517#0100000000000000
(0000000000.794851) vcan0 010#00FF613000000DA3
(0000000000.799851) vcan0 102#0000194F51CD0EC4
(0000000000.804851) vcan0 103#0200020000000E0E
(0000000000.809851) vcan0 122#D32300CA1CBB009D
(0000000000.814851) vcan0 231#0001000000000F0E
(0000000000.819851) vcan0 517#0000000000000000
(0000000000.824851) vcan0 010#00FF613000000EA0
(0000000000.829851) vcan0 012#9999320001000734
(0000000000.834851) vcan0 013#FF01090000000000
(0000000000.839851) vcan0 400#000B56F000010FA3
(0000000000.844851) vcan0 408#0041330AFFFF0F77
(0000000000.849851) vcan0 410#3F00AA3100FF0F54
(0000000000.854851) vcan0 411#3260000000000000
(0000000000.859851) vcan0 022#FFFFFFFF00000F0F
(0000000000.864851) vcan0 332#0100000000000F0E
(0000000000.869851) vcan0 530#FFFF6B2364044900
(0000000000.874851) vcan0 102#0000194F51CD0FC5
(0000000000.879851) vcan0 103#0200020000000F0F
(0000000000.884851) vcan0 122#D32300CA1CBB019C
(0000000000.889851) vcan0 110#0000007B0105007F
(0000000000.894851) vcan0 308#0012000000008200
(0000000000.899851) vcan0 300#00000D8C00660000
(0000000000.904851) vcan0 316#13AD01274E000000
(0000000000.909851) vcan0 320#20000000F0008200
(0000000000.914851) vcan0 342#03C2999993000390
(0000000000.919851) vcan0 231#0001000000000001
(0000000000.924851) vcan0 516#0000000000000000
(0000000000.929851) vcan0 517#0000000000000000
(0000000000.934851) vcan0 010#00FF613000000FA1
(0000000000.939851) vcan0 102#0000194F51CD00CA
(0000000000.944851) vcan0 103#0200020000000000
(0000000000.949851) vcan0 122#D32300CA1CBB029F
(0000000000.954851) vcan0 231#0001000000000203
(0000000000.959851) vcan0 517#0100000000000000
(0000000000.964851) vcan0 010#00FF6130000000AE
(0000000000.969851) vcan0 400#000B56F0000100AC
(0000000000.974851) vcan0 012#999932000000083A
(0000000000.979851) vcan0 408#0041330AFFFF0078
(0000000000.984851) vcan0 410#3F00C40000FF0004
(0000000000.989851) vcan0 411#3260000000000000
(0000000000.994851) vcan0 022#FFFFFFFF00000000
(0000000000.999851) vcan0 102#0000194F51CD01CB
(0000000001.004851) vcan0 103#0200020000000101
(0000000001.009851) vcan0 122#D32300CA1CBB039E
(0000000001.014851) vcan0 110#0000007B0105017E
(0000000001.019851) vcan0 300#00000D8C00660000
(0000000001.024851) vcan0 308#0012000000008200
(0000000001.029851) vcan0 316#13AD01274E000000
(0000000001.034851) vcan0 320#20000000F0008200
(0000000001.039851) vcan0 342#03C2999993000390
(0000000001.044851) vcan0 516#0000000000000000
(0000000001.049851) vcan0 231#0001000000000203
(0000000001.054851) vcan0 517#0100000000000000
(0000000001.059851) vcan0 010#00FF6130000001AF
(0000000001.064851) vcan0 102#0000194F51CD02C8
(0000000001.069851) vcan0 103#0200020000000202
(0000000001.074851) vcan0 122#D32300CA1CBB0499
(0000000001.079851) vcan0 231#0001000000000405
(0000000001.084851) vcan0 517#0000000000000000
(0000000001.089851) vcan0 400#000B56F0000101AD
(0000000001.094851) vcan0 408#0041330AFFFF0179
(0000000001.099851) vcan0 410#3F00C40000FF0105
(0000000001.104851) vcan0 411#3260000000000000
(0000000001.109851) vcan0 010#00FF6130000002AC
(0000000001.114851) vcan0 022#FFFFFFFF00000101
(0000000001.119851) vcan0 012#999932000100093A
(0000000001.124851) vcan0 102#0000194F51CD03C9
(0000000001.129851) vcan0 103#0200020000000303
(0000000001.134851) vcan0 122#D32300CA1CBB0598
(0000000001.139851) vcan0 110#0000007B0105027D
(0000000001.144851) vcan0 308#0012000000008200
(0000000001.149851) vcan0 300#00000D8C00660000
(0000000001.154851) vcan0 316#13AD01274E000000
(0000000001.159851) vcan0 320#20000000F0008200
(0000000001.164851) vcan0 342#03C2999993000390
(0000000001.169851) vcan0 516#0000000000000000
(0000000001.174851) vcan0 231#0001000000000504
(0000000001.179851) vcan0 517#0000000000000000
(0000000001.184851) vcan0 010#00FF6130000003AD
(0000000001.189851) vcan0 013#FF01090000000000
(0000000001.194851) vcan0 102#0000194F51CD04CE
(0000000001.199851) vcan0 103#0200020000000404
(0000000001.204851) vcan0 122#D32300CA1CBB069B
(0000000001.209851) vcan0 231#0001000000000607
(0000000001.214851) vcan0 517#0100000000000000
(0000000001.219851) vcan0 400#000B56F0000102AE
(0000000001.224851) vcan0 408#0041330AFFFF027A
(0000000001.229851) vcan0 410#3F00C40000FF0206
(0000000001.234851) vcan0 411#3260000000000000
(0000000001.239851) vcan0 022#FFFFFFFF00000202
(0000000001.244851) vcan0 102#0000194F51CD05CF
(0000000001.249851) vcan0 010#00FF6130000004AA
(0000000001.254851) vcan0 103#0200020000000505
(0000000001.259851) vcan0 012#9999320000000A38
(0000000001.264851) vcan0 110#0000007B0105037C
(0000000001.269851) vcan0 122#D32300CA1CBB079A
(0000000001.274851) vcan0 300#00000D8C00660000
(0000000001.279851) vcan0 308#0012000000008200
(0000000001.284851) vcan0 316#13AD01274E000000
(0000000001.289851) vcan0 320#20000000F0008200
(0000000001.294851) vcan0 342#03C2999993000390
(0000000001.299851) vcan0 516#0000000000000000
(0000000001.304851) vcan0 231#0001000000000706
(0000000001.309851) vcan0 517#0000000000000000
(0000000001.314851) vcan0 102#0000194F51CD06CC
(0000000001.319851) vcan0 103#0200020000000606
(0000000001.324851) vcan0 122#D32300CA1CBB0895
(0000000001.329851) vcan0 010#00FF6130000005AB
(0000000001.334851) vcan0 231#0001000000000809
(0000000001.339851) vcan0 400#000B56F0000103AF
(0000000001.344851) vcan0 408#0041330AFFFF037B
(0000000001.349851) vcan0 102#0000194F51CD07CD
(0000000001.354851) vcan0 103#0200020000000707
(0000000001.359851) vcan0 122#D32300CA1CBB0994
(0000000001.364851) vcan0 410#3F00C40000FF0307
(0000000001.369851) vcan0 110#0000007B0105047B
(0000000001.374851) vcan0 300#00000D8C00660000
(0000000001.379851) vcan0 308#0012000000008200
(0000000001.384851) vcan0 316#13AD01274E000000
(0000000001.389851) vcan0 320#20000000F0008200
(0000000001.394851) vcan0 010#00FF6130000006A8
(0000000001.399851) vcan0 342#03C2999993000390
(0000000001.404851) vcan0 012#9999320001000B38
(0000000001.409851) vcan0 411#3260000000000000
(0000000001.414851) vcan0 516#0000000000000000
(0000000001.419851) vcan0 022#FFFFFFFF00000303
(0000000001.424851) vcan0 517#0000000000000000
(0000000001.429851) vcan0 102#0000194F51CD08C2
(0000000001.434851) vcan0 103#0200020000000808
(0000000001.439851) vcan0 122#D32300CA1CBB0A97
(0000000001.444851) vcan0 231#0001000000000908
(0000000001.449851) vcan0 517#0100000000000000
(0000000001.454851) vcan0 010#00FF6130000007A9
(0000000001.459851) vcan0 332#0100000000000001
(0000000001.464851) vcan0 530#FFFF6B2364044900
(0000000001.469851) vcan0 102#0000194F51CD09C3
(0000000001.474851) vcan0 103#0200020000000909
(0000000001.479851) vcan0 122#D32300CA1CBB0B96
(0000000001.484851) vcan0 110#0000007B0105057A
(0000000001.489851) vcan0 300#00000D8C00660000
(0000000001.494851) vcan0 308#0012000000008200
(0000000001.499851) vcan0 316#13AD01274E000000
(0000000001.504851) vcan0 320#20000000F0008200
(0000000001.509851) vcan0 342#03C2999993000390
(0000000001.514851) vcan0 400#000B56F0000104A8
(0000000001.519851) vcan0 516#0000000000000000
(0000000001.524851) vcan0 408#0041330AFFFF047C
(0000000001.529851) vcan0 410#3F00AA3000FF045E
(0000000001.534851) vcan0 411#3260000000000000
(0000000001.539851) vcan0 022#FFFFFFFF00000404
(0000000001.544851) vcan0 231#0001000000000A0B
(0000000001.549851) vcan0 517#0100000000000000
(0000000001.554851) vcan0 010#00FF6130000008A6
(0000000001.559851) vcan0 012#9999320000000C3E
(0000000001.564851) vcan0 013#FF01090000000000
(0000000001.569851) vcan0 102#0000194F51CD0AC0
(0000000001.574851) vcan0 103#0200020000000A0A
(0000000001.579851) vcan0 122#D32300CA1CBB0C91
(0000000001.584851) vcan0 231#0001000000000B0A
(0000000001.589851) vcan0 517#0000000000000000
(0000000001.594851) vcan0 010#00FF6130000009A7
(0000000001.599851) vcan0 102#0000194F51CD0BC1
(0000000001.604851) vcan0 103#0200020000000B0B
(0000000001.609851) vcan0 122#D32300CA1CBB0D90
(0000000001.614851) vcan0 110#0000007B01050679
(0000000001.619851) vcan0 308#0012000000008200
(0000000001.624851) vcan0 300#00000D8C00660000
(0000000001.629851) vcan0 316#13AD01274E000000
(0000000001.634851) vcan0 320#20000000F0008200
(0000000001.639851) vcan0 342#03C2999993000390
(0000000001.644851) vcan0 400#000B56F0000105A9
(0000000001.649851) vcan0 516#0000000000000000
(0000000001.654851) vcan0 408#0041330AFFFF057D
(0000000001.659851) vcan0 410#3F00AA3000FF055F
(0000000001.664851) vcan0 411#3260000000000000
(0000000001.669851) vcan0 022#FFFFFFFF00000505
(0000000001.674851) vcan0 231#0001000000000C0D
(0000000001.679851) vcan0 517#0000000000000000
(0000000001.684851) vcan0 010#00FF613000000AA4
(0000000001.689851) vcan0 012#9999320001000D3E
(0000000001.694851) vcan0 102#0000194F51CD0CC6
(0000000001.699851) vcan0 103#0200020000000C0C
(0000000001.704851) vcan0 122#D32300CA1CBB0E93
(0000000001.709851) vcan0 231#0001000000000E0F
(0000000001.714851) vcan0 517#0100000000000000
(0000000001.719851) vcan0 010#00FF613000000BA5
(0000000001.724851) vcan0 102#0000194F51CD0DC7
(0000000001.729851) vcan0 103#0200020000000D0D
(0000000001.734851) vcan0 122#D32300CA1CBB0F92
(0000000001.739851) vcan0 110#0000007B01050778
(0000000001.744851) vcan0 300#00000D8C00660000
(0000000001.749851) vcan0 308#0012000000008200
(0000000001.754851) vcan0 316#13AD01274E000000
(0000000001.759851) vcan0 320#20000000F0008200
(0000000001.764851) vcan0 342#03C2999993000390
(0000000001.769851) vcan0 516#0000000000000000
(0000000001.774851) vcan0 400#000B56F0000106AA
(0000000001.779851) vcan0 408#0041330AFFFF067E
(0000000001.784851) vcan0 410#3F00AA3000FF065C
(0000000001.789851) vcan0 411#3260000000000000
(0000000001.794851) vcan0 022#FFFFFFFF00000606
(0000000001.799851) vcan0 231#0001000000000E0F
(0000000001.804851) vcan0 517#0100000000000000
(0000000001.809851) vcan0 010#00FF613000000CA2
(0000000001.814851) vcan0 012#9999320000000E3C
(0000000001.819851) vcan0 102#0000194F51CD0EC4
(0000000001.824851) vcan0 103#0200020000000E0E
(0000000001.829851) vcan0 122#D32300CA1CBB009D
(0000000001.834851) vcan0 231#0001000000000001
(0000000001.839851) vcan0 517#0000000000000000
(0000000001.844851) vcan0 010#00FF613000000DA3
(0000000001.849851) vcan0 013#FF01090000000000
(0000000001.854851) vcan0 102#0000194F51CD0FC5
(0000000001.859851) vcan0 103#0200020000000F0F
(0000000001.864851) vcan0 122#D32300CA1CBB019C
(0000000001.869851) vcan0 110#0000007B01050877
(0000000001.874851) vcan0 308#0012000000008200
(0000000001.879851) vcan0 300#00000D8C00660000
(0000000001.884851) vcan0 316#13AD01274E000000
(0000000001.889851) vcan0 320#20000000F0008200
(0000000001.894851) vcan0 342#03C2999993000390
(0000000001.899851) vcan0 516#0000000000000000
(0000000001.904851) vcan0 400#000B56F0000107AB
(0000000001.909851) vcan0 408#0041330AFFFF077F
(0000000001.914851) vcan0 410#3F00AA3000FF075D
(0000000001.919851) vcan0 411#3260000000000000
(0000000001.924851) vcan0 022#FFFFFFFF00000707
(0000000001.929851) vcan0 231#0001000000000100
(0000000001.934851) vcan0 517#0100000000000000
(0000000001.939851) vcan0 102#0000194F51CD00CA
(0000000001.944851) vcan0 010#00FF613000000EA0
(0000000001.949851) vcan0 103#0200020000000000
(0000000001.954851) vcan0 012#9999320001000F3C
(0000000001.959851) vcan0 122#D32300CA1CBB029F
(0000000001.964851) vcan0 231#0001000000000203
(0000000001.969851) vcan0 517#0100000000000000
(0000000001.974851) vcan0 102#0000194F51CD01CB
(0000000001.979851) vcan0 103#0200020000000101
(0000000001.984851) vcan0 122#D32300CA1CBB039E
(0000000001.989851) vcan0 110#0000007B01050976
(0000000001.994851) vcan0 300#00000D8C00660000
(0000000001.999851) vcan0 010#00FF613000000FA1
(0000000002.004851) vcan0 308#0012000000008200
(0000000002.009851) vcan0 316#13AD01274E000000
(0000000002.014851) vcan0 320#20000000F0008200
(0000000002.019851) vcan0 342#03C2999993000390
(0000000002.024851) vcan0 516#0000000000000000
(0000000002.029851) vcan0 400#000B56F0000108A4
(0000000002.034851) vcan0 408#0041330AFFFF0870
(0000000002.039851) vcan0 410#3F00AA3100FF0853
(0000000002.044851) vcan0 411#3260000000000000
(0000000002.049851) vcan0 022#FFFFFFFF00000808
(0000000002.054851) vcan0 231#0001000000000302
(0000000002.059851) vcan0 517#0000000000000000
(0000000002.064851) vcan0 102#0000194F51CD02C8
(0000000002.069851) vcan0 103#0200020000000202
(0000000002.074851) vcan0 122#D32300CA1CBB0499
(0000000002.079851) vcan0 010#00FF6130000000AE
(0000000002.084851) vcan0 012#9999320000000032
(0000000002.089851) vcan0 102#0000194F51CD03C9
(0000000002.094851) vcan0 103#0200020000000303
(0000000002.099851) vcan0 122#D32300CA1CBB0598
(0000000002.104851) vcan0 231#0001000000000405
(0000000002.109851) vcan0 110#0000007B01050A75
(0000000002.114851) vcan0 300#00000D8C00660000
(0000000002.119851) vcan0 308#0012000000008200
(0000000002.124851) vcan0 316#13AD01274E000000
(0000000002.129851) vcan0 320#20000000F0008200
(0000000002.134851) vcan0 332#0100000000000100
(0000000002.139851) vcan0 342#03C2999993000390
(0000000002.144851) vcan0 516#0000000000000000
(0000000002.149851) vcan0 517#0000000000000000
(0000000002.154851) vcan0 010#00FF6130000001AF
(0000000002.159851) vcan0 530#FFFF6B2364044900
(0000000002.164851) vcan0 400#000B56F0000109A5
(0000000002.169851) vcan0 408#0041330AFFFF0971
(0000000002.174851) vcan0 410#3F00AA3100FF0952
(0000000002.179851) vcan0 411#3260000000000000
(0000000002.184851) vcan0 022#FFFFFFFF00000909
(0000000002.189851) vcan0 102#0000194F51CD04CE
(0000000002.194851) vcan0 103#0200020000000404
(0000000002.199851) vcan0 122#D32300CA1CBB069B
(0000000002.204851) vcan0 231#0001000000000504
(0000000002.209851) vcan0 517#0100000000000000
(0000000002.214851) vcan0 010#00FF6130000002AC
(0000000002.219851) vcan0 012#9999320001000132
(0000000002.224851) vcan0 013#FF01090000000000
(0000000002.229851) vcan0 102#0000194F51CD05CF
(0000000002.234851) vcan0 103#0200020000000505
(0000000002.239851) vcan0 122#D32300CA1CBB079A
(0000000002.244851) vcan0 110#0000007B01050B74
(0000000002.249851) vcan0 300#00000D8C00660000
(0000000002.254851) vcan0 308#0012000000008200
(0000000002.259851) vcan0 316#13AD01274E000000
(0000000002.264851) vcan0 320#20000000F0008200
(0000000002.269851) vcan0 342#03C2999993000390
(0000000002.274851) vcan0 516#0000000000000000
(0000000002.279851) vcan0 231#0001000000000607
(0000000002.284851) vcan0 517#0100000000000000
(0000000002.289851) vcan0 010#00FF6130000003AD
(0000000002.294851) vcan0 400#000B56F000010AA6
(0000000002.299851) vcan0 408#0041330AFFFF0A72
(0000000002.304851) vcan0 410#3F00AA3100FF0A51
(0000000002.309851) vcan0 411#3260000000000000
(0000000002.314851) vcan0 022#FFFFFFFF00000A0A
(0000000002.319851) vcan0 102#0000194F51CD06CC
(0000000002.324851) vcan0 103#0200020000000606
(0000000002.329851) vcan0 122#D32300CA1CBB0895
(0000000002.334851) vcan0 231#0001000000000809
(0000000002.339851) vcan0 517#0000000000000000
(0000000002.344851) vcan0 010#00FF6130000004AA
(0000000002.349851) vcan0 012#9999320000000230
(0000000002.354851) vcan0 102#0000194F51CD07CD
(0000000002.359851) vcan0 103#0200020000000707
(0000000002.364851) vcan0 122#D32300CA1CBB0994
(0000000002.369851) vcan0 110#0000007B01050C73
(0000000002.374851) vcan0 308#0012000000008200
(0000000002.379851) vcan0 300#00000D8C00660000
(0000000002.384851) vcan0 316#13AD01274E000000
(0000000002.389851) vcan0 320#20000000F0008200
(0000000002.394851) vcan0 342#03C2999993000390
(0000000002.399851) vcan0 516#0000000000000000
(0000000002.404851) vcan0 231#0001000000000809
(0000000002.409851) vcan0 517#0000000000000000
(0000000002.414851) vcan0 010#00FF6130000005AB
(0000000002.419851) vcan0 400#000B56F000010CA0
(0000000002.424851) vcan0 408#0041330AFFFF0C74
(0000000002.429851) vcan0 410#3F00AA3100FF0B50
(0000000002.434851) vcan0 411#3260000000000000
(0000000002.439851) vcan0 022#FFFFFFFF00000B0B
(0000000002.444851) vcan0 102#0000194F51CD08C2
(0000000002.449851) vcan0 103#0200020000000808
(0000000002.454851) vcan0 122#D32300CA1CBB0A97
(0000000002.459851) vcan0 231#0000000000000A0A
(0000000002.464851) vcan0 517#0100000000000000
(0000000002.469851) vcan0 010#00FF6130000006A8
(0000000002.474851) vcan0 012#9999320001000330
(0000000002.479851) vcan0 102#0000194F51CD09C3
(0000000002.484851) vcan0 103#0200020000000909
(0000000002.489851) vcan0 122#D32300CA1CBB0B96
(0000000002.494851) vcan0 110#0000007B01050D72
(0000000002.499851) vcan0 300#00000D8C00660000
(0000000002.504851) vcan0 308#0012000000008200
(0000000002.509851) vcan0 316#13AD01274E000000
(0000000002.514851) vcan0 320#20000000F0008200
(0000000002.519851) vcan0 342#03C2999993000390
(0000000002.524851) vcan0 516#0000000000000000
(0000000002.529851) vcan0 231#0000000000000B0B
(0000000002.534851) vcan0 517#0000000000000000
(0000000002.539851) vcan0 400#000B56F000010DA1
(0000000002.544851) vcan0 408#0041330AFFFF0D75
(0000000002.549851) vcan0 410#3F00C40000FF0C08
(0000000002.554851) vcan0 010#00FF6130000007A9
(0000000002.559851) vcan0 411#3260000000000000
(0000000002.564851) vcan0 013#FF01090000000000
(0000000002.569851) vcan0 022#FFFFFFFF00000C0C
(0000000002.574851) vcan0 102#0000194F51CD0AC0
(0000000002.579851) vcan0 103#0200020000000A0A
(0000000002.584851) vcan0 122#D32300CA1CBB0C91
(0000000002.589851) vcan0 231#0000000000000C0C
(0000000002.594851) vcan0 517#0000000000000000
(0000000002.599851) vcan0 102#0000194F51CD0BC1
(0000000002.604851) vcan0 010#00FF6130000008A6
(0000000002.609851) vcan0 103#0200020000000B0B
(0000000002.614851) vcan0 012#9999320000000436
(0000000002.619851) vcan0 122#D32300CA1CBB0D90
(0000000002.624851) vcan0 110#0000007B01050E71
(0000000002.629851) vcan0 300#00000D8C00660000
(0000000002.634851) vcan0 308#0012000000008200
(0000000002.639851) vcan0 316#13AD01274E000000
(0000000002.644851) vcan0 320#20000000F0008200
(0000000002.649851) vcan0 342#03C2999993000390
(0000000002.654851) vcan0 516#0000000000000000
(0000000002.659851) vcan0 231#0000000000000D0D
(0000000002.664851) vcan0 517#0100000000000000
(0000000002.669851) vcan0 400#000B56F000010EA2
(0000000002.674851) vcan0 408#0041330AFFFF0E76
(0000000002.679851) vcan0 410#3F00C40000FF0D09
(0000000002.684851) vcan0 102#0000194F51CD0CC6
(0000000002.689851) vcan0 103#0200020000000C0C
(0000000002.694851) vcan0 122#D32300CA1CBB0E93
(0000000002.699851) vcan0 411#3260000000000000
(0000000002.704851) vcan0 010#00FF6130000009A7
(0000000002.709851) vcan0 022#FFFFFFFF00000D0D
(0000000002.714851) vcan0 231#0000000000000E0E
(0000000002.719851) vcan0 517#0100000000000000
(0000000002.724851) vcan0 102#0000194F51CD0DC7
(0000000002.729851) vcan0 103#0200020000000D0D
(0000000002.734851) vcan0 122#D32300CA1CBB0F92
(0000000002.739851) vcan0 110#0000007B01050F70
(0000000002.744851) vcan0 300#00000D8C00660000
(0000000002.749851) vcan0 308#0012000000008200
(0000000002.754851) vcan0 316#13AD01274E000000
(0000000002.759851) vcan0 320#20000000F0008200
(0000000002.764851) vcan0 332#0100000000000203
(0000000002.769851) vcan0 010#00FF613000000AA4
(0000000002.774851) vcan0 342#03C2999993000390
(0000000002.779851) vcan0 012#9999320001000536
(0000000002.784851) vcan0 516#0000000000000000
(0000000002.789851) vcan0 530#FFFF6B2364044900
(0000000002.794851) vcan0 102#0000194F51CD0EC4
(0000000002.799851) vcan0 103#0200020000000E0E
(0000000002.804851) vcan0 122#D32300CA1CBB009D
(0000000002.809851) vcan0 231#0000000000000F0F
(0000000002.814851) vcan0 400#000B56F000010FA3
(0000000002.819851) vcan0 408#0041330AFFFF0F77
(0000000002.824851) vcan0 410#3F00C40000FF0E0A
(0000000002.829851) vcan0 411#3260000000000000
(0000000002.834851) vcan0 022#FFFFFFFF00000E0E
(0000000002.839851) vcan0 517#0000000000000000
(0000000002.844851) vcan0 010#00FF613000000BA5
(0000000002.849851) vcan0 102#0000194F51CD0FC5
(0000000002.854851) vcan0 103#0200020000000F0F
(0000000002.859851) vcan0 122#D32300CA1CBB019C
(0000000002.864851) vcan0 110#0000007B0105007F
(0000000002.869851) vcan0 300#00000D8C00660000
(0000000002.874851) vcan0 231#0000000000000000
(0000000002.879851) vcan0 308#0012000000008200
(0000000002.884851) vcan0 316#13AD01274E000000
(0000000002.889851) vcan0 320#20000000F0008200
(0000000002.894851) vcan0 342#03C2999993000390
(0000000002.899851) vcan0 516#0000000000000000
(0000000002.904851) vcan0 517#0000000000000000
(0000000002.909851) vcan0 010#00FF613000000CA2
(0000000002.914851) vcan0 012#9999320000000634
(0000000002.919851) vcan0 013#FF01090000000000
(0000000002.924851) vcan0 102#0000194F51CD00CA
(0000000002.929851) vcan0 103#0200020000000000
(0000000002.934851) vcan0 122#D32300CA1CBB029F
(0000000002.939851) vcan0 400#000B56F0000100AC
(0000000002.944851) vcan0 408#0041330AFFFF0078
(0000000002.949851) vcan0 410#3F00C40000FF0F0B
(0000000002.954851) vcan0 411#3260000000000000
(0000000002.959851) vcan0 022#FFFFFFFF00000F0F
(0000000002.964851) vcan0 231#0000000000000101
(0000000002.969851) vcan0 517#0100000000000000
(0000000002.974851) vcan0 010#00FF613000000DA3
(0000000002.979851) vcan0 102#0000194F51CD01CB
(0000000002.984851) vcan0 103#0200020000000101
(0000000002.989851) vcan0 122#D32300CA1CBB039E
(0000000002.994851) vcan0 110#0000007B0105017E
(0000000002.999851) vcan0 300#00000D8C00660000
(0000000003.004851) vcan0 308#0012000000008200
(0000000003.009851) vcan0 316#13AD01274E000000
(0000000003.014851) vcan0 320#20000000F0008200
(0000000003.019851) vcan0 342#03C2999993000390
(0000000003.024851) vcan0 516#0000000000000000
(0000000003.029851) vcan0 231#0000000000000202
(0000000003.034851) vcan0 517#0100000000000000
(0000000003.039851) vcan0 010#00FF613000000EA0
(0000000003.044851) vcan0 012#9999320001000734
(0000000003.049851) vcan0 102#0000194F51CD02C8
(0000000003.054851) vcan0 103#0200020000000202
(0000000003.059851) vcan0 122#D32300CA1CBB0499
(0000000003.064851) vcan0 400#000B56F0000101AD
(0000000003.069851) vcan0 408#0041330AFFFF0179
(0000000003.074851) vcan0 410#3F00AA3000FF005A
(0000000003.079851) vcan0 411#3260000000000000
(0000000003.084851) vcan0 022#FFFFFFFF00000000
(0000000003.089851) vcan0 231#0000000000000404
(0000000003.094851) vcan0 517#0000000000000000
(0000000003.099851) vcan0 010#00FF613000000FA1
(0000000003.104851) vcan0 102#0000194F51CD03C9
(0000000003.109851) vcan0 103#0200020000000303
(0000000003.114851) vcan0 122#D32300CA1CBB0598
(0000000003.119851) vcan0 110#0000007B0105027D
(0000000003.124851) vcan0 308#0012000000008200
(0000000003.129851) vcan0 300#00000D8C00660000
(0000000003.134851) vcan0 316#13AD01274E000000
(0000000003.139851) vcan0 320#20000000F0008200
(0000000003.144851) vcan0 342#03C2999993000390
(0000000003.149851) vcan0 516#0000000000000000
(0000000003.154851) vcan0 231#0000000000000404
(0000000003.159851) vcan0 517#0000000000000000
(0000000003.164851) vcan0 010#00FF6130000000AE
(0000000003.169851) vcan0 012#999932000000083A
(0000000003.174851) vcan0 102#0000194F51CD04CE
(0000000003.179851) vcan0 103#0200020000000404
(0000000003.184851) vcan0 122#D32300CA1CBB069B
(0000000003.189851) vcan0 400#000B56F0000102AE
(0000000003.194851) vcan0 408#0041330AFFFF027A
(0000000003.199851) vcan0 410#3F00AA3000FF0258
(0000000003.204851) vcan0 411#3260000000000000
(0000000003.209851) vcan0 022#FFFFFFFF00000202
(0000000003.214851) vcan0 231#0000000000000606
(0000000003.219851) vcan0 517#0100000000000000
(0000000003.224851) vcan0 010#00FF6130000001AF
(0000000003.229851) vcan0 013#FF01090000000000
(0000000003.234851) vcan0 102#0000194F51CD05CF
(0000000003.239851) vcan0 103#0200020000000505
(0000000003.244851) vcan0 122#D32300CA1CBB079A
(0000000003.249851) vcan0 110#0000007B0105037C
(0000000003.254851) vcan0 300#00000D8C00660000
(0000000003.259851) vcan0 308#0012000000008200
(0000000003.264851) vcan0 316#13AD01274E000000
(0000000003.269851) vcan0 320#20000000F0008200
(0000000003.274851) vcan0 342#03C2999993000390
(0000000003.279851) vcan0 516#0000000000000000
(0000000003.284851) vcan0 231#0000000000000707
(0000000003.289851) vcan0 517#0000000000000000
(0000000003.294851) vcan0 010#00FF6130000002AC
(0000000003.299851) vcan0 102#0000194F51CD06CC
(0000000003.304851) vcan0 012#999932000100093A
(0000000003.309851) vcan0 103#0200020000000606
(0000000003.314851) vcan0 122#D32300CA1CBB0895
(0000000003.319851) vcan0 400#000B56F0000103AF
(0000000003.324851) vcan0 408#0041330AFFFF037B
(0000000003.329851) vcan0 410#3F00AA3000FF0359
(0000000003.334851) vcan0 411#3260000000000000
(0000000003.339851) vcan0 022#FFFFFFFF00000303
(0000000003.344851) vcan0 231#0000000000000808
(0000000003.349851) vcan0 517#0000000000000000
(0000000003.354851) vcan0 102#0000194F51CD07CD
(0000000003.359851) vcan0 103#0200020000000707
(0000000003.364851) vcan0 122#D32300CA1CBB0994
(0000000003.369851) vcan0 010#00FF6130000003AD
(0000000003.374851) vcan0 110#0000007B0105047B
(0000000003.379851) vcan0 300#00000D8C00660000
(0000000003.384851) vcan0 308#0012000000008200
(0000000003.389851) vcan0 316#13AD01274E000000
(0000000003.394851) vcan0 320#20000000F0008200
(0000000003.399851) vcan0 332#0100000000000302
(0000000003.404851) vcan0 342#03C2999993000390
(0000000003.409851) vcan0 516#0000000000000000
(0000000003.414851) vcan0 530#FFFF6B2364044900
(0000000003.419851) vcan0 231#0000000000000909
(0000000003.424851) vcan0 517#0100000000000000
(0000000003.429851) vcan0 102#0000194F51CD08C2
(0000000003.434851) vcan0 103#0200020000000808
(0000000003.439851) vcan0 122#D32300CA1CBB0A97
(0000000003.444851) vcan0 010#00FF6130000004AA
(0000000003.449851) vcan0 012#9999320000000A38
(0000000003.454851) vcan0 400#000B56F0000104A8
(0000000003.459851) vcan0 408#0041330AFFFF047C
(0000000003.464851) vcan0 410#3F00AA3100FF045F
(0000000003.469851) vcan0 411#3260000000000000
(0000000003.474851) vcan0 022#FFFFFFFF00000404
(0000000003.479851) vcan0 102#0000194F51CD09C3
(0000000003.484851) vcan0 103#0200020000000909
(0000000003.489851) vcan0 122#D32300CA1CBB0B96
(0000000003.494851) vcan0 110#0000007B0105057A
(0000000003.499851) vcan0 231#0000000000000A0A
(0000000003.504851) vcan0 300#00000D8C00660000
(0000000003.509851) vcan0 308#0012000000008200
(0000000003.514851) vcan0 316#13AD01274E000000
(0000000003.519851) vcan0 320#20000000F0008200
(0000000003.524851) vcan0 342#03C2999993000390
(0000000003.529851) vcan0 516#0000000000000000
(0000000003.534851) vcan0 517#0100000000000000
(0000000003.539851) vcan0 010#00FF6130000005AB
(0000000003.544851) vcan0 102#0000194F51CD0AC0
(0000000003.549851) vcan0 103#0200020000000A0A
(0000000003.554851) vcan0 122#D32300CA1CBB0C91
(0000000003.559851) vcan0 231#0000000000000B0B
(0000000003.564851) vcan0 517#0000000000000000
(0000000003.569851) vcan0 010#00FF6130000006A8
(0000000003.574851) vcan0 012#9999320001000B38
(0000000003.579851) vcan0 013#FF01090000000000
(0000000003.584851) vcan0 400#000B56F0000105A9
(0000000003.589851) vcan0 408#0041330AFFFF057D
(0000000003.594851) vcan0 410#3F00AA3100FF055E
(0000000003.599851) vcan0 411#3260000000000000
(0000000003.604851) vcan0 022#FFFFFFFF00000505
(0000000003.609851) vcan0 102#0000194F51CD0BC1
(0000000003.614851) vcan0 103#0200020000000B0B
(0000000003.619851) vcan0 122#D32300CA1CBB0D90
(0000000003.624851) vcan0 110#0000007B01050679
(0000000003.629851) vcan0 308#0012000000008200
(0000000003.634851) vcan0 300#00000D8C00660000
(0000000003.639851) vcan0 316#13AD01274E000000
(0000000003.644851) vcan0 320#20000000F0008200
(0000000003.649851) vcan0 342#03C2999993000390
(0000000003.654851) vcan0 231#0000000000000C0C
(0000000003.659851) vcan0 516#0000000000000000
(0000000003.664851) vcan0 517#0000000000000000
(0000000003.669851) vcan0 010#00FF6130000007A9
(0000000003.674851) vcan0 102#0000194F51CD0CC6
(0000000003.679851) vcan0 103#0200020000000C0C
(0000000003.684851) vcan0 122#D32300CA1CBB0E93
(0000000003.689851) vcan0 231#0000000000000E0E
(0000000003.694851) vcan0 517#0100000000000000
(0000000003.699851) vcan0 010#00FF6130000008A6
(0000000003.704851) vcan0 012#9999320000000C3E
(0000000003.709851) vcan0 400#000B56F0000106AA
(0000000003.714851) vcan0 408#0041330AFFFF067E
(0000000003.719851) vcan0 410#3F00AA3100FF065D
(0000000003.724851) vcan0 411#3260000000000000
(0000000003.729851) vcan0 022#FFFFFFFF00000606
(0000000003.734851) vcan0 102#0000194F51CD0DC7
(0000000003.739851) vcan0 103#0200020000000D0D
(0000000003.744851) vcan0 122#D32300CA1CBB0F92
(0000000003.749851) vcan0 110#0000007B01050778
(0000000003.754851) vcan0 300#00000D8C00660000
(0000000003.759851) vcan0 308#0012000000008200
(0000000003.764851) vcan0 316#13AD01274E000000
(0000000003.769851) vcan0 320#20000000F0008200
(0000000003.774851) vcan0 342#03C2999993000390
(0000000003.779851) vcan0 516#0000000000000000
(0000000003.784851) vcan0 231#0000000000000E0E
(0000000003.789851) vcan0 517#0100000000000000
(0000000003.794851) vcan0 010#00FF6130000009A7
(0000000003.799851) vcan0 102#0000194F51CD0EC4
(0000000003.804851) vcan0 103#0200020000000E0E
(0000000003.809851) vcan0 122#D32300CA1CBB009D
(0000000003.814851) vcan0 231#0000000000000000
(0000000003.819851) vcan0 517#0000000000000000
(0000000003.824851) vcan0 010#00FF613000000AA4
(0000000003.829851) vcan0 012#9999320001000D3E
(0000000003.834851) vcan0 400#000B56F0000107AB
(0000000003.839851) vcan0 408#0041330AFFFF077F
(0000000003.844851) vcan0 410#3F00AA3100FF075C
(0000000003.849851) vcan0 411#3260000000000000
(0000000003.854851) vcan0 022#FFFFFFFF00000707
(0000000003.859851) vcan0 102#0000194F51CD0FC5
(0000000003.864851) vcan0 103#0200020000000F0F
(0000000003.869851) vcan0 122#D32300CA1CBB019C
(0000000003.874851) vcan0 110#0000007B01050877
(0000000003.879851) vcan0 300#00000D8C00660000
(0000000003.884851) vcan0 308#0012000000008200
(0000000003.889851) vcan0 316#13AD01274E000000
(0000000003.894851) vcan0 320#20000000F0008200
(0000000003.899851) vcan0 342#03C2999993000390
(0000000003.904851) vcan0 516#0000000000000000
(0000000003.909851) vcan0 231#0000000000000101
(0000000003.914851) vcan0 517#0000000000000000
(0000000003.919851) vcan0 010#00FF613000000BA5
(0000000003.924851) vcan0 013#FF01090000000000
(0000000003.929851) vcan0 102#0000194F51CD00CA
(0000000003.934851) vcan0 103#0200020000000000
(0000000003.939851) vcan0 122#D32300CA1CBB029F
(0000000003.944851) vcan0 231#0000000000000202
(0000000003.949851) vcan0 517#0100000000000000
(0000000003.954851) vcan0 400#000B56F0000108A4
(0000000003.959851) vcan0 408#0041330AFFFF0870
(0000000003.964851) vcan0 010#00FF613000000CA2
(0000000003.969851) vcan0 102#0000194F51CD01CB
(0000000003.974851) vcan0 012#9999320000000E3C
(0000000003.979851) vcan0 103#0200020000000101
(0000000003.984851) vcan0 122#D32300CA1CBB039E
(0000000003.989851) vcan0 110#0000007B01050976
(0000000003.994851) vcan0 300#00000D8C00660000
(0000000003.999851) vcan0 308#0012000000008200
(0000000004.004851) vcan0 316#13AD01274E000000
(0000000004.009851) vcan0 320#20000000F0008200
(0000000004.014851) vcan0 342#03C2999993000390
(0000000004.019851) vcan0 410#3F00C40000FF080C
(0000000004.024851) vcan0 516#0000000000000000
(0000000004.029851) vcan0 411#3260000000000000
(0000000004.034851) vcan0 022#FFFFFFFF00000808
(0000000004.039851) vcan0 332#0100000000000405
(0000000004.044851) vcan0 530#FFFF6B2364044900
(0000000004.049851) vcan0 231#0000000000000303
(0000000004.054851) vcan0 517#0000000000000000
(0000000004.059851) vcan0 102#0000194F51CD02C8
(0000000004.064851) vcan0 103#0200020000000202
(0000000004.069851) vcan0 122#D32300CA1CBB0499
(0000000004.074851) vcan0 010#00FF613000000DA3
(0000000004.079851) vcan0 231#0000000000000404
(0000000004.084851) vcan0 517#0000000000000000
(0000000004.089851) vcan0 102#0000194F51CD03C9
(0000000004.094851) vcan0 103#0200020000000303
(0000000004.099851) vcan0 122#D32300CA1CBB0598
(0000000004.104851) vcan0 400#000B56F0000109A5
(0000000004.109851) vcan0 110#0000007B01050A75
(0000000004.114851) vcan0 300#00000D8C00660000
(0000000004.119851) vcan0 308#0012000000008200
(0000000004.124851) vcan0 316#13AD01274E000000
(0000000004.129851) vcan0 010#00FF613000000EA0
(0000000004.134851) vcan0 320#20000000F0008200
(0000000004.139851) vcan0 012#9999320001000F3C
(0000000004.144851) vcan0 342#03C2999993000390
(0000000004.149851) vcan0 408#0041330AFFFF0971
(0000000004.154851) vcan0 516#0000000000000000
(0000000004.159851) vcan0 410#3F00C40000FF090D
(0000000004.164851) vcan0 411#3260000000000000
(0000000004.169851) vcan0 022#FFFFFFFF00000909
(0000000004.174851) vcan0 102#0000194F51CD04CE
(0000000004.179851) vcan0 103#0200020000000404
(0000000004.184851) vcan0 122#D32300CA1CBB069B
(0000000004.189851) vcan0 231#0000000000000505
(0000000004.194851) vcan0 517#0100000000000000
(0000000004.199851) vcan0 010#00FF613000000FA1
(0000000004.204851) vcan0 102#0000194F51CD05CF
(0000000004.209851) vcan0 103#0200020000000505
(0000000004.214851) vcan0 122#D32300CA1CBB079A
(0000000004.219851) vcan0 110#0000007B01050B74
(0000000004.224851) vcan0 300#00000D8C00660000
(0000000004.229851) vcan0 308#0012000000008200
(0000000004.234851) vcan0 231#0000000000000606
(0000000004.239851) vcan0 316#13AD01274E000000
(0000000004.244851) vcan0 320#20000000F0008200
(0000000004.249851) vcan0 342#03C2999993000390
(0000000004.254851) vcan0 400#000B56F000010AA6
(0000000004.259851) vcan0 516#0000000000000000
(0000000004.264851) vcan0 408#0041330AFFFF0A72
(0000000004.269851) vcan0 410#3F00C40000FF0A0E
(0000000004.274851) vcan0 411#3260000000000000
(0000000004.279851) vcan0 022#FFFFFFFF00000A0A
(0000000004.284851) vcan0 010#00FF6130000000AE
(0000000004.289851) vcan0 517#0100000000000000
(0000000004.294851) vcan0 012#9999320000000032
(0000000004.299851) vcan0 013#FF01090000000000
(0000000004.304851) vcan0 102#0000194F51CD06CC
(0000000004.309851) vcan0 103#0200020000000606
(0000000004.314851) vcan0 122#D32300CA1CBB0895
(0000000004.319851) vcan0 231#0000000000000707
(0000000004.324851) vcan0 517#0000000000000000
(0000000004.329851) vcan0 010#00FF6130000001AF
(0000000004.334851) vcan0 102#0000194F51CD07CD
(0000000004.339851) vcan0 103#0200020000000707
(0000000004.344851) vcan0 122#D32300CA1CBB0994
(0000000004.349851) vcan0 110#0000007B01050C73
(0000000004.354851) vcan0 308#0012000000008200
(0000000004.359851) vcan0 300#00000D8C00660000
(0000000004.364851) vcan0 316#13AD01274E000000
(0000000004.369851) vcan0 320#20000000F0008200
(0000000004.374851) vcan0 342#03C2999993000390
(0000000004.379851) vcan0 400#000B56F000010BA7
(0000000004.384851) vcan0 516#0000000000000000
(0000000004.389851) vcan0 408#0041330AFFFF0B73
(0000000004.394851) vcan0 410#3F00C40000FF0B0F
(0000000004.399851) vcan0 411#3260000000000000
(0000000004.404851) vcan0 022#FFFFFFFF00000B0B
(0000000004.409851) vcan0 231#0000000000000808
(0000000004.414851) vcan0 517#0000000000000000
(0000000004.419851) vcan0 010#00FF6130000002AC
(0000000004.424851) vcan0 012#9999320001000132
(0000000004.429851) vcan0 102#0000194F51CD08C2
(0000000004.434851) vcan0 103#0200020000000808
(0000000004.439851) vcan0 122#D32300CA1CBB0A97
(0000000004.444851) vcan0 231#0000000000000A0A
(0000000004.449851) vcan0 517#0100000000000000
(0000000004.454851) vcan0 010#00FF6130000003AD
(0000000004.459851) vcan0 102#0000194F51CD09C3
(0000000004.464851) vcan0 103#0200020000000909
(0000000004.469851) vcan0 122#D32300CA1CBB0B96
(0000000004.474851) vcan0 110#0000007B01050D72
(0000000004.479851) vcan0 300#00000D8C00660000
(0000000004.484851) vcan0 308#0012000000008200
(0000000004.489851) vcan0 316#13AD01274E000000
(0000000004.494851) vcan0 320#20000000F0008200
(0000000004.499851) vcan0 342#03C2999993000390
(0000000004.504851) vcan0 516#0000000000000000
(0000000004.509851) vcan0 400#000B56F000010CA0
(0000000004.514851) vcan0 408#0041330AFFFF0C74
(0000000004.519851) vcan0 410#3F00AA3000FF0C56
(0000000004.524851) vcan0 411#3260000000000000
(0000000004.529851) vcan0 022#FFFFFFFF00000C0C
(0000000004.534851) vcan0 231#0000000000000A0A
(0000000004.539851) vcan0 517#0100000000000000
(0000000004.544851) vcan0 010#00FF6130000004AA
(0000000004.549851) vcan0 012#9999320000000230
(0000000004.554851) vcan0 102#0000194F51CD0AC0
(0000000004.559851) vcan0 103#0200020000000A0A
(0000000004.564851) vcan0 122#D32300CA1CBB0C91
(0000000004.569851) vcan0 231#0001000000000C0D
(0000000004.574851) vcan0 517#0000000000000000
(0000000004.579851) vcan0 010#00FF6130000005AB
(0000000004.584851) vcan0 013#FF01090000000000
(0000000004.589851) vcan0 102#0000194F51CD0BC1
(0000000004.594851) vcan0 103#0200020000000B0B
(0000000004.599851) vcan0 122#D32300CA1CBB0D90
(0000000004.604851) vcan0 110#0000007B01050E71
(0000000004.609851) vcan0 308#0012000000008200
(0000000004.614851) vcan0 300#00000D8C00660000
(0000000004.619851) vcan0 316#13AD01274E000000
(0000000004.624851) vcan0 320#20000000F0008200
(0000000004.629851) vcan0 342#03C2999993000390
(0000000004.634851) vcan0 516#0000000000000000
(0000000004.639851) vcan0 400#000B56F000010DA1
(0000000004.644851) vcan0 408#0041330AFFFF0D75
(0000000004.649851) vcan0 410#3F00AA3000FF0D57
(0000000004.654851) vcan0 411#3260000000000000
(0000000004.659851) vcan0 332#0100000000000504
(0000000004.664851) vcan0 022#FFFFFFFF00000D0D
(0000000004.669851) vcan0 530#FFFF6B2364044900
(0000000004.674851) vcan0 231#0001000000000C0D
(0000000004.679851) vcan0 517#0000000000000000
(0000000004.684851) vcan0 010#00FF6130000006A8
(0000000004.689851) vcan0 012#9999320001000330
(0000000004.694851) vcan0 102#0000194F51CD0CC6
(0000000004.699851) vcan0 103#0200020000000C0C
(0000000004.704851) vcan0 122#D32300CA1CBB0E93
(0000000004.709851) vcan0 231#0001000000000E0F
(0000000004.714851) vcan0 517#0100000000000000
(0000000004.719851) vcan0 102#0000194F51CD0DC7
(0000000004.724851) vcan0 103#0200020000000D0D
(0000000004.729851) vcan0 122#D32300CA1CBB0F92
(0000000004.734851) vcan0 010#00FF6130000007A9
(0000000004.739851) vcan0 110#0000007B01050F70
(0000000004.744851) vcan0 300#00000D8C00660000
(0000000004.749851) vcan0 308#0012000000008200
(0000000004.754851) vcan0 316#13AD01274E000000
(0000000004.759851) vcan0 320#20000000F0008200
(0000000004.764851) vcan0 342#03C2999993000390
(0000000004.769851) vcan0 516#0000000000000000
(0000000004.774851) vcan0 400#000B56F000010EA2
(0000000004.779851) vcan0 408#0041330AFFFF0E76
(0000000004.784851) vcan0 410#3F00AA3000FF0E54
(0000000004.789851) vcan0 411#3260000000000000
(0000000004.794851) vcan0 022#FFFFFFFF00000E0E
(0000000004.799851) vcan0 231#0001000000000F0E
(0000000004.804851) vcan0 517#0000000000000000
(0000000004.809851) vcan0 102#0000194F51CD0EC4
(0000000004.814851) vcan0 103#0200020000000E0E
(0000000004.819851) vcan0 122#D32300CA1CBB009D
(0000000004.824851) vcan0 010#00FF6130000008A6
(0000000004.829851) vcan0 012#9999320000000436
(0000000004.834851) vcan0 102#0000194F51CD0FC5
(0000000004.839851) vcan0 103#0200020000000F0F
(0000000004.844851) vcan0 122#D32300CA1CBB019C
(0000000004.849851) vcan0 231#0001000000000001
(0000000004.854851) vcan0 517#0000000000000000
(0000000004.859851) vcan0 110#0000007B0105007F
(0000000004.864851) vcan0 300#00000D8C00660000
(0000000004.869851) vcan0 308#0012000000008200
(0000000004.874851) vcan0 316#13AD01274E000000
(0000000004.879851) vcan0 320#20000000F0008200
(0000000004.884851) vcan0 342#03C2999993000390
(0000000004.889851) vcan0 010#00FF6130000009A7
(0000000004.894851) vcan0 516#0000000000000000
(0000000004.899851) vcan0 400#000B56F000010FA3
(0000000004.904851) vcan0 408#0041330AFFFF0F77
(0000000004.909851) vcan0 410#3F00AA3000FF0F55
(0000000004.914851) vcan0 411#3260000000000000
(0000000004.919851) vcan0 022#FFFFFFFF00000F0F
(0000000004.924851) vcan0 102#0000194F51CD00CA
(0000000004.929851) vcan0 103#0200020000000000
(0000000004.934851) vcan0 122#D32300CA1CBB029F
(0000000004.939851) vcan0 231#0001000000000100
(0000000004.944851) vcan0 517#0100000000000000
(0000000004.949851) vcan0 010#00FF613000000AA4
(0000000004.954851) vcan0 012#9999320001000536
(0000000004.959851) vcan0 013#FF01090000000000
(0000000004.964851) vcan0 102#0000194F51CD01CB
(0000000004.969851) vcan0 103#0200020000000101
(0000000004.974851) vcan0 122#D32300CA1CBB039E
(0000000004.979851) vcan0 110#0000007B0105017E
(0000000004.984851) vcan0 300#00000D8C00660000
(0000000004.989851) vcan0 308#0012000000008200
(0000000004.994851) vcan0 316#13AD01274E000000
(0000000004.999851) vcan0 320#20000000F0008200
(0000000005.004851) vcan0 342#03C2999993000390
(0000000005.009851) vcan0 516#0000000000000000
(0000000005.014851) vcan0 231#0001000000000203
(0000000005.019851) vcan0 517#0100000000000000
(0000000005.024851) vcan0 010#00FF613000000BA5
(0000000005.029851) vcan0 400#000B56F0000101AD
(0000000005.034851) vcan0 408#0041330AFFFF0179
(0000000005.039851) vcan0 410#3F00AA3100FF005B
(0000000005.044851) vcan0 411#3260000000000000
(0000000005.049851) vcan0 022#FFFFFFFF00000000
(0000000005.054851) vcan0 102#0000194F51CD02C8
(0000000005.059851) vcan0 103#0200020000000202
(0000000005.064851) vcan0 122#D32300CA1CBB0499
(0000000005.069851) vcan0 231#0001000000000405
(0000000005.074851) vcan0 517#0000000000000000
(0000000005.079851) vcan0 010#00FF613000000CA2
(0000000005.084851) vcan0 012#9999320000000634
(0000000005.089851) vcan0 102#0000194F51CD03C9
(0000000005.094851) vcan0 103#0200020000000303
(0000000005.099851) vcan0 122#D32300CA1CBB0598
(0000000005.104851) vcan0 110#0000007B0105027D
(0000000005.109851) vcan0 308#0012000000008200
(0000000005.114851) vcan0 300#00000D8C00660000
(0000000005.119851) vcan0 316#13AD01274E000000
(0000000005.124851) vcan0 320#20000000F0008200
(0000000005.129851) vcan0 342#03C2999993000390
(0000000005.134851) vcan0 516#0000000000000000
(0000000005.139851) vcan0 231#0001000000000405
(0000000005.144851) vcan0 517#0000000000000000
(0000000005.149851) vcan0 010#00FF613000000DA3
(0000000005.154851) vcan0 400#000B56F0000102AE
(0000000005.159851) vcan0 408#0041330AFFFF027A
(0000000005.164851) vcan0 410#3F00AA3100FF015A
(0000000005.169851) vcan0 411#3260000000000000
(0000000005.174851) vcan0 022#FFFFFFFF00000101
(0000000005.179851) vcan0 102#0000194F51CD04CE
(0000000005.184851) vcan0 103#0200020000000404
(0000000005.189851) vcan0 122#D32300CA1CBB069B
(0000000005.194851) vcan0 231#0001000000000607
(0000000005.199851) vcan0 517#0100000000000000
(0000000005.204851) vcan0 010#00FF613000000EA0
(0000000005.209851) vcan0 012#9999320001000734
(0000000005.214851) vcan0 102#0000194F51CD05CF
(0000000005.219851) vcan0 103#0200020000000505
(0000000005.224851) vcan0 122#D32300CA1CBB079A
(0000000005.229851) vcan0 110#0000007B0105037C
(0000000005.234851) vcan0 300#00000D8C00660000
(0000000005.239851) vcan0 308#0012000000008200
(0000000005.244851) vcan0 316#13AD01274E000000
(0000000005.249851) vcan0 320#20000000F0008200
(0000000005.254851) vcan0 342#03C2999993000390
(0000000005.259851) vcan0 516#0000000000000000
(0000000005.264851) vcan0 332#0100000000000607
(0000000005.269851) vcan0 530#FFFF6B2364044900
(0000000005.274851) vcan0 231#0001000000000607
(0000000005.279851) vcan0 517#0100000000000000
(0000000005.284851) vcan0 010#00FF613000000FA1
(0000000005.289851) vcan0 013#FF01090000000000
(0000000005.294851) vcan0 400#000B56F0000103AF
(0000000005.299851) vcan0 408#0041330AFFFF037B
(0000000005.304851) vcan0 410#3F00AA3100FF0259
(0000000005.309851) vcan0 102#0000194F51CD06CC
(0000000005.314851) vcan0 103#0200020000000606
(0000000005.319851) vcan0 122#D32300CA1CBB0895
(0000000005.324851) vcan0 411#3260000000000000
(0000000005.329851) vcan0 022#FFFFFFFF00000202
(0000000005.334851) vcan0 231#0001000000000809
(0000000005.339851) vcan0 517#0000000000000000
(0000000005.344851) vcan0 010#00FF6130000000AE
(0000000005.349851) vcan0 012#999932000000083A
(0000000005.354851) vcan0 102#0000194F51CD07CD
(0000000005.359851) vcan0 103#0200020000000707
(0000000005.364851) vcan0 122#D32300CA1CBB0994
(0000000005.369851) vcan0 110#0000007B0105047B
(0000000005.374851) vcan0 300#00000D8C00660000
(0000000005.379851) vcan0 308#0012000000008200
(0000000005.384851) vcan0 316#13AD01274E000000
(0000000005.389851) vcan0 320#20000000F0008200
(0000000005.394851) vcan0 342#03C2999993000390
(0000000005.399851) vcan0 516#0000000000000000
(0000000005.404851) vcan0 231#0001000000000908
(0000000005.409851) vcan0 517#0100000000000000
(0000000005.414851) vcan0 102#0000194F51CD08C2
(0000000005.419851) vcan0 103#0200020000000808
(0000000005.424851) vcan0 122#D32300CA1CBB0A97
(0000000005.429851) vcan0 010#00FF6130000001AF
(0000000005.434851) vcan0 400#000B56F0000104A8
(0000000005.439851) vcan0 408#0041330AFFFF047C
(0000000005.444851) vcan0 410#3F00AA3100FF0358
(0000000005.449851) vcan0 411#3260000000000000
(0000000005.454851) vcan0 022#FFFFFFFF00000303
(0000000005.459851) vcan0 231#0001000000000A0B
(0000000005.464851) vcan0 517#0100000000000000
(0000000005.469851) vcan0 102#0000194F51CD09C3
(0000000005.474851) vcan0 103#0200020000000909
(0000000005.479851) vcan0 122#D32300CA1CBB0B96
(0000000005.484851) vcan0 110#0000007B0105057A
(0000000005.489851) vcan0 300#00000D8C00660000
(0000000005.494851) vcan0 308#0012000000008200
(0000000005.499851) vcan0 316#13AD01274E000000
(0000000005.504851) vcan0 010#00FF6130000002AC
(0000000005.509851) vcan0 320#20000000F0008200
(0000000005.514851) vcan0 012#999932000100093A
(0000000005.519851) vcan0 342#03C2999993000390
(0000000005.524851) vcan0 516#0000000000000000
(0000000005.529851) vcan0 102#0000194F51CD0AC0
(0000000005.534851) vcan0 103#0200020000000A0A
(0000000005.539851) vcan0 122#D32300CA1CBB0C91
(0000000005.544851) vcan0 231#0001000000000B0A
(0000000005.549851) vcan0 517#0000000000000000
(0000000005.554851) vcan0 400#000B56F0000105A9
(0000000005.559851) vcan0 408#0041330AFFFF057D
(0000000005.564851) vcan0 410#3F00C40000FF0400
(0000000005.569851) vcan0 411#3260000000000000
(0000000005.574851) vcan0 022#FFFFFFFF00000404
(0000000005.579851) vcan0 010#00FF6130000003AD
(0000000005.584851) vcan0 102#0000194F51CD0BC1
(0000000005.589851) vcan0 103#0200020000000B0B
(0000000005.594851) vcan0 122#D32300CA1CBB0D90
(0000000005.599851) vcan0 110#0000007B01050679
(0000000005.604851) vcan0 308#0012000000008200
(0000000005.609851) vcan0 231#0001000000000C0D
(0000000005.614851) vcan0 300#00000D8C00660000
(0000000005.619851) vcan0 316#13AD01274E000000
(0000000005.624851) vcan0 320#20000000F0008200
(0000000005.629851) vcan0 342#03C2999993000390
(0000000005.634851) vcan0 516#0000000000000000
(0000000005.639851) vcan0 517#0000000000000000
(0000000005.644851) vcan0 010#00FF6130000004AA
(0000000005.649851) vcan0 012#9999320000000A38
(0000000005.654851) vcan0 013#FF01090000000000
(0000000005.659851) vcan0 102#0000194F51CD0CC6
(0000000005.664851) vcan0 103#0200020000000C0C
(0000000005.669851) vcan0 122#D32300CA1CBB0E93
(0000000005.674851) vcan0 231#0001000000000D0C
(0000000005.679851) vcan0 400#000B56F0000106AA
(0000000005.684851) vcan0 408#0041330AFFFF067E
(0000000005.689851) vcan0 410#3F00C40000FF0501
(0000000005.694851) vcan0 411#3260000000000000
(0000000005.699851) vcan0 022#FFFFFFFF00000505
(0000000005.704851) vcan0 517#0100000000000000
(0000000005.709851) vcan0 010#00FF6130000005AB
(0000000005.714851) vcan0 102#0000194F51CD0DC7
(0000000005.719851) vcan0 103#0200020000000D0D
(0000000005.724851) vcan0 122#D32300CA1CBB0F92
(0000000005.729851) vcan0 110#0000007B01050778
(0000000005.734851) vcan0 300#00000D8C00660000
(0000000005.739851) vcan0 308#0012000000008200
(0000000005.744851) vcan0 316#13AD01274E000000
(0000000005.749851) vcan0 320#20000000F0008200
(0000000005.754851) vcan0 342#03C2999993000390
(0000000005.759851) vcan0 516#0000000000000000
(0000000005.764851) vcan0 231#0001000000000E0F
(0000000005.769851) vcan0 517#0100000000000000
(0000000005.774851) vcan0 010#00FF6130000006A8
(0000000005.779851) vcan0 012#9999320001000B38
(0000000005.784851) vcan0 102#0000194F51CD0EC4
(0000000005.789851) vcan0 103#0200020000000E0E
(0000000005.794851) vcan0 122#D32300CA1CBB009D
(0000000005.799851) vcan0 400#000B56F0000107AB
(0000000005.804851) vcan0 408#0041330AFFFF077F
(0000000005.809851) vcan0 410#3F00C40000FF0703
(0000000005.814851) vcan0 411#3260000000000000
(0000000005.819851) vcan0 022#FFFFFFFF00000707
(0000000005.824851) vcan0 231#0001000000000001
(0000000005.829851) vcan0 517#0000000000000000
(0000000005.834851) vcan0 010#00FF6130000007A9
(0000000005.839851) vcan0 102#0000194F51CD0FC5
(0000000005.844851) vcan0 103#0200020000000F0F
(0000000005.849851) vcan0 122#D32300CA1CBB019C
(0000000005.854851) vcan0 110#0000007B01050877
(0000000005.859851) vcan0 308#0012000000008200
(0000000005.864851) vcan0 300#00000D8C00660000
(0000000005.869851) vcan0 316#13AD01274E000000
(0000000005.874851) vcan0 320#20000000F0008200
(0000000005.879851) vcan0 342#03C2999993000390
(0000000005.884851) vcan0 516#0000000000000000
(0000000005.889851) vcan0 231#0001000000000001
(0000000005.894851) vcan0 517#0000000000000000
(0000000005.899851) vcan0 332#0100000000000706
(0000000005.904851) vcan0 530#FFFF6B2464044900
(0000000005.909851) vcan0 010#00FF6130000008A6
(0000000005.914851) vcan0 012#9999320000000C3E
(0000000005.919851) vcan0 102#0000194F51CD00CA
(0000000005.924851) vcan0 103#0200020000000000
(0000000005.929851) vcan0 122#D32300CA1CBB029F
(0000000005.934851) vcan0 400#000B56F0000108A4
(0000000005.939851) vcan0 408#0041330AFFFF0870
(0000000005.944851) vcan0 410#3F00AA3000FF0852
(0000000005.949851) vcan0 411#3260000000000000
(0000000005.954851) vcan0 022#FFFFFFFF00000808
(0000000005.959851) vcan0 231#0001000000000203
(0000000005.964851) vcan0 517#0100000000000000
(0000000005.969851) vcan0 010#00FF6130000009A7
(0000000005.974851) vcan0 013#FF01090000000000
(0000000005.979851) vcan0 102#0000194F51CD01CB
(0000000005.984851) vcan0 103#0200020000000101
(0000000005.989851) vcan0 122#D32300CA1CBB039E
(0000000005.994851) vcan0 110#0000007B01050976
(0000000005.999851) vcan0 300#00000D8C00660000
(0000000006.004851) vcan0 308#0012000000008200
(0000000006.009851) vcan0 316#13AD01274E000000
(0000000006.014851) vcan0 320#20000000F0008200
(0000000006.019851) vcan0 342#03C2999993000390
(0000000006.024851) vcan0 516#0000000000000000
(0000000006.029851) vcan0 231#0001000000000302
(0000000006.034851) vcan0 517#0000000000000000
(0000000006.039851) vcan0 010#00FF613000000AA4
(0000000006.044851) vcan0 012#9999320001000D3E
(0000000006.049851) vcan0 102#0000194F51CD02C8
(0000000006.054851) vcan0 103#0200020000000202
(0000000006.059851) vcan0 122#D32300CA1CBB0499
(0000000006.064851) vcan0 400#000B56F0000109A5
(0000000006.069851) vcan0 408#0041330AFFFF0971
(0000000006.074851) vcan0 410#3F00AA3000FF0953
(0000000006.079851) vcan0 411#3260000000000000
(0000000006.084851) vcan0 022#FFFFFFFF00000909
(0000000006.089851) vcan0 231#0001000000000405
(0000000006.094851) vcan0 517#0000000000000000
(0000000006.099851) vcan0 102#0000194F51CD03C9
(0000000006.104851) vcan0 103#0200020000000303
(0000000006.109851) vcan0 122#D32300CA1CBB0598
(0000000006.114851) vcan0 010#00FF613000000BA5
(0000000006.119851) vcan0 110#0000007B01050A75
(0000000006.124851) vcan0 300#00000D8C00660000
(0000000006.129851) vcan0 308#0012000000008200
(0000000006.134851) vcan0 316#13AD01274E000000
(0000000006.139851) vcan0 320#20000000F0008200
(0000000006.144851) vcan0 342#03C2999993000390
(0000000006.149851) vcan0 516#0000000000000000
(0000000006.154851) vcan0 231#0001000000000504
(0000000006.159851) vcan0 517#0100000000000000
(0000000006.164851) vcan0 102#0000194F51CD04CE
(0000000006.169851) vcan0 103#0200020000000404
(0000000006.174851) vcan0 122#D32300CA1CBB069B
(0000000006.179851) vcan0 010#00FF613000000CA2
(0000000006.184851) vcan0 012#9999320000000E3C
(0000000006.189851) vcan0 400#000B56F000010AA6
(0000000006.194851) vcan0 408#0041330AFFFF0A72
(0000000006.199851) vcan0 410#3F00AA3000FF0A50
(0000000006.204851) vcan0 411#3260000000000000
(0000000006.209851) vcan0 022#FFFFFFFF00000A0A
(0000000006.214851) vcan0 102#0000194F51CD05CF
(0000000006.219851) vcan0 103#0200020000000505
(0000000006.224851) vcan0 122#D32300CA1CBB079A
(0000000006.229851) vcan0 110#0000007B01050B74
(0000000006.234851) vcan0 231#0001000000000607
(0000000006.239851) vcan0 300#00000D8C00660000
(0000000006.244851) vcan0 308#0012000000008200
(0000000006.249851) vcan0 316#13AD01274E000000
(0000000006.254851) vcan0 320#20000000F0008200
(0000000006.259851) vcan0 342#03C2999993000390
(0000000006.264851) vcan0 516#0000000000000000
(0000000006.269851) vcan0 010#00FF613000000DA3
(0000000006.274851) vcan0 517#0100000000000000
(0000000006.279851) vcan0 102#0000194F51CD06CC
(0000000006.284851) vcan0 103#0200020000000606
(0000000006.289851) vcan0 122#D32300CA1CBB0895
(0000000006.294851) vcan0 231#0001000000000706
(0000000006.299851) vcan0 517#0000000000000000
(0000000006.304851) vcan0 010#00FF613000000EA0
(0000000006.309851) vcan0 012#9999320001000F3C
(0000000006.314851) vcan0 013#FF01090000000000
(0000000006.319851) vcan0 400#000B56F000010BA7
(0000000006.324851) vcan0 408#0041330AFFFF0B73
(0000000006.329851) vcan0 410#3F00AA3000FF0B51
(0000000006.334851) vcan0 411#3260000000000000
(0000000006.339851) vcan0 022#FFFFFFFF00000B0B
(0000000006.344851) vcan0 102#0000194F51CD07CD
(0000000006.349851) vcan0 103#0200020000000707
(0000000006.354851) vcan0 122#D32300CA1CBB0994
(0000000006.359851) vcan0 110#0000007B01050C73
(0000000006.364851) vcan0 308#0012000000008200
(0000000006.369851) vcan0 300#00000D8C00660000
(0000000006.374851) vcan0 316#13AD01274E000000
(0000000006.379851) vcan0 320#20000000F0008200
(0000000006.384851) vcan0 342#03C2999993000390
(0000000006.389851) vcan0 231#0001000000000809
(0000000006.394851) vcan0 516#0000000000000000
(0000000006.399851) vcan0 517#0000000000000000
(0000000006.404851) vcan0 010#00FF613000000FA1
(0000000006.409851) vcan0 102#0000194F51CD08C2
(0000000006.414851) vcan0 103#0200020000000808
(0000000006.419851) vcan0 122#D32300CA1CBB0A97
(0000000006.424851) vcan0 231#0001000000000A0B
(0000000006.429851) vcan0 517#0100000000000000
(0000000006.434851) vcan0 010#00FF6130000000AE
(0000000006.439851) vcan0 012#9999320000000032
(0000000006.444851) vcan0 400#000B56F000010CA0
(0000000006.449851) vcan0 408#0041330AFFFF0C74
(0000000006.454851) vcan0 410#3F00AA3100FF0C57
(0000000006.459851) vcan0 411#3260000000000000
(0000000006.464851) vcan0 022#FFFFFFFF00000C0C
(0000000006.469851) vcan0 102#0000194F51CD09C3
(0000000006.474851) vcan0 103#0200020000000909
(0000000006.479851) vcan0 122#D32300CA1CBB0B96
(0000000006.484851) vcan0 110#0000007B01050D72
(0000000006.489851) vcan0 300#00000D8C00660000
(0000000006.494851) vcan0 308#0012000000008200
(0000000006.499851) vcan0 316#13AD01274E000000
(0000000006.504851) vcan0 320#20000000F0008200
(0000000006.509851) vcan0 342#03C2999993000390
(0000000006.514851) vcan0 516#0000000000000000
(0000000006.519851) vcan0 231#0001000000000A0B
(0000000006.524851) vcan0 517#0100000000000000
(0000000006.529851) vcan0 010#00FF6130000001AF
(0000000006.534851) vcan0 332#0100000000000809
(0000000006.539851) vcan0 530#FFFF6B2464044900
(0000000006.544851) vcan0 102#0000194F51CD0AC0
(0000000006.549851) vcan0 103#0200020000000A0A
(0000000006.554851) vcan0 122#D32300CA1CBB0C91
(0000000006.559851) vcan0 231#0001000000000C0D
(0000000006.564851) vcan0 517#0000000000000000
(0000000006.569851) vcan0 010#00FF6130000002AC
(0000000006.574851) vcan0 012#9999320001000132
(0000000006.579851) vcan0 400#000B56F000010DA1
(0000000006.584851) vcan0 408#0041330AFFFF0D75
(0000000006.589851) vcan0 410#3F00AA3100FF0D56
(0000000006.594851) vcan0 102#0000194F51CD0BC1
(0000000006.599851) vcan0 103#0200020000000B0B
(0000000006.604851) vcan0 122#D32300CA1CBB0D90
(0000000006.609851) vcan0 411#3260000000000000
(0000000006.614851) vcan0 110#0000007B01050E71
(0000000006.619851) vcan0 022#FFFFFFFF00000D0D
(0000000006.624851) vcan0 300#00000D8C00660000
(0000000006.629851) vcan0 308#0012000000008200
(0000000006.634851) vcan0 316#13AD01274E000000
(0000000006.639851) vcan0 320#20000000F0008200
(0000000006.644851) vcan0 342#03C2999993000390
(0000000006.649851) vcan0 516#0000000000000000
(0000000006.654851) vcan0 231#0001000000000C0D
(0000000006.659851) vcan0 517#0000000000000000
(0000000006.664851) vcan0 010#00FF6130000003AD
(0000000006.669851) vcan0 013#FF01090000000000
(0000000006.674851) vcan0 102#0000194F51CD0CC6
(0000000006.679851) vcan0 103#0200020000000C0C
(0000000006.684851) vcan0 122#D32300CA1CBB0E93
(0000000006.689851) vcan0 231#0001000000000E0F
(0000000006.694851) vcan0 517#0100000000000000
(0000000006.699851) vcan0 010#00FF6130000004AA
(0000000006.704851) vcan0 012#9999320000000230
(0000000006.709851) vcan0 102#0000194F51CD0DC7
(0000000006.714851) vcan0 103#0200020000000D0D
(0000000006.719851) vcan0 122#D32300CA1CBB0F92
(0000000006.724851) vcan0 110#0000007B01050F70
(0000000006.729851) vcan0 300#00000D8C00660000
(0000000006.734851) vcan0 308#0012000000008200
(0000000006.739851) vcan0 316#13AD01274E000000
(0000000006.744851) vcan0 320#20000000F0008200
(0000000006.749851) vcan0 342#03C2999993000390
(0000000006.754851) vcan0 400#000B56F000010EA2
(0000000006.759851) vcan0 516#0000000000000000
(0000000006.764851) vcan0 408#0041330AFFFF0E76
(0000000006.769851) vcan0 410#3F00AA3100FF0E55
(0000000006.774851) vcan0 411#3260000000000000
(0000000006.779851) vcan0 022#FFFFFFFF00000E0E
(0000000006.784851) vcan0 231#0001000000000F0E
(0000000006.789851) vcan0 517#0000000000000000
(0000000006.794851) vcan0 102#0000194F51CD0EC4
(0000000006.799851) vcan0 103#0200020000000E0E
(0000000006.804851) vcan0 010#00FF6130000005AB
(0000000006.809851) vcan0 122#D32300CA1CBB009D
(0000000006.814851) vcan0 231#0001000000000001
(0000000006.819851) vcan0 517#0000000000000000
(0000000006.824851) vcan0 102#0000194F51CD0FC5
(0000000006.829851) vcan0 103#0200020000000F0F
(0000000006.834851) vcan0 122#D32300CA1CBB019C
(0000000006.839851) vcan0 110#0000007B0105007F
(0000000006.844851) vcan0 300#00000D8C00660000
(0000000006.849851) vcan0 010#00FF6130000006A8
(0000000006.854851) vcan0 308#0012000000008200
(0000000006.859851) vcan0 012#9999320001000330
(0000000006.864851) vcan0 316#13AD01274E000000
(0000000006.869851) vcan0 320#20000000F0008200
(0000000006.874851) vcan0 342#03C2999993000390
(0000000006.879851) vcan0 400#000B56F000010FA3
(0000000006.884851) vcan0 516#0000000000000000
(0000000006.889851) vcan0 408#0041330AFFFF0F77
(0000000006.894851) vcan0 410#3F00AA3100FF0F54
(0000000006.899851) vcan0 411#3260000000000000
(0000000006.904851) vcan0 022#FFFFFFFF00000F0F
(0000000006.909851) vcan0 102#0000194F51CD00CA
(0000000006.914851) vcan0 103#0200020000000000
(0000000006.919851) vcan0 122#D32300CA1CBB029F
(0000000006.924851) vcan0 231#0001000000000100
(0000000006.929851) vcan0 517#0100000000000000
(0000000006.934851) vcan0 010#00FF6130000007A9
(0000000006.939851) vcan0 102#0000194F51CD01CB
(0000000006.944851) vcan0 103#0200020000000101
(0000000006.949851) vcan0 122#D32300CA1CBB039E
(0000000006.954851) vcan0 110#0000007B0105017E
(0000000006.959851) vcan0 300#00000D8C00660000
(0000000006.964851) vcan0 308#0012000000008200
(0000000006.969851) vcan0 231#0001000000000203
(0000000006.974851) vcan0 316#13AD01274E000000
(0000000006.979851) vcan0 320#20000000F0008200
(0000000006.984851) vcan0 342#03C2999993000390
(0000000006.989851) vcan0 516#0000000000000000
(0000000006.994851) vcan0 517#0100000000000000
(0000000006.999851) vcan0 400#000B56F0000100AC
(0000000007.004851) vcan0 408#0041330AFFFF0078
(0000000007.009851) vcan0 010#00FF6130000008A6
(0000000007.014851) vcan0 410#3F00C40000FF0004
(0000000007.019851) vcan0 012#9999320000000436
(0000000007.024851) vcan0 411#3260000000000000
(0000000007.029851) vcan0 013#FF01090000000000
(0000000007.034851) vcan0 022#FFFFFFFF00000000
(0000000007.039851) vcan0 102#0000194F51CD02C8
(0000000007.044851) vcan0 103#0200020000000202
(0000000007.049851) vcan0 122#D32300CA1CBB0499
(0000000007.054851) vcan0 231#0001000000000302
(0000000007.059851) vcan0 517#0000000000000000
(0000000007.064851) vcan0 010#00FF6130000009A7
(0000000007.069851) vcan0 102#0000194F51CD03C9
(0000000007.074851) vcan0 103#0200020000000303
(0000000007.079851) vcan0 122#D32300CA1CBB0598
(0000000007.084851) vcan0 110#0000007B0105027D
(0000000007.089851) vcan0 308#0012000000008200
(0000000007.094851) vcan0 300#00000D8C00660000
(0000000007.099851) vcan0 316#13AD01274E000000
(0000000007.104851) vcan0 320#20000000F0008200
(0000000007.109851) vcan0 342#03C2999993000390
(0000000007.114851) vcan0 516#0000000000000000
(0000000007.119851) vcan0 231#0001000000000405
(0000000007.124851) vcan0 400#000B56F0000101AD
(0000000007.129851) vcan0 408#0041330AFFFF0179
(0000000007.134851) vcan0 410#3F00C40000FF0105
(0000000007.139851) vcan0 411#3260000000000000
(0000000007.144851) vcan0 022#FFFFFFFF00000101
(0000000007.149851) vcan0 517#0000000000000000
(0000000007.154851) vcan0 010#00FF613000000AA4
(0000000007.159851) vcan0 012#9999320001000536
(0000000007.164851) vcan0 332#0100000000000908
(0000000007.169851) vcan0 530#FFFF6B2464044900
(0000000007.174851) vcan0 102#0000194F51CD04CE
(0000000007.179851) vcan0 103#0200020000000404
(0000000007.184851) vcan0 122#D32300CA1CBB069B
(0000000007.189851) vcan0 231#0001000000000607
(0000000007.194851) vcan0 517#0100000000000000
(0000000007.199851) vcan0 010#00FF613000000BA5
(0000000007.204851) vcan0 102#0000194F51CD05CF
(0000000007.209851) vcan0 103#0200020000000505
(0000000007.214851) vcan0 122#D32300CA1CBB079A
(0000000007.219851) vcan0 110#0000007B0105037C
(0000000007.224851) vcan0 300#00000D8C00660000
(0000000007.229851) vcan0 308#0012000000008200
(0000000007.234851) vcan0 316#13AD01274E000000
(0000000007.239851) vcan0 320#20000000F0008200
(0000000007.244851) vcan0 342#03C2999993000390
(0000000007.249851) vcan0 516#0000000000000000
(0000000007.254851) vcan0 400#000B56F0000102AE
(0000000007.259851) vcan0 408#0041330AFFFF027A
(0000000007.264851) vcan0 410#3F00C40000FF0206
(0000000007.269851) vcan0 411#3260000000000000
(0000000007.274851) vcan0 022#FFFFFFFF00000202
(0000000007.279851) vcan0 231#0001000000000607
(0000000007.284851) vcan0 517#0100000000000000
(0000000007.289851) vcan0 010#00FF613000000CA2
(0000000007.294851) vcan0 012#9999320000000634
(0000000007.299851) vcan0 102#0000194F51CD06CC
(0000000007.304851) vcan0 103#0200020000000606
(0000000007.309851) vcan0 122#D32300CA1CBB0895
(0000000007.314851) vcan0 231#0001000000000809
(0000000007.319851) vcan0 517#0000000000000000
(0000000007.324851) vcan0 010#00FF613000000DA3
(0000000007.329851) vcan0 013#FF01090000000000
(0000000007.334851) vcan0 102#0000194F51CD07CD
(0000000007.339851) vcan0 103#0200020000000707
(0000000007.344851) vcan0 122#D32300CA1CBB0994
(0000000007.349851) vcan0 110#0000007B0105047B
(0000000007.354851) vcan0 300#00000D8C00660000
(0000000007.359851) vcan0 308#0012000000008200
(0000000007.364851) vcan0 316#13AD01274E000000
(0000000007.369851) vcan0 320#20000000F0008200
(0000000007.374851) vcan0 342#03C2999993000390
(0000000007.379851) vcan0 516#0000000000000000
(0000000007.384851) vcan0 400#000B56F0000103AF
(0000000007.389851) vcan0 408#0041330AFFFF037B
(0000000007.394851) vcan0 410#3F00C40000FF0307
(0000000007.399851) vcan0 411#3260000000000000
(0000000007.404851) vcan0 022#FFFFFFFF00000303
(0000000007.409851) vcan0 231#0001000000000908
(0000000007.414851) vcan0 517#0100000000000000
(0000000007.419851) vcan0 010#00FF613000000EA0
(0000000007.424851) vcan0 012#9999320001000734
(0000000007.429851) vcan0 102#0000194F51CD08C2
(0000000007.434851) vcan0 103#0200020000000808
(0000000007.439851) vcan0 122#D32300CA1CBB0A97
(0000000007.444851) vcan0 231#0001000000000A0B
(0000000007.449851) vcan0 517#0100000000000000
(0000000007.454851) vcan0 102#0000194F51CD09C3
(0000000007.459851) vcan0 103#0200020000000909
(0000000007.464851) vcan0 010#00FF613000000FA1
(0000000007.469851) vcan0 110#0000007B0105057A
(0000000007.474851) vcan0 122#D32300CA1CBB0B96
(0000000007.479851) vcan0 300#00000D8C00660000
(0000000007.484851) vcan0 308#0012000000008200
(0000000007.489851) vcan0 316#13AD01274E000000
(0000000007.494851) vcan0 320#20000000F0008200
(0000000007.499851) vcan0 342#03C2999993000390
(0000000007.504851) vcan0 516#0000000000000000
(0000000007.509851) vcan0 400#000B56F0000105A9
(0000000007.514851) vcan0 408#0041330AFFFF057D
(0000000007.519851) vcan0 410#3F00AA3000FF045E
(0000000007.524851) vcan0 411#3260000000000000
(0000000007.529851) vcan0 022#FFFFFFFF00000404
(0000000007.534851) vcan0 231#0001000000000B0A
(0000000007.539851) vcan0 517#0000000000000000
(0000000007.544851) vcan0 102#0000194F51CD0AC0
(0000000007.549851) vcan0 103#0200020000000A0A
(0000000007.554851) vcan0 122#D32300CA1CBB0C91
(0000000007.559851) vcan0 010#00FF6130000000AE
(0000000007.564851) vcan0 012#999932000000083A
(0000000007.569851) vcan0 102#0000194F51CD0BC1
(0000000007.574851) vcan0 103#0200020000000B0B
(0000000007.579851) vcan0 122#D32300CA1CBB0D90
(0000000007.584851) vcan0 231#0001000000000C0D
(0000000007.589851) vcan0 110#0000007B01050679
(0000000007.594851) vcan0 300#00000D8C00660000
(0000000007.599851) vcan0 308#0012000000008200
(0000000007.604851) vcan0 316#13AD01274E000000
(0000000007.609851) vcan0 320#20000000F0008200
(0000000007.614851) vcan0 342#03C2999993000390
(0000000007.619851) vcan0 010#00FF6130000001AF
(0000000007.624851) vcan0 516#0000000000000000
(0000000007.629851) vcan0 517#0000000000000000
(0000000007.634851) vcan0 400#000B56F0000106AA
(0000000007.639851) vcan0 408#0041330AFFFF067E
(0000000007.644851) vcan0 410#3F00AA3000FF055F
(0000000007.649851) vcan0 411#3260000000000000
(0000000007.654851) vcan0 022#FFFFFFFF00000505
(0000000007.659851) vcan0 102#0000194F51CD0CC6
(0000000007.664851) vcan0 103#0200020000000C0C
(0000000007.669851) vcan0 122#D32300CA1CBB0E93
(0000000007.674851) vcan0 231#0001000000000D0C
(0000000007.679851) vcan0 517#0100000000000000
(0000000007.684851) vcan0 010#00FF6130000002AC
(0000000007.689851) vcan0 012#999932000100093A
(0000000007.694851) vcan0 013#FF01090000000000
(0000000007.699851) vcan0 102#0000194F51CD0DC7
(0000000007.704851) vcan0 103#0200020000000D0D
(0000000007.709851) vcan0 122#D32300CA1CBB0F92
(0000000007.714851) vcan0 110#0000007B01050778
(0000000007.719851) vcan0 300#00000D8C00660000
(0000000007.724851) vcan0 308#0012000000008200
(0000000007.729851) vcan0 316#13AD01274E000000
(0000000007.734851) vcan0 320#20000000F0008200
(0000000007.739851) vcan0 342#03C2999993000390
(0000000007.744851) vcan0 516#0000000000000000
(0000000007.749851) vcan0 231#0001000000000E0F
(0000000007.754851) vcan0 517#0100000000000000
(0000000007.759851) vcan0 010#00FF6130000003AD
(0000000007.764851) vcan0 400#000B56F0000107AB
(0000000007.769851) vcan0 408#0041330AFFFF077F
(0000000007.774851) vcan0 410#3F00AA3000FF065C
(0000000007.779851) vcan0 411#3260000000000000
(0000000007.784851) vcan0 022#FFFFFFFF00000606
(0000000007.789851) vcan0 332#0100000000000A0B
(0000000007.794851) vcan0 102#0000194F51CD0EC4
(0000000007.799851) vcan0 103#0200020000000E0E
(0000000007.804851) vcan0 122#D32300CA1CBB009D
(0000000007.809851) vcan0 530#FFFF6B2464044900
(0000000007.814851) vcan0 231#0001000000000001
(0000000007.819851) vcan0 517#0000000000000000
(0000000007.824851) vcan0 010#00FF6130000004AA
(0000000007.829851) vcan0 012#9999320000000A38
(0000000007.834851) vcan0 102#0000194F51CD0FC5
(0000000007.839851) vcan0 103#0200020000000F0F
(0000000007.844851) vcan0 122#D32300CA1CBB019C
(0000000007.849851) vcan0 110#0000007B01050877
(0000000007.854851) vcan0 300#00000D8C00660000
(0000000007.859851) vcan0 308#0012000000008200
(0000000007.864851) vcan0 316#13AD01274E000000
(0000000007.869851) vcan0 320#20000000F0008200
(0000000007.874851) vcan0 342#03C2999993000390
(0000000007.879851) vcan0 516#0000000000000000
(0000000007.884851) vcan0 231#0001000000000001
(0000000007.889851) vcan0 517#0000000000000000
(0000000007.894851) vcan0 010#00FF6130000005AB
(0000000007.899851) vcan0 400#000B56F0000108A4
(0000000007.904851) vcan0 408#0041330AFFFF0870
(0000000007.909851) vcan0 410#3F00AA3000FF075D
(0000000007.914851) vcan0 102#0000194F51CD00CA
(0000000007.919851) vcan0 103#0200020000000000
(0000000007.924851) vcan0 122#D32300CA1CBB029F
(0000000007.929851) vcan0 411#3260000000000000
(0000000007.934851) vcan0 022#FFFFFFFF00000707
(0000000007.939851) vcan0 231#0001000000000203
(0000000007.944851) vcan0 517#0100000000000000
(0000000007.949851) vcan0 010#00FF6130000006A8
(0000000007.954851) vcan0 012#9999320001000B38
(0000000007.959851) vcan0 102#0000194F51CD01CB
(0000000007.964851) vcan0 103#0200020000000101
(0000000007.969851) vcan0 122#D32300CA1CBB039E
(0000000007.974851) vcan0 110#0000007B01050976
(0000000007.979851) vcan0 300#00000D8C00660000
(0000000007.984851) vcan0 308#0012000000008200
(0000000007.989851) vcan0 316#13AD01274E000000
(0000000007.994851) vcan0 320#20000000F0008200
(0000000007.999851) vcan0 342#03C2999993000390
(0000000008.004851) vcan0 516#0000000000000000
(0000000008.009851) vcan0 231#0001000000000302
(0000000008.014851) vcan0 517#0000000000000000
(0000000008.019851) vcan0 010#00FF6130000007A9
(0000000008.024851) vcan0 013#FF01090000000000
(0000000008.029851) vcan0 102#0000194F51CD02C8
(0000000008.034851) vcan0 103#0200020000000202
(0000000008.039851) vcan0 122#D32300CA1CBB0499
(0000000008.044851) vcan0 400#000B56F0000109A5
(0000000008.049851) vcan0 408#0041330AFFFF0971
(0000000008.054851) vcan0 410#3F00AA3100FF0853
(0000000008.059851) vcan0 411#3260000000000000
(0000000008.064851) vcan0 022#FFFFFFFF00000808
(0000000008.069851) vcan0 231#0001000000000405
(0000000008.074851) vcan0 517#0000000000000000
(0000000008.079851) vcan0 010#00FF6130000008A6
(0000000008.084851) vcan0 012#9999320000000C3E
(0000000008.089851) vcan0 102#0000194F51CD03C9
(0000000008.094851) vcan0 103#0200020000000303
(0000000008.099851) vcan0 122#D32300CA1CBB0598
(0000000008.104851) vcan0 110#0000007B01050A75
(0000000008.109851) vcan0 308#0012000000008200
(0000000008.114851) vcan0 300#00000D8C00660000
(0000000008.119851) vcan0 316#13AD01274E000000
(0000000008.124851) vcan0 320#20000000F0008200
(0000000008.129851) vcan0 342#03C2999993000390
(0000000008.134851) vcan0 516#0000000000000000
(0000000008.139851) vcan0 231#0001000000000504
(0000000008.144851) vcan0 517#0100000000000000
(0000000008.149851) vcan0 102#0000194F51CD04CE
(0000000008.154851) vcan0 010#00FF6130000009A7
(0000000008.159851) vcan0 103#0200020000000404
(0000000008.164851) vcan0 122#D32300CA1CBB069B
(0000000008.169851) vcan0 400#000B56F000010AA6
(0000000008.174851) vcan0 408#0041330AFFFF0A72
(0000000008.179851) vcan0 410#3F00AA3100FF0952
(0000000008.184851) vcan0 411#3260000000000000
(0000000008.189851) vcan0 022#FFFFFFFF00000909
(0000000008.194851) vcan0 231#0001000000000607
(0000000008.199851) vcan0 517#0100000000000000
(0000000008.204851) vcan0 102#0000194F51CD05CF
(0000000008.209851) vcan0 103#0200020000000505
(0000000008.214851) vcan0 122#D32300CA1CBB079A
(0000000008.219851) vcan0 110#0000007B01050B74
(0000000008.224851) vcan0 300#00000D8C00660000
(0000000008.229851) vcan0 308#0012000000008200
(0000000008.234851) vcan0 010#00FF613000000AA4
(0000000008.239851) vcan0 316#13AD01274E000000
(0000000008.244851) vcan0 012#9999320001000D3E
(0000000008.249851) vcan0 320#20000000F0008200
(0000000008.254851) vcan0 342#03C2999993000390
(0000000008.259851) vcan0 516#0000000000000000
(0000000008.264851) vcan0 102#0000194F51CD06CC
(0000000008.269851) vcan0 103#0200020000000606
(0000000008.274851) vcan0 122#D32300CA1CBB0895
(0000000008.279851) vcan0 231#0001000000000706
(0000000008.284851) vcan0 517#0000000000000000
(0000000008.289851) vcan0 010#00FF613000000BA5
(0000000008.294851) vcan0 400#000B56F000010BA7
(0000000008.299851) vcan0 408#0041330AFFFF0B73
(0000000008.304851) vcan0 410#3F00AA3100FF0A51
(0000000008.309851) vcan0 411#3260000000000000
(0000000008.314851) vcan0 022#FFFFFFFF00000A0A
(0000000008.319851) vcan0 102#0000194F51CD07CD
(0000000008.324851) vcan0 103#0200020000000707
(0000000008.329851) vcan0 122#D32300CA1CBB0994
(0000000008.334851) vcan0 110#0000007B01050C73
(0000000008.339851) vcan0 308#0012000000008200
(0000000008.344851) vcan0 231#0001000000000809
(0000000008.349851) vcan0 300#00000D8C00660000
(0000000008.354851) vcan0 316#13AD01274E000000
(0000000008.359851) vcan0 320#20000000F0008200
(0000000008.364851) vcan0 342#03C2999993000390
(0000000008.369851) vcan0 516#0000000000000000
(0000000008.374851) vcan0 517#0000000000000000
(0000000008.379851) vcan0 010#00FF613000000CA2
(0000000008.384851) vcan0 012#9999320000000E3C
(0000000008.389851) vcan0 013#FF01090000000000
(0000000008.394851) vcan0 102#0000194F51CD08C2
(0000000008.399851) vcan0 103#0200020000000808
(0000000008.404851) vcan0 122#D32300CA1CBB0A97
(0000000008.409851) vcan0 332#0100000000000B0A
(0000000008.414851) vcan0 530#FFFF6B2464044900
(0000000008.419851) vcan0 231#0001000000000908
(0000000008.424851) vcan0 517#0100000000000000
(0000000008.429851) vcan0 400#000B56F000010CA0
(0000000008.434851) vcan0 408#0041330AFFFF0C74
(0000000008.439851) vcan0 410#3F00C40000FF0C08
(0000000008.444851) vcan0 010#00FF613000000DA3
(0000000008.449851) vcan0 411#3260000000000000
(0000000008.454851) vcan0 022#FFFFFFFF00000C0C
(0000000008.459851) vcan0 102#0000194F51CD09C3
(0000000008.464851) vcan0 103#0200020000000909
(0000000008.469851) vcan0 122#D32300CA1CBB0B96
(0000000008.474851) vcan0 110#0000007B01050D72
(0000000008.479851) vcan0 300#00000D8C00660000
(0000000008.484851) vcan0 308#0012000000008200
(0000000008.489851) vcan0 316#13AD01274E000000
(0000000008.494851) vcan0 320#20000000F0008200
(0000000008.499851) vcan0 342#03C2999993000390
(0000000008.504851) vcan0 516#0000000000000000
(0000000008.509851) vcan0 231#0001000000000A0B
(0000000008.514851) vcan0 517#0100000000000000
(0000000008.519851) vcan0 010#00FF613000000EA0
(0000000008.524851) vcan0 012#9999320001000F3C
(0000000008.529851) vcan0 102#0000194F51CD0AC0
(0000000008.534851) vcan0 103#0200020000000A0A
(0000000008.539851) vcan0 122#D32300CA1CBB0C91
(0000000008.544851) vcan0 231#0001000000000C0D
(0000000008.549851) vcan0 400#000B56F000010DA1
(0000000008.554851) vcan0 408#0041330AFFFF0D75
(0000000008.559851) vcan0 410#3F00C40000FF0D09
(0000000008.564851) vcan0 411#3260000000000000
(0000000008.569851) vcan0 022#FFFFFFFF00000D0D
(0000000008.574851) vcan0 517#0000000000000000
(0000000008.579851) vcan0 010#00FF613000000FA1
(0000000008.584851) vcan0 102#0000194F51CD0BC1
(0000000008.589851) vcan0 103#0200020000000B0B
(0000000008.594851) vcan0 122#D32300CA1CBB0D90
(0000000008.599851) vcan0 110#0000007B01050E71
(0000000008.604851) vcan0 308#0012000000008200
(0000000008.609851) vcan0 300#00000D8C00660000
(0000000008.614851) vcan0 316#13AD01274E000000
(0000000008.619851) vcan0 320#20000000F0008200
(0000000008.624851) vcan0 342#03C2999993000390
(0000000008.629851) vcan0 516#0000000000000000
(0000000008.634851) vcan0 231#0001000000000C0D
(0000000008.639851) vcan0 517#0000000000000000
(0000000008.644851) vcan0 010#00FF6130000000AE
(0000000008.649851) vcan0 012#9999320000000032
(0000000008.654851) vcan0 102#0000194F51CD0CC6
(0000000008.659851) vcan0 103#0200020000000C0C
(0000000008.664851) vcan0 122#D32300CA1CBB0E93
(0000000008.669851) vcan0 400#000B56F000010EA2
(0000000008.674851) vcan0 408#0041330AFFFF0E76
(0000000008.679851) vcan0 410#3F00C40000FF0E0A
(0000000008.684851) vcan0 411#3260000000000000
(0000000008.689851) vcan0 022#FFFFFFFF00000E0E
(0000000008.694851) vcan0 231#0001000000000E0F
(0000000008.699851) vcan0 517#0100000000000000
(0000000008.704851) vcan0 010#00FF6130000001AF
(0000000008.709851) vcan0 013#FF01090000000000
(0000000008.714851) vcan0 102#0000194F51CD0DC7
(0000000008.719851) vcan0 103#0200020000000D0D
(0000000008.724851) vcan0 122#D32300CA1CBB0F92
(0000000008.729851) vcan0 110#0000007B01050F70
(0000000008.734851) vcan0 300#00000D8C00660000
(0000000008.739851) vcan0 308#0012000000008200
(0000000008.744851) vcan0 316#13AD01274E000000
(0000000008.749851) vcan0 320#20000000F0008200
(0000000008.754851) vcan0 342#03C2999993000390
(0000000008.759851) vcan0 516#0000000000000000
(0000000008.764851) vcan0 231#0001000000000F0E
(0000000008.769851) vcan0 517#0000000000000000
(0000000008.774851) vcan0 010#00FF6130000002AC
(0000000008.779851) vcan0 012#9999320001000132
(0000000008.784851) vcan0 102#0000194F51CD0EC4
(0000000008.789851) vcan0 103#0200020000000E0E
(0000000008.794851) vcan0 122#D32300CA1CBB009D
(0000000008.799851) vcan0 400#000B56F000010FA3
(0000000008.804851) vcan0 408#0041330AFFFF0F77
(0000000008.809851) vcan0 410#3F00C40000FF0F0B
(0000000008.814851) vcan0 411#3260000000000000
(0000000008.819851) vcan0 022#FFFFFFFF00000F0F
(0000000008.824851) vcan0 231#0001000000000001
(0000000008.829851) vcan0 517#0000000000000000
(0000000008.834851) vcan0 102#0000194F51CD0FC5
(0000000008.839851) vcan0 010#00FF6130000003AD
(0000000008.844851) vcan0 103#0200020000000F0F
(0000000008.849851) vcan0 122#D32300CA1CBB019C
(0000000008.854851) vcan0 110#0000007B0105007F
(0000000008.859851) vcan0 300#00000D8C00660000
(0000000008.864851) vcan0 308#0012000000008200
(0000000008.869851) vcan0 316#13AD01274E000000
(0000000008.874851) vcan0 320#20000000F0008200
(0000000008.879851) vcan0 342#03C2999993000390
(0000000008.884851) vcan0 516#0000000000000000
(0000000008.889851) vcan0 231#0001000000000100
(0000000008.894851) vcan0 517#0100000000000000
(0000000008.899851) vcan0 102#0000194F51CD00CA
(0000000008.904851) vcan0 103#0200020000000000
(0000000008.909851) vcan0 122#D32300CA1CBB029F
(0000000008.914851) vcan0 010#00FF6130000004AA
(0000000008.919851) vcan0 012#9999320000000230
(0000000008.924851) vcan0 400#000B56F0000100AC
(0000000008.929851) vcan0 408#0041330AFFFF0078
(0000000008.934851) vcan0 410#3F00AA3000FF005A
(0000000008.939851) vcan0 411#3260000000000000
(0000000008.944851) vcan0 022#FFFFFFFF00000000
(0000000008.949851) vcan0 102#0000194F51CD01CB
(0000000008.954851) vcan0 103#0200020000000101
(0000000008.959851) vcan0 122#D32300CA1CBB039E
(0000000008.964851) vcan0 110#0000007B0105017E
(0000000008.969851) vcan0 231#0001000000000203
(0000000008.974851) vcan0 300#00000D8C00660000
(0000000008.979851) vcan0 308#0012000000008200
(0000000008.984851) vcan0 316#13AD01274E000000
(0000000008.989851) vcan0 320#20000000F0008200
(0000000008.994851) vcan0 010#00FF6130000005AB
(0000000008.999851) vcan0 342#03C2999993000390
(0000000009.004851) vcan0 516#0000000000000000
(0000000009.009851) vcan0 517#0100000000000000
(0000000009.014851) vcan0 102#0000194F51CD02C8
(0000000009.019851) vcan0 103#0200020000000202
(0000000009.024851) vcan0 122#D32300CA1CBB0499
(0000000009.029851) vcan0 231#0001000000000302
(0000000009.034851) vcan0 332#0100000000000C0D
(0000000009.039851) vcan0 517#0000000000000000
(0000000009.044851) vcan0 530#FFFF6B2464044900
(0000000009.049851) vcan0 010#00FF6130000006A8
(0000000009.054851) vcan0 012#9999320001000330
(0000000009.059851) vcan0 013#FF01090000000000
(0000000009.064851) vcan0 400#000B56F0000101AD
(0000000009.069851) vcan0 408#0041330AFFFF0179
(0000000009.074851) vcan0 410#3F00AA3000FF015B
(0000000009.079851) vcan0 411#3260000000000000
(0000000009.084851) vcan0 022#FFFFFFFF00000101
(0000000009.089851) vcan0 102#0000194F51CD03C9
(0000000009.094851) vcan0 103#0200020000000303
(0000000009.099851) vcan0 122#D32300CA1CBB0598
(0000000009.104851) vcan0 110#0000007B0105027D
(0000000009.109851) vcan0 308#0012000000008200
(0000000009.114851) vcan0 300#00000D8C00660000
(0000000009.119851) vcan0 316#13AD01274E000000
(0000000009.124851) vcan0 320#20000000F0008200
(0000000009.129851) vcan0 342#03C2999993000390
(0000000009.134851) vcan0 231#0001000000000405
(0000000009.139851) vcan0 516#0000000000000000
(0000000009.144851) vcan0 517#0000000000000000
(0000000009.149851) vcan0 010#00FF6130000007A9
(0000000009.154851) vcan0 102#0000194F51CD04CE
(0000000009.159851) vcan0 103#0200020000000404
(0000000009.164851) vcan0 122#D32300CA1CBB069B
(0000000009.169851) vcan0 231#0001000000000607
(0000000009.174851) vcan0 517#0100000000000000
(0000000009.179851) vcan0 010#00FF6130000008A6
(0000000009.184851) vcan0 012#9999320000000436
(0000000009.189851) vcan0 400#000B56F0000102AE
(0000000009.194851) vcan0 408#0041330AFFFF027A
(0000000009.199851) vcan0 410#3F00AA3000FF0258
(0000000009.204851) vcan0 102#0000194F51CD05CF
(0000000009.209851) vcan0 103#0200020000000505
(0000000009.214851) vcan0 122#D32300CA1CBB079A
(0000000009.219851) vcan0 110#0000007B0105037C
(0000000009.224851) vcan0 300#00000D8C00660000
(0000000009.229851) vcan0 308#0012000000008200
(0000000009.234851) vcan0 316#13AD01274E000000
(0000000009.239851) vcan0 320#20000000F0008200
(0000000009.244851) vcan0 342#03C2999993000390
(0000000009.249851) vcan0 411#3260000000000000
(0000000009.254851) vcan0 516#0000000000000000
(0000000009.259851) vcan0 022#FFFFFFFF00000202
(0000000009.264851) vcan0 231#0001000000000607
(0000000009.269851) vcan0 517#0100000000000000
(0000000009.274851) vcan0 010#00FF6130000009A7
(0000000009.279851) vcan0 102#0000194F51CD06CC
(0000000009.284851) vcan0 103#0200020000000606
(0000000009.289851) vcan0 122#D32300CA1CBB0895
(0000000009.294851) vcan0 231#0001000000000809
(0000000009.299851) vcan0 517#0000000000000000
(0000000009.304851) vcan0 010#00FF613000000AA4
(0000000009.309851) vcan0 012#9999320001000536
(0000000009.314851) vcan0 102#0000194F51CD07CD
(0000000009.319851) vcan0 103#0200020000000707
(0000000009.324851) vcan0 122#D32300CA1CBB0994
(0000000009.329851) vcan0 400#000B56F0000103AF
(0000000009.334851) vcan0 110#0000007B0105047B
(0000000009.339851) vcan0 300#00000D8C00660000
(0000000009.344851) vcan0 308#0012000000008200
(0000000009.349851) vcan0 316#13AD01274E000000
(0000000009.354851) vcan0 320#20000000F0008200
(0000000009.359851) vcan0 342#03C2999993000390
(0000000009.364851) vcan0 408#0041330AFFFF037B
(0000000009.369851) vcan0 516#0000000000000000
(0000000009.374851) vcan0 410#3F00AA3000FF0359
(0000000009.379851) vcan0 411#3260000000000000
(0000000009.384851) vcan0 022#FFFFFFFF00000303
(0000000009.389851) vcan0 231#0001000000000809
(0000000009.394851) vcan0 517#0000000000000000
(0000000009.399851) vcan0 010#00FF613000000BA5
(0000000009.404851) vcan0 013#FF01090000000000
(0000000009.409851) vcan0 102#0000194F51CD08C2
(0000000009.414851) vcan0 103#0200020000000808
(0000000009.419851) vcan0 122#D32300CA1CBB0A97
(0000000009.424851) vcan0 231#0001000000000A0B
(0000000009.429851) vcan0 517#0100000000000000
(0000000009.434851) vcan0 010#00FF613000000CA2
(0000000009.439851) vcan0 012#9999320000000634
(0000000009.444851) vcan0 102#0000194F51CD09C3
(0000000009.449851) vcan0 103#0200020000000909
(0000000009.454851) vcan0 122#D32300CA1CBB0B96
(0000000009.459851) vcan0 110#0000007B0105057A
(0000000009.464851) vcan0 300#00000D8C00660000
(0000000009.469851) vcan0 308#0012000000008200
(0000000009.474851) vcan0 316#13AD01274E000000
(0000000009.479851) vcan0 320#20000000F0008200
(0000000009.484851) vcan0 342#03C2999993000390
(0000000009.489851) vcan0 400#000B56F0000104A8
(0000000009.494851) vcan0 516#0000000000000000
(0000000009.499851) vcan0 408#0041330AFFFF047C
(0000000009.504851) vcan0 410#3F00AA3100FF045F
(0000000009.509851) vcan0 411#3260000000000000
(0000000009.514851) vcan0 022#FFFFFFFF00000404
(0000000009.519851) vcan0 231#0001000000000B0A
(0000000009.524851) vcan0 517#0000000000000000
(0000000009.529851) vcan0 102#0000194F51CD0AC0
(0000000009.534851) vcan0 010#00FF613000000DA3
(0000000009.539851) vcan0 103#0200020000000A0A
(0000000009.544851) vcan0 122#D32300CA1CBB0C91
(0000000009.549851) vcan0 231#0001000000000C0D
(0000000009.554851) vcan0 517#0000000000000000
(0000000009.559851) vcan0 102#0000194F51CD0BC1
(0000000009.564851) vcan0 103#0200020000000B0B
(0000000009.569851) vcan0 122#D32300CA1CBB0D90
(0000000009.574851) vcan0 110#0000007B01050679
(0000000009.579851) vcan0 010#00FF613000000EA0
(0000000009.584851) vcan0 300#00000D8C00660000
(0000000009.589851) vcan0 012#9999320001000734
(0000000009.594851) vcan0 308#0012000000008200
(0000000009.599851) vcan0 316#13AD01274E000000
(0000000009.604851) vcan0 320#20000000F0008200
(0000000009.609851) vcan0 342#03C2999993000390
(0000000009.614851) vcan0 400#000B56F0000105A9
(0000000009.619851) vcan0 516#0000000000000000
(0000000009.624851) vcan0 408#0041330AFFFF057D
(0000000009.629851) vcan0 410#3F00AA3100FF055E
(0000000009.634851) vcan0 411#3260000000000000
(0000000009.639851) vcan0 022#FFFFFFFF00000505
(0000000009.644851) vcan0 102#0000194F51CD0CC6
(0000000009.649851) vcan0 103#0200020000000C0C
(0000000009.654851) vcan0 122#D32300CA1CBB0E93
(0000000009.659851) vcan0 231#0001000000000D0C
(0000000009.664851) vcan0 517#0100000000000000
(0000000009.669851) vcan0 010#00FF613000000FA1
(0000000009.674851) vcan0 332#0100000000000D0C
(0000000009.679851) vcan0 530#FFFF6B2464044900
(0000000009.684851) vcan0 102#0000194F51CD0DC7
(0000000009.689851) vcan0 103#0200020000000D0D
(0000000009.694851) vcan0 122#D32300CA1CBB0F92
(0000000009.699851) vcan0 110#0000007B01050778
(0000000009.704851) vcan0 300#00000D8C00660000
(0000000009.709851) vcan0 308#0012000000008200
(0000000009.714851) vcan0 231#0001000000000E0F
(0000000009.719851) vcan0 316#13AD01274E000000
(0000000009.724851) vcan0 320#20000000F0008200
(0000000009.729851) vcan0 342#03C2999993000390
(0000000009.734851) vcan0 516#0000000000000000
(0000000009.739851) vcan0 517#0100000000000000
(0000000009.744851) vcan0 010#00FF6130000000AE
(0000000009.749851) vcan0 012#999932000000083A
(0000000009.754851) vcan0 400#000B56F0000106AA
(0000000009.759851) vcan0 013#FF01090000000000
(0000000009.764851) vcan0 408#0041330AFFFF067E
(0000000009.769851) vcan0 410#3F00AA3100FF065D
(0000000009.774851) vcan0 411#3260000000000000
(0000000009.779851) vcan0 022#FFFFFFFF00000606
(0000000009.784851) vcan0 102#0000194F51CD0EC4
(0000000009.789851) vcan0 103#0200020000000E0E
(0000000009.794851) vcan0 122#D32300CA1CBB009D
(0000000009.799851) vcan0 231#0001000000000F0E
(0000000009.804851) vcan0 517#0000000000000000
(0000000009.809851) vcan0 010#00FF6130000001AF
(0000000009.814851) vcan0 102#0000194F51CD0FC5
(0000000009.819851) vcan0 103#0200020000000F0F
(0000000009.824851) vcan0 122#D32300CA1CBB019C
(0000000009.829851) vcan0 110#0000007B01050877
(0000000009.834851) vcan0 308#0012000000008200
(0000000009.839851) vcan0 300#00000D8C00660000
(0000000009.844851) vcan0 316#13AD01274E000000
(0000000009.849851) vcan0 320#20000000F0008200
(0000000009.854851) vcan0 342#03C2999993000390
(0000000009.859851) vcan0 516#0000000000000000
(0000000009.864851) vcan0 231#0001000000000001
(0000000009.869851) vcan0 517#0000000000000000
(0000000009.874851) vcan0 400#000B56F0000107AB
(0000000009.879851) vcan0 408#0041330AFFFF077F
(0000000009.884851) vcan0 410#3F00AA3100FF075C
(0000000009.889851) vcan0 010#00FF6130000002AC
(0000000009.894851) vcan0 411#3260000000000000
(0000000009.899851) vcan0 012#999932000100093A
(0000000009.904851) vcan0 022#FFFFFFFF00000707
(0000000009.909851) vcan0 102#0000194F51CD00CA
(0000000009.914851) vcan0 103#0200020000000000
(0000000009.919851) vcan0 122#D32300CA1CBB029F
(0000000009.924851) vcan0 231#0001000000000203
(0000000009.929851) vcan0 517#0100000000000000
(0000000009.934851) vcan0 010#00FF6130000003AD
(0000000009.939851) vcan0 102#0000194F51CD01CB
(0000000009.944851) vcan0 103#0200020000000101
(0000000009.949851) vcan0 122#D32300CA1CBB039E
(0000000009.954851) vcan0 110#0000007B01050976
(0000000009.959851) vcan0 300#00000D8C00660000
(0000000009.964851) vcan0 308#0012000000008200
(0000000009.969851) vcan0 316#13AD01274E000000
(0000000009.974851) vcan0 320#20000000F0008200
(0000000009.979851) vcan0 342#03C2999993000390
(0000000009.984851) vcan0 516#0000000000000000
(0000000009.989851) vcan0 231#0001000000000203
(0000000009.994851) vcan0 400#000B56F0000108A4
(0000000009.999851) vcan0 408#0041330AFFFF0870
(0000000010.004851) vcan0 410#3F00C40000FF080C
(0000000010.009851) vcan0 411#3260000000000000
(0000000010.014851) vcan0 022#FFFFFFFF00000808
(0000000010.019851) vcan0 010#00FF6130000004AA
(0000000010.024851) vcan0 517#0100000000000000
(0000000010.029851) vcan0 012#9999320000000A38
(0000000010.034851) vcan0 102#0000194F51CD02C8
(0000000010.039851) vcan0 103#0200020000000202
(0000000010.044851) vcan0 122#D32300CA1CBB0499
(0000000010.049851) vcan0 231#0001000000000405
(0000000010.054851) vcan0 517#0000000000000000
(0000000010.059851) vcan0 010#00FF6130000005AB
(0000000010.064851) vcan0 013#FF01090000000000
(0000000010.069851) vcan0 102#0000194F51CD03C9
(0000000010.074851) vcan0 103#0200020000000303
(0000000010.079851) vcan0 122#D32300CA1CBB0598
(0000000010.084851) vcan0 110#0000007B01050A75
(0000000010.089851) vcan0 308#0012000000008200
(0000000010.094851) vcan0 300#00000D8C00660000
(0000000010.099851) vcan0 316#13AD01274E000000
(0000000010.104851) vcan0 320#20000000F0008200
(0000000010.109851) vcan0 342#03C2999993000390
(0000000010.114851) vcan0 516#0000000000000000
(0000000010.119851) vcan0 400#000B56F000010AA6
(0000000010.124851) vcan0 408#0041330AFFFF0A72
(0000000010.129851) vcan0 410#3F00C40000FF090D
(0000000010.134851) vcan0 411#3260000000000000
(0000000010.139851) vcan0 022#FFFFFFFF00000909
(0000000010.144851) vcan0 231#0001000000000504
(0000000010.149851) vcan0 517#0100000000000000
(0000000010.154851) vcan0 010#00FF6130000006A8
(0000000010.159851) vcan0 012#9999320001000B38
(0000000010.164851) vcan0 102#0000194F51CD04CE
(0000000010.169851) vcan0 103#0200020000000404
(0000000010.174851) vcan0 122#D32300CA1CBB069B
(0000000010.179851) vcan0 231#0001000000000607
(0000000010.184851) vcan0 517#0100000000000000
(0000000010.189851) vcan0 010#00FF6130000007A9
(0000000010.194851) vcan0 102#0000194F51CD05CF
(0000000010.199851) vcan0 103#0200020000000505
(0000000010.204851) vcan0 122#D32300CA1CBB079A
(0000000010.209851) vcan0 110#0000007B01050B74
(0000000010.214851) vcan0 300#00000D8C00660000
(0000000010.219851) vcan0 308#0012000000008200
(0000000010.224851) vcan0 316#13AD01274E000000
(0000000010.229851) vcan0 320#20000000F0008200
(0000000010.234851) vcan0 342#03C2999993000390
(0000000010.239851) vcan0 516#0000000000000000
(0000000010.244851) vcan0 400#000B56F000010AA6
(0000000010.249851) vcan0 408#0041330AFFFF0A72
(0000000010.254851) vcan0 410#3F00C40000FF0A0E
(0000000010.259851) vcan0 411#3260000000000000
(0000000010.264851) vcan0 022#FFFFFFFF00000A0A
(0000000010.269851) vcan0 231#0001000000000706
(0000000010.274851) vcan0 517#0000000000000000
(0000000010.279851) vcan0 102#0000194F51CD06CC
(0000000010.284851) vcan0 103#0200020000000606
(0000000010.289851) vcan0 122#D32300CA1CBB0895
(0000000010.294851) vcan0 010#00FF6130000008A6
(0000000010.299851) vcan0 012#9999320000000C3E
(0000000010.304851) vcan0 332#0100000000000E0F
(0000000010.309851) vcan0 530#FFFF6B2464044900
(0000000010.314851) vcan0 102#0000194F51CD07CD
(0000000010.319851) vcan0 103#0200020000000707
(0000000010.324851) vcan0 122#D32300CA1CBB0994
(0000000010.329851) vcan0 231#0001000000000809
(0000000010.334851) vcan0 110#0000007B01050C73
(0000000010.339851) vcan0 300#00000D8C00660000
(0000000010.344851) vcan0 308#0012000000008200
(0000000010.349851) vcan0 316#13AD01274E000000
(0000000010.354851) vcan0 010#00FF6130000009A7
(0000000010.359851) vcan0 320#20000000F0008200
(0000000010.364851) vcan0 342#03C2999993000390
(0000000010.369851) vcan0 516#0000000000000000
(0000000010.374851) vcan0 517#0000000000000000
(0000000010.379851) vcan0 400#000B56F000010CA0
(0000000010.384851) vcan0 408#0041330AFFFF0C74
(0000000010.389851) vcan0 410#3F00C40000FF0B0F
(0000000010.394851) vcan0 411#3260000000000000
(0000000010.399851) vcan0 022#FFFFFFFF00000B0B
(0000000010.404851) vcan0 102#0000194F51CD08C2
(0000000010.409851) vcan0 103#0200020000000808
(0000000010.414851) vcan0 122#D32300CA1CBB0A97
(0000000010.419851) vcan0 231#0001000000000908
(0000000010.424851) vcan0 517#0100000000000000
(0000000010.429851) vcan0 010#00FF613000000AA4
(0000000010.434851) vcan0 012#9999320001000D3E
(0000000010.439851) vcan0 013#FF01090000000000
(0000000010.444851) vcan0 102#0000194F51CD09C3
(0000000010.449851) vcan0 103#0200020000000909
(0000000010.454851) vcan0 122#D32300CA1CBB0B96
(0000000010.459851) vcan0 110#0000007B01050D72
(0000000010.464851) vcan0 300#00000D8C00660000
(0000000010.469851) vcan0 308#0012000000008200
(0000000010.474851) vcan0 316#13AD01274E000000
(0000000010.479851) vcan0 320#20000000F0008200
(0000000010.484851) vcan0 342#03C2999993000390
(0000000010.489851) vcan0 516#0000000000000000
(0000000010.494851) vcan0 231#0001000000000A0B
(0000000010.499851) vcan0 517#0100000000000000
(0000000010.504851) vcan0 010#00FF613000000BA5
(0000000010.509851) vcan0 400#000B56F000010DA1
(0000000010.514851) vcan0 408#0041330AFFFF0D75
(0000000010.519851) vcan0 410#3F00AA3000FF0C56
(0000000010.524851) vcan0 102#0000194F51CD0AC0
(0000000010.529851) vcan0 103#0200020000000A0A
(0000000010.534851) vcan0 122#D32300CA1CBB0C91
(0000000010.539851) vcan0 411#3260000000000000
(0000000010.544851) vcan0 022#FFFFFFFF00000C0C
(0000000010.549851) vcan0 231#0001000000000C0D
(0000000010.554851) vcan0 517#0000000000000000
(0000000010.559851) vcan0 010#00FF613000000CA2
(0000000010.564851) vcan0 012#9999320000000E3C
(0000000010.569851) vcan0 102#0000194F51CD0BC1
(0000000010.574851) vcan0 103#0200020000000B0B
(0000000010.579851) vcan0 122#D32300CA1CBB0D90
(0000000010.584851) vcan0 110#0000007B01050E71
(0000000010.589851) vcan0 308#0012000000008200
(0000000010.594851) vcan0 300#00000D8C00660000
(0000000010.599851) vcan0 316#13AD01274E000000
(0000000010.604851) vcan0 320#20000000F0008200
(0000000010.609851) vcan0 342#03C2999993000390
(0000000010.614851) vcan0 516#0000000000000000
(0000000010.619851) vcan0 231#0001000000000C0D
(0000000010.624851) vcan0 517#0000000000000000
(0000000010.629851) vcan0 010#00FF613000000DA3
(0000000010.634851) vcan0 102#0000194F51CD0CC6
(0000000010.639851) vcan0 103#0200020000000C0C
(0000000010.644851) vcan0 122#D32300CA1CBB0E93
(0000000010.649851) vcan0 400#000B56F000010EA2
(0000000010.654851) vcan0 408#0041330AFFFF0E76
(0000000010.659851) vcan0 410#3F00AA3000FF0D57
(0000000010.664851) vcan0 411#3260000000000000
(0000000010.669851) vcan0 022#FFFFFFFF00000D0D
(0000000010.674851) vcan0 231#0001000000000E0F
(0000000010.679851) vcan0 517#0100000000000000
