(0000001453.387832) vcan0 231#0001000000000504
(0000001453.388046) vcan0 010#00FF613000000EA0
(0000001453.388290) vcan0 517#0100000000000000
(0000001453.388534) vcan0 012#9999320001000F3C
(0000001453.388767) vcan0 013#FF01090000000000
(0000001453.390121) vcan0 102#0000195456CD03D5
(0000001453.390367) vcan0 103#0200020000000303
(0000001453.390616) vcan0 122#D32300CA1CE205C1
(0000001453.391091) vcan0 110#0000007B01050A75
(0000001453.391365) vcan0 308#0012000000008200
(0000001453.391566) vcan0 300#00000D8C00660000
(0000001453.391802) vcan0 316#13AD012B53000000
(0000001453.392043) vcan0 320#20000000F0008200
(0000001453.392295) vcan0 342#03C299997C000390
(0000001453.392540) vcan0 516#0000000000000000
(0000001453.393846) vcan0 400#000B58F0000102A0
(0000001453.394090) vcan0 408#0041330AFFFF027A
(0000001453.394365) vcan0 410#4300000000FF01BD
(0000001453.394665) vcan0 411#3260000000000000
(0000001453.394942) vcan0 022#FFFFFFFF00000101
(0000001453.398807) vcan0 231#0001000000000607
(0000001453.399041) vcan0 010#00FF613000000FA1
(0000001453.399310) vcan0 517#0100000000000000
(0000001453.400141) vcan0 102#0000195456CD04D2
(0000001453.400388) vcan0 103#0200020000000404
(0000001453.400591) vcan0 122#D32300CA1CE206C2
(0000001453.409826) vcan0 231#0001000000000706
(0000001453.410041) vcan0 010#00FF6130000000AE
(0000001453.410271) vcan0 102#0000195456CD05D3
(0000001453.410513) vcan0 012#9999320000000032
(0000001453.410767) vcan0 103#0200020000000505
(0000001453.411016) vcan0 110#0000007B01050B74
(0000001453.411242) vcan0 122#D32300CA1CE207C3
(0000001453.411466) vcan0 300#00000D8C00660000
(0000001453.411713) vcan0 308#0012000000008200
(0000001453.411968) vcan0 316#13AD012B53000000
(0000001453.412219) vcan0 320#20000000F0008200
(0000001453.412440) vcan0 342#03C299997C000390
(0000001453.412689) vcan0 516#0000000000000000
(0000001453.412943) vcan0 517#0000000000000000
(0000001453.414870) vcan0 400#000B58F0000103A1
(0000001453.415157) vcan0 408#0041330AFFFF037B
(0000001453.415420) vcan0 410#4300000000FF03BF
(0000001453.415692) vcan0 411#3260000000000000
(0000001453.415968) vcan0 022#FFFFFFFF00000303
(0000001453.420135) vcan0 102#0000195456CD06D0
(0000001453.420365) vcan0 103#0200020000000606
(0000001453.420614) vcan0 122#D32300CA1CE208CC
(0000001453.420842) vcan0 231#0001000000000809
(0000001453.421094) vcan0 010#00FF6130000001AF
(0000001453.421363) vcan0 517#0000000000000000
(0000001453.430152) vcan0 102#0000195456CD07D1
(0000001453.430367) vcan0 103#0200020000000707
(0000001453.430643) vcan0 122#D32300CA1CE209CD
(0000001453.431094) vcan0 110#0000007B01050C73
(0000001453.431367) vcan0 308#0012000000008200
(0000001453.431566) vcan0 300#00000D8C00660000
(0000001453.431804) vcan0 316#13AD012B53000000
(0000001453.432044) vcan0 010#00FF6130000002AC
(0000001453.432296) vcan0 231#0001000000000908
(0000001453.432541) vcan0 012#9999320001000132
(0000001453.432792) vcan0 320#20000000F0008200
(0000001453.433017) vcan0 332#0100000000000302
(0000001453.433269) vcan0 342#03C299997C000390
(0000001453.433500) vcan0 516#0000000000000000
(0000001453.433742) vcan0 517#0100000000000000
(0000001453.434044) vcan0 530#FFFF704B64044900
(0000001453.435842) vcan0 400#000B58F0000104A6
(0000001453.436091) vcan0 408#0041330AFFFF047C
(0000001453.436367) vcan0 410#4300000000FF04B8
(0000001453.436642) vcan0 411#3260000000000000
(0000001453.436918) vcan0 022#FFFFFFFF00000404
(0000001453.440163) vcan0 102#0000195456CD08DE
(0000001453.440368) vcan0 103#0200020000000808
(0000001453.440592) vcan0 122#D32300CA1CE20ACE
(0000001453.442811) vcan0 231#0001000000000A0B
(0000001453.443043) vcan0 010#00FF6130000003AD
(0000001453.443291) vcan0 517#0100000000000000
(0000001453.443541) vcan0 013#FF01090000000000
(0000001453.450163) vcan0 102#0000195456CD09DF
(0000001453.450367) vcan0 103#0200020000000909
(0000001453.450592) vcan0 122#D32300CA1CE20BCF
(0000001453.450844) vcan0 110#0000007B01050D72
(0000001453.451097) vcan0 300#00000D8C00660000
(0000001453.451366) vcan0 308#0012000000008200
(0000001453.451566) vcan0 316#13AD012B53000000
(0000001453.451846) vcan0 320#20000000F0008200
(0000001453.452045) vcan0 342#03C299997C000390
(0000001453.452295) vcan0 516#0000000000000000
(0000001453.453834) vcan0 231#0001000000000B0A
(0000001453.454042) vcan0 010#00FF6130000004AA
(0000001453.454291) vcan0 517#0000000000000000
(0000001453.454527) vcan0 012#9999320000000230
(0000001453.456866) vcan0 400#000B58F0000105A7
(0000001453.457091) vcan0 408#0041330AFFFF057D
(0000001453.457364) vcan0 410#4300000000FF05B9
(0000001453.457642) vcan0 411#3260000000000000
(0000001453.457919) vcan0 022#FFFFFFFF00000505
(0000001453.460131) vcan0 102#0000195456CD0ADC
(0000001453.460366) vcan0 103#0200020000000A0A
(0000001453.460593) vcan0 122#D32300CA1CE20CC8
(0000001453.464809) vcan0 231#0001000000000C0D
(0000001453.465042) vcan0 010#00FF6130000005AB
(0000001453.465292) vcan0 517#0000000000000000
(0000001453.470158) vcan0 102#0000195456CD0BDD
(0000001453.470368) vcan0 103#0200020000000B0B
(0000001453.470612) vcan0 122#D32300CA1CE20DC9
(0000001453.471068) vcan0 110#0000007B01050E71
(0000001453.471368) vcan0 308#0012000000008200
(0000001453.471565) vcan0 300#00000D8C00660000
(0000001453.471818) vcan0 316#13AD012B53000000
(0000001453.472044) vcan0 320#20000000F0008200
(0000001453.472295) vcan0 342#03C299997C000390
(0000001453.472525) vcan0 516#0000000000000000
(0000001453.475821) vcan0 231#0001000000000E0F
(0000001453.476043) vcan0 010#00FF6130000006A8
(0000001453.476291) vcan0 517#0100000000000000
(0000001453.476543) vcan0 012#9999320001000330
(0000001453.477821) vcan0 400#000B58F0000106A4
(0000001453.478095) vcan0 408#0041330AFFFF067E
(0000001453.478367) vcan0 410#4300000000FF06BA
(0000001453.478643) vcan0 411#3260000000000000
(0000001453.478919) vcan0 022#FFFFFFFF00000606
(0000001453.480127) vcan0 102#0000195456CD0CDA
(0000001453.480367) vcan0 103#0200020000000C0C
(0000001453.480592) vcan0 122#D32300CA1CE20ECA
(0000001453.486816) vcan0 231#0001000000000F0E
(0000001453.487045) vcan0 010#00FF6130000007A9
(0000001453.487293) vcan0 517#0000000000000000
(0000001453.490146) vcan0 102#0000195456CD0DDB
(0000001453.490368) vcan0 103#0200020000000D0D
(0000001453.490593) vcan0 122#D32300CA1CE20FCB
(0000001453.490857) vcan0 110#0000007B01050F70
(0000001453.491096) vcan0 300#00000D8C00660000
(0000001453.491367) vcan0 308#0012000000008200
(0000001453.491565) vcan0 316#13AD012B53000000
(0000001453.491819) vcan0 320#20000000F0008200
(0000001453.492045) vcan0 342#03C299997C000390
(0000001453.492296) vcan0 516#0000000000000000
(0000001453.497836) vcan0 231#0001000000000001
(0000001453.498043) vcan0 010#00FF6130000008A6
(0000001453.498293) vcan0 517#0000000000000000
(0000001453.498541) vcan0 012#9999320000000436
(0000001453.498767) vcan0 013#FF01090000000000
(0000001453.499018) vcan0 400#000B58F0000107A5
(0000001453.499295) vcan0 408#0041330AFFFF077F
(0000001453.499568) vcan0 410#4300000000FF07BB
(0000001453.499843) vcan0 411#3260000000000000
(0000001453.500095) vcan0 022#FFFFFFFF00000707
(0000001453.500368) vcan0 102#0000195456CD0ED8
(0000001453.500593) vcan0 103#0200020000000E0E
(0000001453.500821) vcan0 122#D32300CA1CE200C4
(0000001453.508823) vcan0 231#0001000000000100
(0000001453.509045) vcan0 010#00FF6130000009A7
(0000001453.509294) vcan0 517#0100000000000000
(0000001453.510122) vcan0 102#0000195456CD0FD9
(0000001453.510368) vcan0 103#0200020000000F0F
(0000001453.510592) vcan0 122#D32300CA1CE201C5
(0000001453.511069) vcan0 110#0000007B0105007F
(0000001453.511366) vcan0 308#0012000000008200
(0000001453.511566) vcan0 300#00000D8C00660000
(0000001453.511823) vcan0 316#13AD012B53000000
(0000001453.512045) vcan0 320#20000000F0008200
(0000001453.512296) vcan0 342#03C299997C000390
(0000001453.512516) vcan0 516#0000000000000000
(0000001453.519891) vcan0 231#0001000000000203
(0000001453.520120) vcan0 010#00FF613000000AA4
(0000001453.520365) vcan0 102#0000195456CD00D6
(0000001453.520568) vcan0 012#9999320001000536
(0000001453.520820) vcan0 103#0200020000000000
(0000001453.521077) vcan0 122#D32300CA1CE202C6
(0000001453.521295) vcan0 400#000B58F0000108AA
(0000001453.521567) vcan0 408#0041330AFFFF0870
(0000001453.521816) vcan0 410#4300000000FF08B4
(0000001453.522100) vcan0 411#3260000000000000
(0000001453.522393) vcan0 022#FFFFFFFF00000808
(0000001453.522646) vcan0 517#0100000000000000
(0000001453.530134) vcan0 102#0000195456CD01D7
(0000001453.530369) vcan0 103#0200020000000101
(0000001453.530604) vcan0 122#D32300CA1CE203C7
(0000001453.530843) vcan0 110#0000007B0105017E
(0000001453.531096) vcan0 010#00FF613000000BA5
(0000001453.531366) vcan0 231#0001000000000302
(0000001453.531568) vcan0 300#00000D8C00660000
(0000001453.531817) vcan0 308#0012000000008200
(0000001453.532045) vcan0 316#13AD012B53000000
(0000001453.532298) vcan0 320#20000000F0008200
(0000001453.532543) vcan0 342#03C299997C000390
(0000001453.532795) vcan0 516#0000000000000000
(0000001453.533020) vcan0 517#0000000000000000
(0000001453.533367) vcan0 332#0100000000000405
(0000001453.533596) vcan0 530#FFFF704B64044900
(0000001453.540182) vcan0 102#0000195456CD02D4
(0000001453.540367) vcan0 103#0200020000000202
(0000001453.540593) vcan0 122#D32300CA1CE204C0
(0000001453.540845) vcan0 400#000B58F0000109AB
(0000001453.541121) vcan0 408#0041330AFFFF0971
(0000001453.541373) vcan0 410#4300000000FF09B5
(0000001453.541644) vcan0 411#3260000000000000
(0000001453.541893) vcan0 010#00FF613000000CA2
(0000001453.542145) vcan0 022#FFFFFFFF00000909
(0000001453.542365) vcan0 012#9999320000000634
(0000001453.542653) vcan0 231#0001000000000405
(0000001453.542927) vcan0 517#0000000000000000
(0000001453.550134) vcan0 102#0000195456CD03D5
(0000001453.550369) vcan0 103#0200020000000303
(0000001453.550597) vcan0 122#D32300CA1CE205C1
(0000001453.551075) vcan0 110#0000007B0105027D
(0000001453.551368) vcan0 308#0012000000008200
(0000001453.551570) vcan0 300#00000D8C00660000
(0000001453.551805) vcan0 316#13AD012B53000000
(0000001453.552047) vcan0 320#20000000F0008200
(0000001453.552271) vcan0 342#03C299997C000390
(0000001453.552517) vcan0 516#0000000000000000
(0000001453.552795) vcan0 231#0001000000000504
(0000001453.553045) vcan0 010#00FF613000000DA3
(0000001453.553295) vcan0 517#0100000000000000
(0000001453.553543) vcan0 013#FF01090000000000
(0000001453.560135) vcan0 102#0000195456CD04D2
(0000001453.560370) vcan0 103#0200020000000404
(0000001453.560593) vcan0 122#D32300CA1CE206C2
(0000001453.561818) vcan0 400#000B58F000010AA8
(0000001453.562095) vcan0 408#0041330AFFFF0A72
(0000001453.562369) vcan0 410#4300000000FF0AB6
(0000001453.562645) vcan0 411#3260000000000000
(0000001453.562919) vcan0 022#FFFFFFFF00000A0A
(0000001453.563808) vcan0 231#0001000000000607
(0000001453.564044) vcan0 010#00FF613000000EA0
(0000001453.564311) vcan0 517#0100000000000000
(0000001453.564516) vcan0 012#9999320001000734
(0000001453.570142) vcan0 102#0000195456CD05D3
(0000001453.570369) vcan0 103#0200020000000505
(0000001453.570619) vcan0 122#D32300CA1CE207C3
(0000001453.570846) vcan0 110#0000007B0105037C
(0000001453.571096) vcan0 300#00000D8C00660000
(0000001453.571366) vcan0 308#0012000000008200
(0000001453.571569) vcan0 316#13AD012B53000000
(0000001453.571818) vcan0 320#20000000F0008200
(0000001453.572044) vcan0 342#03C299997C000390
(0000001453.572298) vcan0 516#0000000000000000
(0000001453.574810) vcan0 010#00FF613000000FA1
(0000001453.575045) vcan0 231#0001000000000809
(0000001453.575367) vcan0 517#0000000000000000
(0000001453.580136) vcan0 102#0000195456CD06D0
(0000001453.580369) vcan0 103#0200020000000606
(0000001453.580595) vcan0 122#D32300CA1CE208CC
(0000001453.582855) vcan0 400#000B58F000010BA9
(0000001453.583096) vcan0 408#0041330AFFFF0B73
(0000001453.583394) vcan0 410#4300000000FF0BB7
(0000001453.583671) vcan0 411#3260000000000000
(0000001453.583946) vcan0 022#FFFFFFFF00000B0B
(0000001453.585824) vcan0 231#0001000000000809
(0000001453.586044) vcan0 010#00FF6130000000AE
(0000001453.586295) vcan0 517#0000000000000000
(0000001453.586517) vcan0 012#999932000000083A
(0000001453.590136) vcan0 102#0000195456CD07D1
(0000001453.590368) vcan0 103#0200020000000707
(0000001453.590598) vcan0 122#D32300CA1CE209CD
(0000001453.591071) vcan0 110#0000007B0105047B
(0000001453.591369) vcan0 308#0012000000008200
(0000001453.591570) vcan0 300#00000D8C00660000
(0000001453.591807) vcan0 316#13AD012B53000000
(0000001453.592046) vcan0 320#20000000F0008200
(0000001453.592273) vcan0 342#03C299997C000390
(0000001453.592518) vcan0 516#0000000000000000
(0000001453.596842) vcan0 010#00FF6130000001AF
(0000001453.597073) vcan0 231#0001000000000A0B
(0000001453.597393) vcan0 517#0100000000000000
(0000001453.600134) vcan0 102#0000195456CD08DE
(0000001453.600370) vcan0 103#0200020000000808
(0000001453.600597) vcan0 122#D32300CA1CE20ACE
(0000001453.603879) vcan0 400#000B58F000010CAE
(0000001453.604097) vcan0 408#0041330AFFFF0C74
(0000001453.604369) vcan0 410#4300000000FF0CB0
(0000001453.604647) vcan0 411#3260000000000000
(0000001453.604948) vcan0 022#FFFFFFFF00000C0C
(0000001453.607841) vcan0 231#0001000000000B0A
(0000001453.608046) vcan0 010#00FF6130000002AC
(0000001453.608297) vcan0 517#0000000000000000
(0000001453.608544) vcan0 012#999932000100093A
(0000001453.608772) vcan0 013#FF01090000000000
(0000001453.610142) vcan0 102#0000195456CD09DF
(0000001453.610370) vcan0 103#0200020000000909
(0000001453.610596) vcan0 122#D32300CA1CE20BCF
(0000001453.610841) vcan0 110#0000007B0105057A
(0000001453.611072) vcan0 300#00000D8C00660000
(0000001453.611370) vcan0 308#0012000000008200
(0000001453.611571) vcan0 316#13AD012B53000000
(0000001453.611806) vcan0 320#20000000F0008200
(0000001453.612048) vcan0 342#03C299997C000390
(0000001453.612299) vcan0 516#0000000000000000
(0000001453.618811) vcan0 010#00FF6130000003AD
(0000001453.619022) vcan0 231#0001000000000C0D
(0000001453.619269) vcan0 517#0000000000000000
(0000001453.620127) vcan0 102#0000195456CD0ADC
(0000001453.620369) vcan0 103#0200020000000A0A
(0000001453.620607) vcan0 122#D32300CA1CE20CC8
(0000001453.624860) vcan0 400#000B58F000010DAF
(0000001453.625097) vcan0 408#0041330AFFFF0D75
(0000001453.625370) vcan0 410#4300000000FF0DB1
(0000001453.625646) vcan0 411#3260000000000000
(0000001453.625922) vcan0 022#FFFFFFFF00000D0D
(0000001453.629806) vcan0 010#00FF6130000004AA
(0000001453.630022) vcan0 231#0001000000000D0C
(0000001453.630269) vcan0 012#9999320000000A38
(0000001453.630494) vcan0 102#0000195456CD0BDD
(0000001453.630743) vcan0 103#0200020000000B0B
(0000001453.630972) vcan0 122#D32300CA1CE20DC9
(0000001453.631198) vcan0 110#0000007B01050679
(0000001453.631444) vcan0 300#00000D8C00660000
(0000001453.631695) vcan0 308#0012000000008200
(0000001453.631947) vcan0 316#13AD012B53000000
(0000001453.632171) vcan0 320#20000000F0008200
(0000001453.632419) vcan0 342#03C299997C000390
(0000001453.632645) vcan0 516#0000000000000000
(0000001453.632928) vcan0 517#0100000000000000
(0000001453.633872) vcan0 332#0100000000000504
(0000001453.634073) vcan0 530#FFFF704B64044900
(0000001453.640139) vcan0 102#0000195456CD0CDA
(0000001453.640371) vcan0 103#0200020000000C0C
(0000001453.640595) vcan0 122#D32300CA1CE20ECA
(0000001453.640822) vcan0 010#00FF6130000005AB
(0000001453.641081) vcan0 231#0001000000000E0F
(0000001453.641370) vcan0 517#0100000000000000
(0000001453.645853) vcan0 400#000B58F000010EAC
(0000001453.646098) vcan0 408#0041330AFFFF0E76
(0000001453.646370) vcan0 410#4300000000FF0EB2
(0000001453.646646) vcan0 411#3260000000000000
(0000001453.646923) vcan0 022#FFFFFFFF00000E0E
(0000001453.650146) vcan0 102#0000195456CD0DDB
(0000001453.650371) vcan0 103#0200020000000D0D
(0000001453.650569) vcan0 122#D32300CA1CE20FCB
(0000001453.650831) vcan0 110#0000007B01050778
(0000001453.651076) vcan0 300#00000D8C00660000
(0000001453.651369) vcan0 308#0012000000008200
(0000001453.651570) vcan0 316#13AD012B53000000
(0000001453.651807) vcan0 010#00FF6130000006A8
(0000001453.652050) vcan0 231#0001000000000F0E
(0000001453.652272) vcan0 012#9999320001000B38
(0000001453.652526) vcan0 320#20000000F0008200
(0000001453.652745) vcan0 342#03C299997C000390
(0000001453.652996) vcan0 516#0000000000000000
(0000001453.653249) vcan0 517#0000000000000000
(0000001453.660137) vcan0 102#0000195456CD0ED8
(0000001453.660371) vcan0 103#0200020000000E0E
(0000001453.660569) vcan0 122#D32300CA1CE200C4
(0000001453.662766) vcan0 010#00FF6130000007A9
(0000001453.662971) vcan0 231#0001000000000001
(0000001453.663222) vcan0 013#FF01090000000000
(0000001453.663470) vcan0 517#0000000000000000
(0000001453.666887) vcan0 400#000B58F0000100A2
(0000001453.667122) vcan0 408#0041330AFFFF0F77
(0000001453.667397) vcan0 410#4300000000FF0FB3
(0000001453.667671) vcan0 411#3260000000000000
(0000001453.667947) vcan0 022#FFFFFFFF00000F0F
(0000001453.670140) vcan0 102#0000195456CD0FD9
(0000001453.670371) vcan0 103#0200020000000F0F
(0000001453.670571) vcan0 122#D32300CA1CE201C5
(0000001453.671048) vcan0 110#0000007B01050877
(0000001453.671299) vcan0 308#0012000000008200
(0000001453.671546) vcan0 300#00000D8C00660000
(0000001453.671807) vcan0 316#13AD012B53000000
(0000001453.672023) vcan0 320#20000000F0008200
(0000001453.672246) vcan0 342#03C299997C000390
(0000001453.672519) vcan0 516#0000000000000000
(0000001453.673773) vcan0 010#00FF6130000008A6
(0000001453.673998) vcan0 231#0001000000000100
(0000001453.674228) vcan0 012#9999320000000C3E
(0000001453.674469) vcan0 517#0100000000000000
(0000001453.680139) vcan0 102#0000195456CD00D6
(0000001453.680372) vcan0 103#0200020000000000
(0000001453.680596) vcan0 122#D32300CA1CE202C6
(0000001453.684714) vcan0 010#00FF6130000009A7
(0000001453.684948) vcan0 231#0001000000000203
(0000001453.685222) vcan0 517#0100000000000000
(0000001453.687864) vcan0 400#000B58F0000101A3
(0000001453.688096) vcan0 408#0041330AFFFF0179
(0000001453.688371) vcan0 410#4300000000FF00BC
(0000001453.688647) vcan0 411#3260000000000000
(0000001453.688924) vcan0 022#FFFFFFFF00000000
(0000001453.690150) vcan0 102#0000195456CD01D7
(0000001453.690371) vcan0 103#0200020000000101
(0000001453.690571) vcan0 122#D32300CA1CE203C7
(0000001453.690823) vcan0 110#0000007B01050976
(0000001453.691074) vcan0 300#00000D8C00660000
(0000001453.691300) vcan0 308#0012000000008200
(0000001453.691543) vcan0 316#13AD012B53000000
(0000001453.691809) vcan0 320#20000000F0008200
(0000001453.692021) vcan0 342#03C299997C000390
(0000001453.692271) vcan0 516#0000000000000000
(0000001453.695773) vcan0 010#00FF613000000AA4
(0000001453.695997) vcan0 231#0001000000000405
(0000001453.696223) vcan0 012#9999320001000D3E
(0000001453.696471) vcan0 517#0000000000000000
(0000001453.700145) vcan0 102#0000195456CD02D4
(0000001453.700372) vcan0 103#0200020000000202
(0000001453.700597) vcan0 122#D32300CA1CE204C0
(0000001453.706706) vcan0 010#00FF613000000BA5
(0000001453.706923) vcan0 231#0001000000000504
(0000001453.707221) vcan0 517#0100000000000000
(0000001453.708878) vcan0 400#000B58F0000102A0
(0000001453.709124) vcan0 408#0041330AFFFF027A
(0000001453.709372) vcan0 410#4300000000FF01BD
(0000001453.709646) vcan0 411#3260000000000000
(0000001453.709948) vcan0 022#FFFFFFFF00000101
(0000001453.710174) vcan0 102#0000195456CD03D5
(0000001453.710420) vcan0 103#0200020000000303
(0000001453.710644) vcan0 122#D32300CA1CE205C1
(0000001453.711048) vcan0 110#0000007B01050A75
(0000001453.711297) vcan0 308#0012000000008200
(0000001453.711544) vcan0 300#00000D8C00660000
(0000001453.711806) vcan0 316#13AD012B53000000
(0000001453.712021) vcan0 320#20000000F0008200
(0000001453.712274) vcan0 342#03C299997C000390
(0000001453.712495) vcan0 516#0000000000000000
(0000001453.717731) vcan0 010#00FF613000000CA2
(0000001453.717947) vcan0 231#0001000000000607
(0000001453.718171) vcan0 012#9999320000000E3C
(0000001453.718421) vcan0 517#0100000000000000
(0000001453.718670) vcan0 013#FF01090000000000
(0000001453.720143) vcan0 102#0000195456CD04D2
(0000001453.720372) vcan0 103#0200020000000404
(0000001453.720572) vcan0 122#D32300CA1CE206C2
(0000001453.728674) vcan0 010#00FF613000000DA3
(0000001453.728899) vcan0 231#0001000000000706
(0000001453.729174) vcan0 517#0000000000000000
(0000001453.729849) vcan0 400#000B58F0000103A1
(0000001453.730095) vcan0 102#0000195456CD05D3
(0000001453.730371) vcan0 103#0200020000000505
(0000001453.730572) vcan0 122#D32300CA1CE207C3
(0000001453.730824) vcan0 110#0000007B01050B74
(0000001453.731077) vcan0 300#00000D8C00660000
(0000001453.731298) vcan0 308#0012000000008200
(0000001453.731546) vcan0 316#13AD012B53000000
(0000001453.731806) vcan0 320#20000000F0008200
(0000001453.732023) vcan0 342#03C299997C000390
(0000001453.732275) vcan0 408#0041330AFFFF037B
(0000001453.732521) vcan0 516#0000000000000000
(0000001453.732772) vcan0 410#4300000000FF02BE
(0000001453.733073) vcan0 411#3260000000000000
(0000001453.733372) vcan0 022#FFFFFFFF00000202
(0000000000.059714) vcan0 332#0100000000000607
(0000000000.001073) vcan0 530#FFFF704B64044900
(0000000000.005700) vcan0 010#00FF613000000EA0
(0000000000.005924) vcan0 231#0001000000000809
(0000000000.006173) vcan0 012#9999320001000F3C
(0000000000.006404) vcan0 102#0000195456CD06D0
(0000000000.006648) vcan0 103#0200020000000606
(0000000000.006874) vcan0 122#D32300CA1CE208CC
(0000000000.007134) vcan0 517#0000000000000000
(0000000000.016143) vcan0 102#0000195456CD07D1
(0000000000.016372) vcan0 103#0200020000000707
(0000000000.016570) vcan0 122#D32300CA1CE209CD
(0000000000.016823) vcan0 010#00FF613000000FA1
(0000000000.017048) vcan0 110#0000007B01050C73
(0000000000.017300) vcan0 231#0001000000000908
(0000000000.017548) vcan0 300#00000D8C00660000
(0000000000.017823) vcan0 308#0012000000008200
(0000000000.018025) vcan0 316#13AD012B53000000
(0000000000.018276) vcan0 320#20000000F0008200
(0000000000.018521) vcan0 342#03C299997C000390
(0000000000.018748) vcan0 400#000B58F0000104A6
(0000000000.018998) vcan0 516#0000000000000000
(0000000000.019252) vcan0 408#0041330AFFFF047C
(0000000000.019522) vcan0 410#4300000000FF03BF
(0000000000.019797) vcan0 411#3260000000000000
(0000000000.020099) vcan0 022#FFFFFFFF00000303
(0000000000.020372) vcan0 517#0100000000000000
(0000000000.026117) vcan0 102#0000195456CD08DE
(0000000000.026374) vcan0 103#0200020000000808
(0000000000.026585) vcan0 122#D32300CA1CE20ACE
(0000000000.027647) vcan0 010#00FF6130000000AE
(0000000000.027898) vcan0 231#0001000000000A0B
(0000000000.028122) vcan0 012#9999320000000032
(0000000000.028372) vcan0 517#0100000000000000
(0000000000.036115) vcan0 102#0000195456CD09DF
(0000000000.036368) vcan0 103#0200020000000909
(0000000000.036568) vcan0 122#D32300CA1CE20BCF
(0000000000.036821) vcan0 110#0000007B01050D72
(0000000000.037046) vcan0 300#00000D8C00660000
(0000000000.037296) vcan0 308#0012000000008200
(0000000000.037542) vcan0 316#13AD012B53000000
(0000000000.037807) vcan0 320#20000000F0008200
(0000000000.038024) vcan0 342#03C299997C000390
(0000000000.038248) vcan0 400#000B58F0000105A7
(0000000000.038522) vcan0 516#0000000000000000
(0000000000.038746) vcan0 010#00FF6130000001AF
(0000000000.038997) vcan0 408#0041330AFFFF057D
(0000000000.039252) vcan0 013#FF01090000000000
(0000000000.039472) vcan0 410#4300000000FF04B8
(0000000000.039773) vcan0 411#3260000000000000
(0000000000.040049) vcan0 022#FFFFFFFF00000404
(0000000000.040372) vcan0 231#0001000000000B0A
(0000000000.040596) vcan0 517#0000000000000000
(0000000000.046118) vcan0 102#0000195456CD0ADC
(0000000000.046373) vcan0 103#0200020000000A0A
(0000000000.046573) vcan0 122#D32300CA1CE20CC8
(0000000000.049635) vcan0 010#00FF6130000002AC
(0000000000.049875) vcan0 231#0001000000000C0D
(0000000000.050103) vcan0 012#9999320001000132
(0000000000.050372) vcan0 517#0000000000000000
(0000000000.056112) vcan0 102#0000195456CD0BDD
(0000000000.056374) vcan0 103#0200020000000B0B
(0000000000.056589) vcan0 122#D32300CA1CE20DC9
(0000000000.057048) vcan0 110#0000007B01050E71
(0000000000.057299) vcan0 308#0012000000008200
(0000000000.057547) vcan0 300#00000D8C00660000
(0000000000.057774) vcan0 316#13AD012B53000000
(0000000000.058023) vcan0 320#20000000F0008200
(0000000000.058250) vcan0 342#03C299997C000390
(0000000000.058501) vcan0 516#0000000000000000
(0000000000.058824) vcan0 400#000B58F0000106A4
(0000000000.059123) vcan0 408#0041330AFFFF067E
(0000000000.059397) vcan0 410#4300000000FF05B9
(0000000000.059673) vcan0 411#3260000000000000
(0000000000.059950) vcan0 022#FFFFFFFF00000505
(0000000000.060623) vcan0 010#00FF6130000003AD
(0000000000.060848) vcan0 231#0001000000000D0C
(0000000000.061122) vcan0 517#0100000000000000
(0000000000.066112) vcan0 102#0000195456CD0CDA
(0000000000.066373) vcan0 103#0200020000000C0C
(0000000000.066587) vcan0 122#D32300CA1CE20ECA
(0000000000.071637) vcan0 010#00FF6130000004AA
(0000000000.071869) vcan0 231#0001000000000E0F
(0000000000.072095) vcan0 012#9999320000000230
(0000000000.072482) vcan0 517#0100000000000000
(0000000000.076138) vcan0 102#0000195456CD0DDB
(0000000000.076373) vcan0 103#0200020000000D0D
(0000000000.076573) vcan0 122#D32300CA1CE20FCB
(0000000000.076823) vcan0 110#0000007B01050F70
(0000000000.077074) vcan0 300#00000D8C00660000
(0000000000.077301) vcan0 308#0012000000008200
(0000000000.077520) vcan0 316#13AD012B53000000
(0000000000.077773) vcan0 320#20000000F0008200
(0000000000.078060) vcan0 342#03C299997C000390
(0000000000.078276) vcan0 516#0000000000000000
(0000000000.079857) vcan0 400#000B58F0000107A5
(0000000000.080158) vcan0 408#0041330AFFFF077F
(0000000000.080457) vcan0 410#4300000000FF06BA
(0000000000.080708) vcan0 411#3260000000000000
(0000000000.081011) vcan0 022#FFFFFFFF00000606
(0000000000.082608) vcan0 010#00FF6130000005AB
(0000000000.082822) vcan0 231#0002000000000002
(0000000000.083101) vcan0 517#0000000000000000
(0000000000.086110) vcan0 102#0000195456CD0ED8
(0000000000.086372) vcan0 103#0200020000000E0E
(0000000000.086573) vcan0 122#D32300CA1CE200C4
(0000000000.093872) vcan0 010#00FF6130000006A8
(0000000000.093885) vcan0 231#0002000000000103
(0000000000.094161) vcan0 012#9999320001000330
(0000000000.094316) vcan0 517#0100000000000000
(0000000000.094546) vcan0 013#FF01090000000000
(0000000000.096174) vcan0 102#0000195456CD0FD9
(0000000000.096373) vcan0 103#0200020000000F0F
(0000000000.096574) vcan0 122#D32300CA1CE201C5
(0000000000.097050) vcan0 110#0000007B0105007F
(0000000000.097301) vcan0 308#0012000000008200
(0000000000.097548) vcan0 300#00000D8C00660000
(0000000000.097815) vcan0 316#13AD012B53000000
(0000000000.098079) vcan0 320#20000000F0008200
(0000000000.098292) vcan0 342#03C299997C000390
(0000000000.098498) vcan0 516#0000000000000000
(0000000000.101075) vcan0 400#000B58F0000108AA
(0000000000.101158) vcan0 408#0041330AFFFF0870
(0000000000.101391) vcan0 410#4300000000FF08B4
(0000000000.101650) vcan0 411#3260000000000000
(0000000000.101963) vcan0 022#FFFFFFFF00000808
(0000000000.102237) vcan0 332#0100000000000706
(0000000000.102554) vcan0 530#FFFF704B64044900
(0000000000.104568) vcan0 010#00FF6130000007A9
(0000000000.104821) vcan0 231#0002000000000200
(0000000000.105100) vcan0 517#0100000000000000
(0000000000.106102) vcan0 102#0000195456CD00D6
(0000000000.106375) vcan0 103#0200020000000000
(0000000000.106574) vcan0 122#D32300CA1CE202C6
(0000000000.115833) vcan0 010#00FF6130000008A6
(0000000000.115848) vcan0 231#0002000000000301
(0000000000.116105) vcan0 012#9999320000000436
(0000000000.116300) vcan0 102#0000195456CD01D7
(0000000000.116532) vcan0 103#0200020000000101
(0000000000.116775) vcan0 122#D32300CA1CE203C7
(0000000000.116999) vcan0 110#0000007B0105017E
(0000000000.117252) vcan0 300#00000D8C00660000
(0000000000.117497) vcan0 308#0012000000008200
(0000000000.117722) vcan0 316#13AD012B53000000
(0000000000.117974) vcan0 320#20000000F0008200
(0000000000.118224) vcan0 342#03C299997C000390
(0000000000.118531) vcan0 516#0000000000000000
(0000000000.118731) vcan0 517#0000000000000000
(0000000000.121854) vcan0 400#000B58F0000109AB
(0000000000.122133) vcan0 408#0041330AFFFF0971
(0000000000.122407) vcan0 410#4300000000FF09B5
(0000000000.122683) vcan0 411#3260000000000000
(0000000000.123152) vcan0 022#FFFFFFFF00000909
(0000000000.126150) vcan0 102#0000195456CD02D4
(0000000000.126382) vcan0 103#0200020000000202
(0000000000.126608) vcan0 010#00FF6130000009A7
(0000000000.126799) vcan0 122#D32300CA1CE204C0
(0000000000.127050) vcan0 231#0002000000000406
(0000000000.127374) vcan0 517#0000000000000000
(0000000000.136123) vcan0 102#0000195456CD03D5
(0000000000.136374) vcan0 103#0200020000000303
(0000000000.136575) vcan0 122#D32300CA1CE205C1
(0000000000.137030) vcan0 110#0000007B0105027D
(0000000000.137275) vcan0 300#00000D8C00660000
(0000000000.137582) vcan0 308#0012000000008200
(0000000000.137775) vcan0 010#00FF613000000AA4
(0000000000.138024) vcan0 231#0002000000000507
(0000000000.138310) vcan0 012#9999320001000536
(0000000000.138538) vcan0 316#13AD012B53000000
(0000000000.138767) vcan0 320#20000000F0008200
(0000000000.138999) vcan0 342#03C299997C000390
(0000000000.139208) vcan0 516#0000000000000000
(0000000000.139493) vcan0 517#0100000000000000
(0000000000.143197) vcan0 400#000B58F000010AA8
(0000000000.143211) vcan0 408#0041330AFFFF0A72
(0000000000.143379) vcan0 410#4300000000FF0AB6
(0000000000.143648) vcan0 411#3260000000000000
(0000000000.144146) vcan0 022#FFFFFFFF00000A0A
(0000000000.146106) vcan0 102#0000195456CD04D2
(0000000000.146379) vcan0 103#0200020000000404
(0000000000.146574) vcan0 122#D32300CA1CE206C2
(0000000000.148572) vcan0 010#00FF613000000BA5
(0000000000.148751) vcan0 013#FF01090000000000
(0000000000.149002) vcan0 231#0002000000000604
(0000000000.149311) vcan0 517#0100000000000000
(0000000000.156118) vcan0 102#0000195456CD05D3
(0000000000.156375) vcan0 103#0200020000000505
(0000000000.156576) vcan0 122#D32300CA1CE207C3
(0000000000.156827) vcan0 110#0000007B0105037C
(0000000000.157053) vcan0 300#00000D8C00660000
(0000000000.157303) vcan0 308#0012000000008200
(0000000000.157550) vcan0 316#13AD012B53000000
(0000000000.157823) vcan0 320#20000000F0008200
(0000000000.158028) vcan0 342#03C299997C000390
(0000000000.158278) vcan0 516#0000000000000000
(0000000000.159565) vcan0 010#00FF613000000CA2
(0000000000.159773) vcan0 012#9999320000000634
(0000000000.160025) vcan0 231#0002000000000705
(0000000000.160336) vcan0 517#0000000000000000
(0000000000.163901) vcan0 400#000B58F000010BA9
(0000000000.164101) vcan0 408#0041330AFFFF0B73
(0000000000.164417) vcan0 410#4300000000FF0BB7
(0000000000.164690) vcan0 411#3260000000000000
(0000000000.164941) vcan0 022#FFFFFFFF00000B0B
(0000000000.166133) vcan0 102#0000195456CD06D0
(0000000000.166373) vcan0 103#0200020000000606
(0000000000.166548) vcan0 122#D32300CA1CE208CC
(0000000000.170528) vcan0 010#00FF613000000DA3
(0000000000.170926) vcan0 231#000200000000080A
(0000000000.171149) vcan0 517#0000000000000000
(0000000000.176153) vcan0 102#0000195456CD07D1
(0000000000.176376) vcan0 103#0200020000000707
(0000000000.176597) vcan0 122#D32300CA1CE209CD
(0000000000.177026) vcan0 110#0000007B0105047B
(0000000000.177276) vcan0 308#0012000000008200
(0000000000.177526) vcan0 300#00000D8C00660000
(0000000000.177777) vcan0 316#13AD012B53000000
(0000000000.178028) vcan0 320#20000000F0008200
(0000000000.178253) vcan0 342#03C299997C000390
(0000000000.178472) vcan0 516#0000000000000000
(0000000000.181517) vcan0 010#00FF613000000EA0
(0000000000.181725) vcan0 012#9999320001000734
(0000000000.181977) vcan0 231#0003000000000A09
(0000000000.182259) vcan0 517#0100000000000000
(0000000000.184863) vcan0 400#000B58F000010CAE
(0000000000.185101) vcan0 408#0041330AFFFF0C74
(0000000000.185375) vcan0 410#4300000000FF0CB0
(0000000000.185649) vcan0 411#3260000000000000
(0000000000.185926) vcan0 022#FFFFFFFF00000C0C
(0000000000.186178) vcan0 102#0000195456CD08DE
(0000000000.186400) vcan0 103#0200020000000808
(0000000000.186626) vcan0 122#D32300CA1CE20ACE
(0000000000.192494) vcan0 010#00FF613000000FA1
(0000000000.192877) vcan0 231#0003000000000A09
(0000000000.193176) vcan0 517#0100000000000000
(0000000000.196091) vcan0 102#0000195456CD09DF
(0000000000.196376) vcan0 103#0200020000000909
(0000000000.196550) vcan0 122#D32300CA1CE20BCF
(0000000000.196799) vcan0 110#0000007B0105057A
(0000000000.197053) vcan0 300#00000D8C00660000
(0000000000.197277) vcan0 308#0012000000008200
(0000000000.197530) vcan0 316#13AD012B53000000
(0000000000.197778) vcan0 320#20000000F0008200
(0000000000.198001) vcan0 342#03C299997C000390
(0000000000.198252) vcan0 516#0000000000000000
(0000000000.202815) vcan0 332#0100000000000809
(0000000000.203075) vcan0 530#FFFF704B64044900
(0000000000.203486) vcan0 010#00FF6130000000AE
(0000000000.203709) vcan0 012#999932000000083A
(0000000000.203958) vcan0 231#0003000000000C0F
(0000000000.204209) vcan0 013#FF01090000000000
(0000000000.204448) vcan0 517#0000000000000000
(0000000000.205828) vcan0 400#000B58F000010DAF
(0000000000.206076) vcan0 102#0000195456CD0ADC
(0000000000.206410) vcan0 103#0200020000000A0A
(0000000000.206588) vcan0 122#D32300CA1CE20CC8
(0000000000.206816) vcan0 408#0041330AFFFF0D75
(0000000000.207061) vcan0 410#4300000000FF0DB1
(0000000000.207391) vcan0 411#3260000000000000
(0000000000.207601) vcan0 022#FFFFFFFF00000D0D
(0000000000.214477) vcan0 010#00FF6130000001AF
(0000000000.214881) vcan0 231#0003000000000D0E
(0000000000.215153) vcan0 517#0100000000000000
(0000000000.216082) vcan0 102#0000195456CD0BDD
(0000000000.216326) vcan0 103#0200020000000B0B
(0000000000.216574) vcan0 122#D32300CA1CE20DC9
(0000000000.217052) vcan0 110#0000007B01050679
(0000000000.217278) vcan0 308#0012000000008200
(0000000000.217525) vcan0 300#00000D8C00660000
(0000000000.217776) vcan0 316#13AD012B53000000
(0000000000.218043) vcan0 320#20000000F0008200
(0000000000.218288) vcan0 342#03C299997C000390
(0000000000.218509) vcan0 516#0000000000000000
(0000000000.225733) vcan0 010#00FF6130000002AC
(0000000000.225747) vcan0 012#999932000100093A
(0000000000.225948) vcan0 231#0003000000000E0D
(0000000000.226231) vcan0 102#0000195456CD0CDA
(0000000000.226459) vcan0 103#0200020000000C0C
(0000000000.226651) vcan0 122#D32300CA1CE20ECA
(0000000000.226936) vcan0 517#0100000000000000
(0000000000.227188) vcan0 400#000B58F000010EAC
(0000000000.227471) vcan0 408#0041330AFFFF0E76
(0000000000.227759) vcan0 410#4300000000FF0EB2
(0000000000.228034) vcan0 411#3260000000000000
(0000000000.228308) vcan0 022#FFFFFFFF00000E0E
(0000000000.236155) vcan0 102#0000195456CD0DDB
(0000000000.236377) vcan0 103#0200020000000D0D
(0000000000.236614) vcan0 010#00FF6130000003AD
(0000000000.236837) vcan0 122#D32300CA1CE20FCB
(0000000000.237062) vcan0 110#0000007B01050778
(0000000000.237280) vcan0 231#0003000000000F0C
(0000000000.237541) vcan0 300#00000D8C00660000
(0000000000.237764) vcan0 308#0012000000008200
(0000000000.238015) vcan0 316#13AD012B53000000
(0000000000.238242) vcan0 320#20000000F0008200
(0000000000.238476) vcan0 342#03C299997C000390
(0000000000.238723) vcan0 516#0000000000000000
(0000000000.238978) vcan0 517#0000000000000000
(0000000000.246101) vcan0 102#0000195456CD0ED8
(0000000000.246376) vcan0 103#0200020000000E0E
(0000000000.246549) vcan0 122#D32300CA1CE200C4
(0000000000.247664) vcan0 010#00FF6130000004AA
(0000000000.247737) vcan0 012#9999320000000A38
(0000000000.248000) vcan0 231#0003000000000003
(0000000000.248246) vcan0 400#000B58F000010FAD
(0000000000.248477) vcan0 408#0041330AFFFF0F77
(0000000000.248776) vcan0 410#4300000000FF0FB3
(0000000000.249053) vcan0 411#3260000000000000
(0000000000.249558) vcan0 022#FFFFFFFF00000F0F
(0000000000.249615) vcan0 517#0000000000000000
(0000000000.256361) vcan0 102#0000195456CD0FD9
(0000000000.256376) vcan0 103#0200020000000F0F
(0000000000.256556) vcan0 122#D32300CA1CE201C5
(0000000000.257037) vcan0 110#0000007B01050877
(0000000000.257279) vcan0 308#0012000000008200
(0000000000.257549) vcan0 300#00000D8C00660000
(0000000000.257749) vcan0 316#13AD012B53000000
(0000000000.258001) vcan0 320#20000000F0008200
(0000000000.258262) vcan0 342#03C299997C000390
(0000000000.258480) vcan0 010#00FF6130000005AB
(0000000000.258726) vcan0 516#0000000000000000
(0000000000.259035) vcan0 013#FF01090000000000
(0000000000.259229) vcan0 231#0003000000000102
(0000000000.259500) vcan0 517#0100000000000000
(0000000000.266140) vcan0 102#0000195456CD00D6
(0000000000.266375) vcan0 103#0200020000000000
(0000000000.266552) vcan0 122#D32300CA1CE202C6
(0000000000.269116) vcan0 400#000B58F0000100A2
(0000000000.269189) vcan0 408#0041330AFFFF0078
(0000000000.269401) vcan0 410#4300000000FF00BC
(0000000000.269674) vcan0 010#00FF6130000006A8
(0000000000.269878) vcan0 411#3260000000000000
(0000000000.270138) vcan0 012#9999320001000B38
(0000000000.270377) vcan0 022#FFFFFFFF00000000
(0000000000.270652) vcan0 231#0003000000000201
(0000000000.270928) vcan0 517#0100000000000000
(0000000000.276336) vcan0 102#0000195456CD01D7
(0000000000.276351) vcan0 103#0200020000000101
(0000000000.276555) vcan0 122#D32300CA1CE203C7
(0000000000.276814) vcan0 110#0000007B01050976
(0000000000.277038) vcan0 300#00000D8C00660000
(0000000000.277290) vcan0 308#0012000000008200
(0000000000.277526) vcan0 316#13AD012B53000000
(0000000000.277753) vcan0 320#20000000F0008200
(0000000000.278004) vcan0 342#03C299997C000390
(0000000000.278254) vcan0 516#0000000000000000
(0000000000.280425) vcan0 010#00FF6130000007A9
(0000000000.280827) vcan0 231#0003000000000407
(0000000000.281105) vcan0 517#0000000000000000
(0000000000.286113) vcan0 102#0000195456CD02D4
(0000000000.286378) vcan0 103#0200020000000202
(0000000000.286578) vcan0 122#D32300CA1CE204C0
(0000000000.289842) vcan0 400#000B58F0000101A3
(0000000000.290162) vcan0 408#0041330AFFFF0179
(0000000000.290411) vcan0 410#4300000000FF01BD
(0000000000.290712) vcan0 411#3260000000000000
(0000000000.290963) vcan0 022#FFFFFFFF00000101
(0000000000.291436) vcan0 010#00FF6130000008A6
(0000000000.291636) vcan0 012#9999320000000C3E
(0000000000.291878) vcan0 231#0003000000000407
(0000000000.292188) vcan0 517#0000000000000000
(0000000000.296096) vcan0 102#0000195456CD03D5
(0000000000.296378) vcan0 103#0200020000000303
(0000000000.296550) vcan0 122#D32300CA1CE205C1
(0000000000.297029) vcan0 110#0000007B01050A75
(0000000000.297282) vcan0 308#0012000000008200
(0000000000.297534) vcan0 300#00000D8C00660000
(0000000000.297753) vcan0 316#13AD012B53000000
(0000000000.298004) vcan0 320#20000000F0008200
(0000000000.298230) vcan0 342#03C299997C000390
(0000000000.298505) vcan0 516#0000000000000000
(0000000000.302391) vcan0 010#00FF6130000009A7
(0000000000.302804) vcan0 231#0003000000000605
(0000000000.303103) vcan0 517#0100000000000000
(0000000000.303827) vcan0 332#0100000000000908
(0000000000.304076) vcan0 530#FFFF704B64044900
(0000000000.306076) vcan0 102#0000195456CD04D2
(0000000000.306377) vcan0 103#0200020000000404
(0000000000.306551) vcan0 122#D32300CA1CE206C2
(0000000000.310871) vcan0 400#000B58F0000102A0
(0000000000.311130) vcan0 408#0041330AFFFF027A
(0000000000.311402) vcan0 410#4300000000FF02BE
(0000000000.311654) vcan0 411#3260000000000000
(0000000000.311954) vcan0 022#FFFFFFFF00000202
(0000000000.313384) vcan0 010#00FF613000000AA4
(0000000000.313604) vcan0 012#9999320001000D3E
(0000000000.313855) vcan0 231#0003000000000704
(0000000000.314105) vcan0 013#FF01090000000000
(0000000000.314378) vcan0 517#0000000000000000
(0000000000.316090) vcan0 102#0000195456CD05D3
(0000000000.316378) vcan0 103#0200020000000505
(0000000000.316579) vcan0 122#D32300CA1CE207C3
(0000000000.316804) vcan0 110#0000007B01050B74
(0000000000.317053) vcan0 300#00000D8C00660000
(0000000000.317306) vcan0 308#0012000000008200
(0000000000.317528) vcan0 316#13AD012B53000000
(0000000000.317778) vcan0 320#20000000F0008200
(0000000000.318005) vcan0 342#03C299997C000390
(0000000000.318260) vcan0 516#0000000000000000
(0000000000.324346) vcan0 010#00FF613000000BA5
(0000000000.324804) vcan0 231#000300000000080B
(0000000000.325102) vcan0 517#0000000000000000
(0000000000.326080) vcan0 102#0000195456CD06D0
(0000000000.326376) vcan0 103#0200020000000606
(0000000000.326555) vcan0 122#D32300CA1CE208CC
(0000000000.331868) vcan0 400#000B58F0000103A1
(0000000000.332129) vcan0 408#0041330AFFFF037B
(0000000000.332378) vcan0 410#4300000000FF03BF
(0000000000.332678) vcan0 411#3260000000000000
(0000000000.332930) vcan0 022#FFFFFFFF00000303
(0000000000.335394) vcan0 010#00FF613000000CA2
(0000000000.335579) vcan0 012#9999320000000E3C
(0000000000.335830) vcan0 231#000300000000090A
(0000000000.336081) vcan0 102#0000195456CD07D1
(0000000000.336377) vcan0 103#0200020000000707
(0000000000.336554) vcan0 122#D32300CA1CE209CD
(0000000000.336806) vcan0 517#0100000000000000
(0000000000.337039) vcan0 110#0000007B01050C73
(0000000000.337281) vcan0 300#00000D8C00660000
(0000000000.337528) vcan0 308#0012000000008200
(0000000000.337778) vcan0 316#13AD012B53000000
(0000000000.338005) vcan0 320#20000000F0008200
(0000000000.338256) vcan0 342#03C299997C000390
(0000000000.338478) vcan0 516#0000000000000000
(0000000000.346067) vcan0 102#0000195456CD08DE
(0000000000.346304) vcan0 010#00FF613000000DA3
(0000000000.346555) vcan0 103#0200020000000808
(0000000000.346777) vcan0 122#D32300CA1CE20ACE
(0000000000.347033) vcan0 231#0003000000000A09
(0000000000.347304) vcan0 517#0100000000000000
(0000000000.352868) vcan0 400#000B58F0000105A7
(0000000000.353104) vcan0 408#0041330AFFFF057D
(0000000000.353377) vcan0 410#4300000000FF04B8
(0000000000.353654) vcan0 411#3260000000000000
(0000000000.353930) vcan0 022#FFFFFFFF00000404
(0000000000.356094) vcan0 102#0000195456CD09DF
(0000000000.356380) vcan0 103#0200020000000909
(0000000000.356555) vcan0 122#D32300CA1CE20BCF
(0000000000.356781) vcan0 110#0000007B01050D72
(0000000000.357032) vcan0 300#00000D8C00660000
(0000000000.357283) vcan0 308#0012000000008200
(0000000000.357529) vcan0 010#00FF613000000EA0
(0000000000.357754) vcan0 316#13AD012B53000000
(0000000000.357978) vcan0 012#9999320001000F3C
(0000000000.358237) vcan0 231#0003000000000B08
(0000000000.358476) vcan0 320#20000000F0008200
(0000000000.358730) vcan0 342#03C299997C000390
(0000000000.358981) vcan0 516#0000000000000000
(0000000000.359232) vcan0 517#0000000000000000
(0000000000.366093) vcan0 102#0000195456CD0ADC
(0000000000.366305) vcan0 103#0200020000000A0A
(0000000000.366553) vcan0 122#D32300CA1CE20CC8
(0000000000.368310) vcan0 010#00FF613000000FA1
(0000000000.368531) vcan0 013#FF01090000000000
(0000000000.368859) vcan0 231#0003000000000C0F
(0000000000.369110) vcan0 517#0000000000000000
(0000000000.373885) vcan0 400#000B58F0000106A4
(0000000000.374105) vcan0 408#0041330AFFFF067E
(0000000000.374412) vcan0 410#4300000000FF05B9
(0000000000.374689) vcan0 411#3260000000000000
(0000000000.374965) vcan0 022#FFFFFFFF00000505
(0000000000.376089) vcan0 102#0000195456CD0BDD
(0000000000.376306) vcan0 103#0200020000000B0B
(0000000000.376553) vcan0 122#D32300CA1CE20DC9
(0000000000.377030) vcan0 110#0000007B01050E71
(0000000000.377283) vcan0 308#0012000000008200
(0000000000.377504) vcan0 300#00000D8C00660000
(0000000000.377754) vcan0 316#13AD012B53000000
(0000000000.378005) vcan0 320#20000000F0008200
(0000000000.378278) vcan0 342#03C299997C000390
(0000000000.378483) vcan0 516#0000000000000000
(0000000000.379308) vcan0 010#00FF6130000000AE
(0000000000.379553) vcan0 012#9999320000000032
(0000000000.379828) vcan0 231#0003000000000D0E
(0000000000.380107) vcan0 517#0100000000000000
(0000000000.386134) vcan0 102#0000195456CD0CDA
(0000000000.386380) vcan0 103#0200020000000C0C
(0000000000.386529) vcan0 122#D32300CA1CE20ECA
(0000000000.390305) vcan0 010#00FF6130000001AF
(0000000000.390834) vcan0 231#0003000000000E0D
(0000000000.391113) vcan0 517#0100000000000000
(0000000000.394846) vcan0 400#000B58F0000107A5
(0000000000.395132) vcan0 408#0041330AFFFF077F
(0000000000.395380) vcan0 410#4300000000FF06BA
(0000000000.395678) vcan0 411#3260000000000000
(0000000000.395931) vcan0 022#FFFFFFFF00000606
(0000000000.396182) vcan0 102#0000195456CD0DDB
(0000000000.396429) vcan0 103#0200020000000D0D
(0000000000.396656) vcan0 122#D32300CA1CE20FCB
(0000000000.396881) vcan0 110#0000007B01050F70
(0000000000.397130) vcan0 300#00000D8C00660000
(0000000000.397381) vcan0 308#0012000000008200
(0000000000.397605) vcan0 316#13AD012B53000000
(0000000000.397856) vcan0 320#20000000F0008200
(0000000000.398105) vcan0 342#03C299997C000390
(0000000000.398380) vcan0 516#0000000000000000
(0000000000.401294) vcan0 010#00FF6130000002AC
(0000000000.401537) vcan0 012#9999320001000132
(0000000000.401885) vcan0 231#0003000000000003
(0000000000.402167) vcan0 517#0000000000000000
(0000000000.404848) vcan0 332#0100000000000A0B
(0000000000.405081) vcan0 530#FFFF704B64044900
(0000000000.406082) vcan0 102#0000195456CD0ED8
(0000000000.406405) vcan0 103#0200020000000E0E
(0000000000.406555) vcan0 122#D32300CA1CE200C4
(0000000000.412310) vcan0 010#00FF6130000003AD
(0000000000.412841) vcan0 231#0003000000000003
(0000000000.413113) vcan0 517#0000000000000000
(0000000000.415843) vcan0 400#000B58F0000108AA
(0000000000.416085) vcan0 102#0000195456CD0FD9
(0000000000.416377) vcan0 103#0200020000000F0F
(0000000000.416562) vcan0 122#D32300CA1CE201C5
(0000000000.416788) vcan0 408#0041330AFFFF0870
(0000000000.417032) vcan0 110#0000007B0105007F
(0000000000.417284) vcan0 300#00000D8C00660000
(0000000000.417530) vcan0 308#0012000000008200
(0000000000.417755) vcan0 316#13AD012B53000000
(0000000000.418004) vcan0 320#20000000F0008200
(0000000000.418232) vcan0 342#03C299997C000390
(0000000000.418477) vcan0 410#4300000000FF07BB
(0000000000.418730) vcan0 516#0000000000000000
(0000000000.418982) vcan0 411#3260000000000000
(0000000000.419258) vcan0 022#FFFFFFFF00000707
(0000000000.423295) vcan0 010#00FF6130000004AA
(0000000000.423511) vcan0 012#9999320000000230
(0000000000.423761) vcan0 013#FF01090000000000
(0000000000.424013) vcan0 231#0003000000000201
(0000000000.424287) vcan0 517#0100000000000000
(0000000000.426124) vcan0 102#0000195456CD00D6
(0000000000.426380) vcan0 103#0200020000000000
(0000000000.426555) vcan0 122#D32300CA1CE202C6
(0000000000.434261) vcan0 010#00FF6130000005AB
(0000000000.434809) vcan0 231#0003000000000300
(0000000000.435082) vcan0 517#0000000000000000
(0000000000.436083) vcan0 102#0000195456CD01D7
(0000000000.436379) vcan0 103#0200020000000101
(0000000000.436558) vcan0 122#D32300CA1CE203C7
(0000000000.436805) vcan0 110#0000007B0105017E
(0000000000.437031) vcan0 300#00000D8C00660000
(0000000000.437282) vcan0 308#0012000000008200
(0000000000.437505) vcan0 316#13AD012B53000000
(0000000000.437754) vcan0 320#20000000F0008200
(0000000000.438008) vcan0 342#03C299997C000390
(0000000000.438256) vcan0 400#000B58F0000109AB
(0000000000.438478) vcan0 516#0000000000000000
(0000000000.438731) vcan0 408#0041330AFFFF0971
(0000000000.439007) vcan0 410#4300000000FF08B4
(0000000000.439283) vcan0 411#3260000000000000
(0000000000.439580) vcan0 022#FFFFFFFF00000808
(0000000000.445246) vcan0 010#00FF6130000006A8
(0000000000.445481) vcan0 012#9999320001000330
(0000000000.445880) vcan0 231#0003000000000407
(0000000000.446133) vcan0 102#0000195456CD02D4
(0000000000.446379) vcan0 103#0200020000000202
(0000000000.446606) vcan0 122#D32300CA1CE204C0
(0000000000.446857) vcan0 517#0000000000000000
(0000000000.456105) vcan0 102#0000195456CD03D5
(0000000000.456307) vcan0 010#00FF6130000007A9
(0000000000.456555) vcan0 103#0200020000000303
(0000000000.456780) vcan0 122#D32300CA1CE205C1
(0000000000.457030) vcan0 110#0000007B0105027D
(0000000000.457282) vcan0 231#0003000000000506
(0000000000.457505) vcan0 300#00000D8C00660000
(0000000000.457756) vcan0 308#0012000000008200
(0000000000.458006) vcan0 316#13AD012B53000000
(0000000000.458233) vcan0 320#20000000F0008200
(0000000000.458477) vcan0 342#03C299997C000390
(0000000000.458734) vcan0 516#0000000000000000
(0000000000.458981) vcan0 517#0100000000000000
(0000000000.459262) vcan0 400#000B58F000010AA8
(0000000000.459504) vcan0 408#0041330AFFFF0A72
(0000000000.459818) vcan0 410#4300000000FF09B5
(0000000000.460094) vcan0 411#3260000000000000
(0000000000.460429) vcan0 022#FFFFFFFF00000909
(0000000000.466068) vcan0 102#0000195456CD04D2
(0000000000.466307) vcan0 103#0200020000000404
(0000000000.466553) vcan0 122#D32300CA1CE206C2
(0000000000.467205) vcan0 010#00FF6130000008A6
(0000000000.467455) vcan0 012#9999320000000436
(0000000000.467911) vcan0 231#0003000000000605
(0000000000.468180) vcan0 517#0100000000000000
(0000000000.476173) vcan0 102#0000195456CD05D3
(0000000000.476308) vcan0 103#0200020000000505
(0000000000.476553) vcan0 122#D32300CA1CE207C3
(0000000000.476778) vcan0 110#0000007B0105037C
(0000000000.477041) vcan0 300#00000D8C00660000
(0000000000.477290) vcan0 308#0012000000008200
(0000000000.477533) vcan0 316#13AD012B53000000
(0000000000.477756) vcan0 320#20000000F0008200
(0000000000.478007) vcan0 342#03C299997C000390
(0000000000.478232) vcan0 010#00FF6130000009A7
(0000000000.478481) vcan0 516#0000000000000000
(0000000000.478732) vcan0 013#FF01090000000000
(0000000000.478980) vcan0 231#0003000000000704
(0000000000.479257) vcan0 400#000B58F000010BA9
(0000000000.479503) vcan0 408#0041330AFFFF0B73
(0000000000.479803) vcan0 410#4300000000FF0AB6
(0000000000.480084) vcan0 411#3260000000000000
(0000000000.480604) vcan0 022#FFFFFFFF00000A0A
(0000000000.480673) vcan0 517#0000000000000000
(0000000000.486228) vcan0 102#0000195456CD06D0
(0000000000.486313) vcan0 103#0200020000000606
(0000000000.486529) vcan0 122#D32300CA1CE208CC
(0000000000.489447) vcan0 010#00FF613000000AA4
(0000000000.489461) vcan0 012#9999320001000536
(0000000000.489880) vcan0 231#000300000000080B
(0000000000.490132) vcan0 517#0000000000000000
(0000000000.496104) vcan0 102#0000195456CD07D1
(0000000000.496307) vcan0 103#0200020000000707
(0000000000.496553) vcan0 122#D32300CA1CE209CD
(0000000000.497030) vcan0 110#0000007B0105047B
(0000000000.497256) vcan0 308#0012000000008200
(0000000000.497523) vcan0 300#00000D8C00660000
(0000000000.497765) vcan0 316#13AD012B53000000
(0000000000.498068) vcan0 320#20000000F0008200
(0000000000.498234) vcan0 342#03C299997C000390
(0000000000.498478) vcan0 516#0000000000000000
(0000000000.500174) vcan0 400#000B58F000010CAE
(0000000000.500188) vcan0 408#0041330AFFFF0C74
(0000000000.500385) vcan0 010#00FF613000000BA5
(0000000000.500578) vcan0 410#4300000000FF0BB7
(0000000000.500881) vcan0 411#3260000000000000
(0000000000.501159) vcan0 022#FFFFFFFF00000B0B
(0000000000.501467) vcan0 231#0003000000000A09
(0000000000.501981) vcan0 517#0100000000000000
(0000000000.505843) vcan0 332#0100000000000B0A
(0000000000.506057) vcan0 102#0000195456CD08DE
(0000000000.506312) vcan0 103#0200020000000808
(0000000000.506531) vcan0 122#D32300CA1CE20ACE
(0000000000.506759) vcan0 530#FFFF704B64044900
(0000000000.511179) vcan0 010#00FF613000000CA2
(0000000000.511407) vcan0 012#9999320000000634
(0000000000.511831) vcan0 231#0003000000000A09
(0000000000.512133) vcan0 517#0100000000000000
(0000000000.516078) vcan0 102#0000195456CD09DF
(0000000000.516309) vcan0 103#0200020000000909
(0000000000.516531) vcan0 122#D32300CA1CE20BCF
(0000000000.516783) vcan0 110#0000007B0105057A
(0000000000.517034) vcan0 300#00000D8C00660000
(0000000000.517284) vcan0 308#0012000000008200
(0000000000.517506) vcan0 316#13AD012B53000000
(0000000000.517757) vcan0 320#20000000F0008200
(0000000000.517984) vcan0 342#03C299997C000390
(0000000000.518240) vcan0 516#0000000000000000
(0000000000.520873) vcan0 400#000B58F000010DAF
(0000000000.521108) vcan0 408#0041330AFFFF0D75
(0000000000.521382) vcan0 410#4300000000FF0DB1
(0000000000.521658) vcan0 411#3260000000000000
(0000000000.521934) vcan0 022#FFFFFFFF00000D0D
(0000000000.522184) vcan0 010#00FF613000000DA3
(0000000000.522808) vcan0 231#0003000000000C0F
(0000000000.523108) vcan0 517#0000000000000000
(0000000000.526068) vcan0 102#0000195456CD0ADC
(0000000000.526307) vcan0 103#0200020000000A0A
(0000000000.526532) vcan0 122#D32300CA1CE20CC8
(0000000000.533174) vcan0 010#00FF613000000EA0
(0000000000.533408) vcan0 012#9999320001000734
(0000000000.533658) vcan0 013#FF01090000000000
(0000000000.533885) vcan0 231#0003000000000D0E
(0000000000.534160) vcan0 517#0100000000000000
(0000000000.536058) vcan0 102#0000195456CD0BDD
(0000000000.536305) vcan0 103#0200020000000B0B
(0000000000.536530) vcan0 122#D32300CA1CE20DC9
(0000000000.537008) vcan0 110#0000007B01050679
(0000000000.537263) vcan0 308#0012000000008200
(0000000000.537507) vcan0 300#00000D8C00660000
(0000000000.537731) vcan0 316#13AD012B53000000
(0000000000.537981) vcan0 320#20000000F0008200
(0000000000.538207) vcan0 342#03C299997C000390
(0000000000.538457) vcan0 516#0000000000000000
(0000000000.541855) vcan0 400#000B58F000010EAC
(0000000000.542108) vcan0 408#0041330AFFFF0E76
(0000000000.542381) vcan0 410#4300000000FF0EB2
(0000000000.542658) vcan0 411#3260000000000000
(0000000000.542931) vcan0 022#FFFFFFFF00000E0E
(0000000000.544107) vcan0 010#00FF613000000FA1
(0000000000.544830) vcan0 231#0003000000000E0D
(0000000000.545107) vcan0 517#0100000000000000
(0000000000.546057) vcan0 102#0000195456CD0CDA
(0000000000.546306) vcan0 103#0200020000000C0C
(0000000000.546534) vcan0 122#D32300CA1CE20ECA
(0000000000.555157) vcan0 010#00FF6130000000AE
(0000000000.555383) vcan0 012#999932000000083A
(0000000000.555836) vcan0 231#0003000000000F0C
(0000000000.556057) vcan0 102#0000195456CD0DDB
(0000000000.556317) vcan0 103#0200020000000D0D
(0000000000.556533) vcan0 122#D32300CA1CE20FCB
(0000000000.556756) vcan0 110#0000007B01050778
(0000000000.557009) vcan0 300#00000D8C00660000
(0000000000.557260) vcan0 308#0012000000008200
(0000000000.557482) vcan0 316#13AD012B53000000
(0000000000.557733) vcan0 320#20000000F0008200
(0000000000.557984) vcan0 342#03C299997C000390
(0000000000.558221) vcan0 516#0000000000000000
(0000000000.558483) vcan0 517#0000000000000000
(0000000000.562871) vcan0 400#000B58F000010FAD
(0000000000.563109) vcan0 408#0041330AFFFF0F77
(0000000000.563382) vcan0 410#4300000000FF0FB3
(0000000000.563659) vcan0 411#3260000000000000
(0000000000.563959) vcan0 022#FFFFFFFF00000F0F
(0000000000.566082) vcan0 102#0000195456CD0ED8
(0000000000.566298) vcan0 010#00FF6130000001AF
(0000000000.566549) vcan0 103#0200020000000E0E
(0000000000.566763) vcan0 122#D32300CA1CE200C4
(0000000000.567014) vcan0 231#0003000000000003
(0000000000.567289) vcan0 517#0000000000000000
(0000000000.576070) vcan0 102#0000195456CD0FD9
(0000000000.576309) vcan0 103#0200020000000F0F
(0000000000.576532) vcan0 122#D32300CA1CE201C5
(0000000000.577009) vcan0 110#0000007B01050877
(0000000000.577260) vcan0 010#00FF6130000002AC
(0000000000.577482) vcan0 300#00000D8C00660000
(0000000000.577708) vcan0 012#999932000100093A
(0000000000.577960) vcan0 231#0003000000000102
(0000000000.578214) vcan0 308#0012000000008200
(0000000000.578456) vcan0 316#13AD012B53000000
(0000000000.578683) vcan0 320#20000000F0008200
(0000000000.578932) vcan0 342#03C299997C000390
(0000000000.579158) vcan0 516#0000000000000000
(0000000000.579430) vcan0 517#0100000000000000
(0000000000.583876) vcan0 400#000B58F0000100A2
(0000000000.584108) vcan0 408#0041330AFFFF0078
(0000000000.584408) vcan0 410#4300000000FF00BC
(0000000000.584697) vcan0 411#3260000000000000
(0000000000.584997) vcan0 022#FFFFFFFF00000000
(0000000000.586091) vcan0 102#0000195456CD00D6
(0000000000.586308) vcan0 103#0200020000000000
(0000000000.586529) vcan0 122#D32300CA1CE202C6
(0000000000.588075) vcan0 010#00FF6130000003AD
(0000000000.588308) vcan0 013#FF01090000000000
(0000000000.588832) vcan0 231#0003000000000201
(0000000000.589084) vcan0 517#0100000000000000
(0000000000.596073) vcan0 102#0000195456CD01D7
(0000000000.596310) vcan0 103#0200020000000101
(0000000000.596533) vcan0 122#D32300CA1CE203C7
(0000000000.596784) vcan0 110#0000007B01050976
(0000000000.597012) vcan0 300#00000D8C00660000
(0000000000.597259) vcan0 308#0012000000008200
(0000000000.597507) vcan0 316#13AD012B53000000
(0000000000.597734) vcan0 320#20000000F0008200
(0000000000.597983) vcan0 342#03C299997C000390
(0000000000.598235) vcan0 516#0000000000000000
(0000000000.599094) vcan0 010#00FF6130000004AA
(0000000000.599396) vcan0 012#9999320000000A38
(0000000000.599814) vcan0 231#0003000000000300
(0000000000.600110) vcan0 517#0000000000000000
(0000000000.604862) vcan0 400#000B58F0000101A3
(0000000000.605169) vcan0 408#0041330AFFFF0179
(0000000000.605382) vcan0 410#4300000000FF01BD
(0000000000.605679) vcan0 411#3260000000000000
(0000000000.605934) vcan0 022#FFFFFFFF00000101
(0000000000.606158) vcan0 102#0000195456CD02D4
(0000000000.606431) vcan0 103#0200020000000202
(0000000000.606662) vcan0 122#D32300CA1CE204C0
(0000000000.606886) vcan0 332#0100000000000C0D
(0000000000.607162) vcan0 530#FFFF704B64044900
(0000000000.610076) vcan0 010#00FF6130000005AB
(0000000000.610839) vcan0 231#0003000000000407
(0000000000.611107) vcan0 517#0000000000000000
(0000000000.616082) vcan0 102#0000195456CD03D5
(0000000000.616308) vcan0 103#0200020000000303
(0000000000.616535) vcan0 122#D32300CA1CE205C1
(0000000000.617012) vcan0 110#0000007B01050A75
(0000000000.617257) vcan0 308#0012000000008200
(0000000000.617484) vcan0 300#00000D8C00660000
(0000000000.617739) vcan0 316#13AD012B53000000
(0000000000.617984) vcan0 320#20000000F0008200
(0000000000.618211) vcan0 342#03C299997C000390
(0000000000.618468) vcan0 516#0000000000000000
(0000000000.621102) vcan0 010#00FF6130000006A8
(0000000000.621309) vcan0 012#9999320001000B38
(0000000000.621834) vcan0 231#0003000000000605
(0000000000.622110) vcan0 517#0100000000000000
(0000000000.625881) vcan0 400#000B58F0000102A0
(0000000000.626109) vcan0 102#0000195456CD04D2
(0000000000.626407) vcan0 103#0200020000000404
(0000000000.626557) vcan0 122#D32300CA1CE206C2
(0000000000.626811) vcan0 408#0041330AFFFF027A
(0000000000.627084) vcan0 410#4300000000FF02BE
(0000000000.627384) vcan0 411#3260000000000000
(0000000000.627635) vcan0 022#FFFFFFFF00000202
(0000000000.632047) vcan0 010#00FF6130000007A9
(0000000000.632839) vcan0 231#0003000000000704
(0000000000.633085) vcan0 517#0000000000000000
(0000000000.636074) vcan0 102#0000195456CD05D3
(0000000000.636309) vcan0 103#0200020000000505
(0000000000.636531) vcan0 122#D32300CA1CE207C3
(0000000000.636784) vcan0 110#0000007B01050B74
(0000000000.637009) vcan0 300#00000D8C00660000
(0000000000.637266) vcan0 308#0012000000008200
(0000000000.637509) vcan0 316#13AD012B53000000
(0000000000.637760) vcan0 320#20000000F0008200
(0000000000.637984) vcan0 342#03C299997C000390
(0000000000.638237) vcan0 516#0000000000000000
(0000000000.643069) vcan0 010#00FF6130000008A6
(0000000000.643286) vcan0 012#9999320000000C3E
(0000000000.643534) vcan0 013#FF01090000000000
(0000000000.643884) vcan0 231#000300000000080B
(0000000000.644161) vcan0 517#0000000000000000
(0000000000.646099) vcan0 102#0000195456CD06D0
(0000000000.646308) vcan0 103#0200020000000606
(0000000000.646534) vcan0 122#D32300CA1CE208CC
(0000000000.646859) vcan0 400#000B58F0000103A1
(0000000000.647136) vcan0 408#0041330AFFFF037B
(0000000000.647384) vcan0 410#4300000000FF03BF
(0000000000.647661) vcan0 411#3260000000000000
(0000000000.647937) vcan0 022#FFFFFFFF00000303
(0000000000.654024) vcan0 010#00FF6130000009A7
(0000000000.654815) vcan0 231#000300000000090A
(0000000000.655111) vcan0 517#0100000000000000
(0000000000.656061) vcan0 102#0000195456CD07D1
(0000000000.656308) vcan0 103#0200020000000707
(0000000000.656534) vcan0 122#D32300CA1CE209CD
(0000000000.657010) vcan0 110#0000007B01050C73
(0000000000.657266) vcan0 300#00000D8C00660000
(0000000000.657484) vcan0 308#0012000000008200
(0000000000.657734) vcan0 316#13AD012B53000000
(0000000000.657987) vcan0 320#20000000F0008200
(0000000000.658212) vcan0 342#03C299997C000390
(0000000000.658459) vcan0 516#0000000000000000
(0000000000.665049) vcan0 010#00FF613000000AA4
(0000000000.665286) vcan0 012#9999320001000D3E
(0000000000.665836) vcan0 231#0003000000000A09
(0000000000.666059) vcan0 102#0000195456CD08DE
(0000000000.666309) vcan0 103#0200020000000808
(0000000000.666534) vcan0 122#D32300CA1CE20ACE
(0000000000.666785) vcan0 517#0100000000000000
(0000000000.667838) vcan0 400#000B58F0000104A6
(0000000000.668150) vcan0 408#0041330AFFFF047C
(0000000000.668383) vcan0 410#4300000000FF04B8
(0000000000.668660) vcan0 411#3260000000000000
(0000000000.668938) vcan0 022#FFFFFFFF00000404
(0000000000.675974) vcan0 010#00FF613000000BA5
(0000000000.676211) vcan0 102#0000195456CD09DF
(0000000000.676457) vcan0 103#0200020000000909
(0000000000.676685) vcan0 122#D32300CA1CE20BCF
(0000000000.676911) vcan0 110#0000007B01050D72
(0000000000.677163) vcan0 231#0003000000000B08
(0000000000.677435) vcan0 300#00000D8C00660000
(0000000000.677661) vcan0 308#0012000000008200
(0000000000.677910) vcan0 316#13AD012B53000000
(0000000000.678137) vcan0 320#20000000F0008200
(0000000000.678384) vcan0 342#03C299997C000390
(0000000000.678610) vcan0 516#0000000000000000
(0000000000.678859) vcan0 517#0000000000000000
(0000000000.686077) vcan0 102#0000195456CD0ADC
(0000000000.686311) vcan0 103#0200020000000A0A
(0000000000.686534) vcan0 122#D32300CA1CE20CC8
(0000000000.686985) vcan0 010#00FF613000000CA2
(0000000000.687237) vcan0 012#9999320000000E3C
(0000000000.687809) vcan0 231#0003000000000C0F
(0000000000.688109) vcan0 517#0000000000000000
(0000000000.688861) vcan0 400#000B58F0000105A7
(0000000000.689110) vcan0 408#0041330AFFFF057D
(0000000000.689408) vcan0 410#4300000000FF05B9
(0000000000.689684) vcan0 411#3260000000000000
(0000000000.689974) vcan0 022#FFFFFFFF00000505
(0000000000.696084) vcan0 102#0000195456CD0BDD
(0000000000.696287) vcan0 103#0200020000000B0B
(0000000000.696521) vcan0 122#D32300CA1CE20DC9
(0000000000.697008) vcan0 110#0000007B01050E71
(0000000000.697263) vcan0 308#0012000000008200
(0000000000.697482) vcan0 300#00000D8C00660000
(0000000000.697745) vcan0 316#13AD012B53000000
(0000000000.697960) vcan0 010#00FF613000000DA3
(0000000000.698213) vcan0 320#20000000F0008200
(0000000000.698458) vcan0 013#FF01090000000000
(0000000000.698711) vcan0 342#03C299997C000390
(0000000000.698938) vcan0 231#0003000000000D0E
(0000000000.699188) vcan0 516#0000000000000000
(0000000000.699435) vcan0 517#0100000000000000
(0000000000.706048) vcan0 102#0000195456CD0CDA
(0000000000.706285) vcan0 103#0200020000000C0C
(0000000000.706507) vcan0 122#D32300CA1CE20ECA
(0000000000.707812) vcan0 332#0100000000000D0C
(0000000000.708086) vcan0 530#FFFF704C64044900
(0000000000.708989) vcan0 010#00FF613000000EA0
(0000000000.709210) vcan0 012#9999320001000F3C
(0000000000.709884) vcan0 231#0003000000000E0D
(0000000000.710160) vcan0 400#000B58F0000106A4
(0000000000.710473) vcan0 408#0041330AFFFF067E
(0000000000.710721) vcan0 410#4300000000FF06BA
(0000000000.710996) vcan0 411#3260000000000000
(0000000000.711276) vcan0 022#FFFFFFFF00000606
(0000000000.711568) vcan0 517#0100000000000000
(0000000000.716052) vcan0 102#0000195456CD0DDB
(0000000000.716286) vcan0 103#0200020000000D0D
(0000000000.716507) vcan0 122#D32300CA1CE20FCB
(0000000000.716774) vcan0 110#0000007B01050F70
(0000000000.717012) vcan0 300#00000D8C00660000
(0000000000.717261) vcan0 308#0012000000008200
(0000000000.717485) vcan0 316#13AD012B53000000
(0000000000.717735) vcan0 320#20000000F0008200
(0000000000.717990) vcan0 342#03C299997C000390
(0000000000.718213) vcan0 516#0000000000000000
(0000000000.719951) vcan0 010#00FF613000000FA1
(0000000000.720840) vcan0 231#0003000000000003
(0000000000.721111) vcan0 517#0000000000000000
(0000000000.726074) vcan0 102#0000195456CD0ED8
(0000000000.726311) vcan0 103#0200020000000E0E
(0000000000.726510) vcan0 122#D32300CA1CE200C4
(0000000000.730874) vcan0 400#000B58F0000107A5
(0000000000.731087) vcan0 010#00FF6130000000AE
(0000000000.731385) vcan0 408#0041330AFFFF077F
(0000000000.731586) vcan0 012#9999320000000032
(0000000000.731837) vcan0 410#4300000000FF07BB
(0000000000.732112) vcan0 411#3260000000000000
(0000000000.732385) vcan0 022#FFFFFFFF00000707
(0000000000.732724) vcan0 231#0003000000000003
(0000000000.732937) vcan0 517#0000000000000000
(0000000000.736045) vcan0 102#0000195456CD0FD9
(0000000000.736286) vcan0 103#0200020000000F0F
(0000000000.736507) vcan0 122#D32300CA1CE201C5
(0000000000.736987) vcan0 110#0000007B0105007F
(0000000000.737237) vcan0 308#0012000000008200
(0000000000.737489) vcan0 300#00000D8C00660000
(0000000000.737734) vcan0 316#13AD012B53000000
(0000000000.737988) vcan0 320#20000000F0008200
(0000000000.738213) vcan0 342#03C299997C000390
(0000000000.738459) vcan0 516#0000000000000000
(0000000000.741931) vcan0 010#00FF6130000001AF
(0000000000.742861) vcan0 231#0003000000000201
(0000000000.743110) vcan0 517#0100000000000000
(0000000000.746034) vcan0 102#0000195456CD00D6
(0000000000.746283) vcan0 103#0200020000000000
(0000000000.746559) vcan0 122#D32300CA1CE202C6
(0000000000.751881) vcan0 400#000B58F0000108AA
(0000000000.752137) vcan0 408#0041330AFFFF0870
(0000000000.752436) vcan0 410#4300000000FF08B4
(0000000000.752712) vcan0 411#3260000000000000
(0000000000.752936) vcan0 010#00FF6130000002AC
(0000000000.753189) vcan0 022#FFFFFFFF00000808
(0000000000.753434) vcan0 012#9999320001000132
(0000000000.753672) vcan0 013#FF01090000000000
(0000000000.753909) vcan0 231#0003000000000300
(0000000000.754227) vcan0 517#0000000000000000
(0000000000.756041) vcan0 102#0000195456CD01D7
(0000000000.756285) vcan0 103#0200020000000101
(0000000000.756535) vcan0 122#D32300CA1CE203C7
(0000000000.756761) vcan0 110#0000007B0105017E
(0000000000.757012) vcan0 300#00000D8C00660000
(0000000000.757263) vcan0 308#0012000000008200
(0000000000.757511) vcan0 316#13AD012B53000000
(0000000000.757736) vcan0 320#20000000F0008200
(0000000000.757963) vcan0 342#03C299997C000390
(0000000000.758214) vcan0 516#0000000000000000
(0000000000.763920) vcan0 010#00FF6130000003AD
(0000000000.764841) vcan0 231#0003000000000407
(0000000000.765107) vcan0 517#0000000000000000
(0000000000.766038) vcan0 102#0000195456CD02D4
(0000000000.766287) vcan0 103#0200020000000202
(0000000000.766514) vcan0 122#D32300CA1CE204C0
(0000000000.772927) vcan0 400#000B58F000010AA8
(0000000000.773112) vcan0 408#0041330AFFFF0A72
(0000000000.773476) vcan0 410#4300000000FF09B5
(0000000000.773661) vcan0 411#3260000000000000
(0000000000.773964) vcan0 022#FFFFFFFF00000909
(0000000000.774987) vcan0 010#00FF6130000004AA
(0000000000.775161) vcan0 012#9999320000000230
(0000000000.775836) vcan0 231#0003000000000506
(0000000000.776113) vcan0 102#0000195456CD03D5
(0000000000.776314) vcan0 103#0200020000000303
(0000000000.776536) vcan0 122#D32300CA1CE205C1
(0000000000.776787) vcan0 517#0100000000000000
(0000000000.777037) vcan0 110#0000007B0105027D
(0000000000.777288) vcan0 300#00000D8C00660000
(0000000000.777535) vcan0 308#0012000000008200
(0000000000.777760) vcan0 316#13AD012B53000000
(0000000000.778011) vcan0 320#20000000F0008200
(0000000000.778237) vcan0 342#03C299997C000390
(0000000000.778484) vcan0 516#0000000000000000
(0000000000.785894) vcan0 010#00FF6130000005AB
(0000000000.786112) vcan0 102#0000195456CD04D2
(0000000000.786386) vcan0 103#0200020000000404
(0000000000.786587) vcan0 122#D32300CA1CE206C2
(0000000000.786839) vcan0 231#0003000000000605
(0000000000.787114) vcan0 517#0100000000000000
(0000000000.793875) vcan0 400#000B58F000010BA9
(0000000000.794114) vcan0 408#0041330AFFFF0B73
(0000000000.794387) vcan0 410#4300000000FF0AB6
(0000000000.794663) vcan0 411#3260000000000000
(0000000000.794939) vcan0 022#FFFFFFFF00000A0A
(0000000000.796045) vcan0 102#0000195456CD05D3
(0000000000.796289) vcan0 103#0200020000000505
(0000000000.796512) vcan0 122#D32300CA1CE207C3
(0000000000.796763) vcan0 110#0000007B0105037C
(0000000000.797013) vcan0 010#00FF6130000006A8
(0000000000.797263) vcan0 300#00000D8C00660000
(0000000000.797484) vcan0 012#9999320001000330
(0000000000.797737) vcan0 308#0012000000008200
(0000000000.797989) vcan0 231#0003000000000704
(0000000000.798215) vcan0 316#13AD012B53000000
(0000000000.798462) vcan0 320#20000000F0008200
(0000000000.798686) vcan0 342#03C299997C000390
(0000000000.798938) vcan0 516#0000000000000000
(0000000000.799190) vcan0 517#0000000000000000
(0000000000.806049) vcan0 102#0000195456CD06D0
(0000000000.806288) vcan0 103#0200020000000606
(0000000000.806518) vcan0 122#D32300CA1CE208CC
(0000000000.807861) vcan0 010#00FF6130000007A9
(0000000000.808088) vcan0 013#FF01090000000000
(0000000000.808836) vcan0 231#000300000000080B
(0000000000.809113) vcan0 332#0100000000000E0F
(0000000000.809411) vcan0 517#0000000000000000
(0000000000.809662) vcan0 530#FFFF704C64044900
(0000000000.814841) vcan0 400#000B58F000010CAE
(0000000000.815114) vcan0 408#0041330AFFFF0C74
(0000000000.815387) vcan0 410#4300000000FF0BB7
(0000000000.815663) vcan0 411#3260000000000000
(0000000000.815939) vcan0 022#FFFFFFFF00000B0B
(0000000000.816165) vcan0 102#0000195456CD07D1
(0000000000.816437) vcan0 103#0200020000000707
(0000000000.816640) vcan0 122#D32300CA1CE209CD
(0000000000.816989) vcan0 110#0000007B0105047B
(0000000000.817237) vcan0 308#0012000000008200
(0000000000.817487) vcan0 300#00000D8C00660000
(0000000000.817713) vcan0 316#13AD012B53000000
(0000000000.817964) vcan0 320#20000000F0008200
(0000000000.818190) vcan0 342#03C299997C000390
(0000000000.818438) vcan0 516#0000000000000000
(0000000000.818864) vcan0 010#00FF6130000008A6
(0000000000.819115) vcan0 012#9999320000000436
(0000000000.819841) vcan0 231#000300000000090A
(0000000000.820113) vcan0 517#0100000000000000
(0000000000.826075) vcan0 102#0000195456CD08DE
(0000000000.826288) vcan0 103#0200020000000808
(0000000000.826512) vcan0 122#D32300CA1CE20ACE
(0000000000.829853) vcan0 010#00FF6130000009A7
(0000000000.830820) vcan0 231#0003000000000A09
(0000000000.831113) vcan0 517#0100000000000000
(0000000000.835878) vcan0 400#000B58F000010DAF
(0000000000.836089) vcan0 102#0000195456CD09DF
(0000000000.836393) vcan0 103#0200020000000909
(0000000000.836563) vcan0 122#D32300CA1CE20BCF
(0000000000.836815) vcan0 110#0000007B0105057A
(0000000000.837041) vcan0 300#00000D8C00660000
(0000000000.837302) vcan0 308#0012000000008200
(0000000000.837535) vcan0 316#13AD012B53000000
(0000000000.837788) vcan0 320#20000000F0008200
(0000000000.838015) vcan0 342#03C299997C000390
(0000000000.838267) vcan0 408#0041330AFFFF0D75
(0000000000.838487) vcan0 516#0000000000000000
(0000000000.838739) vcan0 410#4300000000FF0CB0
(0000000000.839015) vcan0 411#3260000000000000
(0000000000.839315) vcan0 022#FFFFFFFF00000C0C
(0000000000.840864) vcan0 010#00FF613000000AA4
(0000000000.841087) vcan0 012#9999320001000536
(0000000000.841811) vcan0 231#0003000000000C0F
(0000000000.842145) vcan0 517#0000000000000000
(0000000000.846056) vcan0 102#0000195456CD0ADC
(0000000000.846288) vcan0 103#0200020000000A0A
(0000000000.846516) vcan0 122#D32300CA1CE20CC8
(0000000000.851832) vcan0 010#00FF613000000BA5
(0000000000.852851) vcan0 231#0003000000000D0E
(0000000000.853160) vcan0 517#0100000000000000
(0000000000.856043) vcan0 102#0000195456CD0BDD
(0000000000.856289) vcan0 103#0200020000000B0B
(0000000000.856486) vcan0 122#D32300CA1CE20DC9
(0000000000.856839) vcan0 400#000B58F000010EAC
(0000000000.857092) vcan0 110#0000007B01050679
(0000000000.857388) vcan0 300#00000D8C00660000
(0000000000.857588) vcan0 308#0012000000008200
(0000000000.857815) vcan0 316#13AD012B53000000
(0000000000.858066) vcan0 320#20000000F0008200
(0000000000.858291) vcan0 342#03C299997C000390
(0000000000.858538) vcan0 408#0041330AFFFF0E76
(0000000000.858787) vcan0 516#0000000000000000
(0000000000.859014) vcan0 410#4300000000FF0DB1
(0000000000.859316) vcan0 411#3260000000000000
(0000000000.859589) vcan0 022#FFFFFFFF00000D0D
(0000000000.862858) vcan0 010#00FF613000000CA2
(0000000000.863089) vcan0 012#9999320000000634
(0000000000.863316) vcan0 013#FF01090000000000
(0000000000.863813) vcan0 231#0003000000000E0D
(0000000000.864112) vcan0 517#0100000000000000
(0000000000.866055) vcan0 102#0000195456CD0CDA
(0000000000.866264) vcan0 103#0200020000000C0C
(0000000000.866513) vcan0 122#D32300CA1CE20ECA
(0000000000.873819) vcan0 010#00FF613000000DA3
(0000000000.874848) vcan0 231#0003000000000F0C
(0000000000.875088) vcan0 517#0000000000000000
(0000000000.876041) vcan0 102#0000195456CD0DDB
(0000000000.876264) vcan0 103#0200020000000D0D
(0000000000.876513) vcan0 122#D32300CA1CE20FCB
(0000000000.876764) vcan0 110#0000007B01050778
(0000000000.876990) vcan0 300#00000D8C00660000
(0000000000.877241) vcan0 308#0012000000008200
(0000000000.877463) vcan0 316#13AD012B53000000
(0000000000.877714) vcan0 320#20000000F0008200
(0000000000.877965) vcan0 342#03C299997C000390
(0000000000.878191) vcan0 400#000B58F000010FAD
(0000000000.878437) vcan0 516#0000000000000000
(0000000000.878689) vcan0 408#0041330AFFFF0F77
(0000000000.878940) vcan0 410#4300000000FF0EB2
(0000000000.879239) vcan0 411#3260000000000000
(0000000000.879513) vcan0 022#FFFFFFFF00000E0E
(0000000000.884812) vcan0 010#00FF613000000EA0
(0000000000.885039) vcan0 012#9999320001000734
(0000000000.885839) vcan0 231#0003000000000003
(0000000000.886065) vcan0 102#0000195456CD0ED8
(0000000000.886315) vcan0 103#0200020000000E0E
(0000000000.886549) vcan0 122#D32300CA1CE200C4
(0000000000.886790) vcan0 517#0000000000000000
(0000000000.895807) vcan0 010#00FF613000000FA1
(0000000000.896041) vcan0 102#0000195456CD0FD9
(0000000000.896266) vcan0 103#0200020000000F0F
(0000000000.896486) vcan0 122#D32300CA1CE201C5
(0000000000.896840) vcan0 231#0003000000000102
(0000000000.897065) vcan0 110#0000007B01050877
(0000000000.897317) vcan0 300#00000D8C00660000
(0000000000.897563) vcan0 308#0012000000008200
(0000000000.897802) vcan0 316#13AD012B53000000
(0000000000.898040) vcan0 320#20000000F0008200
(0000000000.898267) vcan0 342#03C299997C000390
(0000000000.898514) vcan0 516#0000000000000000
(0000000000.898765) vcan0 517#0100000000000000
(0000000000.899066) vcan0 400#000B58F0000100A2
(0000000000.899316) vcan0 408#0041330AFFFF0078
(0000000000.899613) vcan0 410#4300000000FF0FB3
(0000000000.899915) vcan0 411#3260000000000000
(0000000000.900191) vcan0 022#FFFFFFFF00000F0F
(0000000000.906090) vcan0 102#0000195456CD00D6
(0000000000.906266) vcan0 103#0200020000000000
(0000000000.906512) vcan0 122#D32300CA1CE202C6
(0000000000.906790) vcan0 010#00FF6130000000AE
(0000000000.907015) vcan0 012#999932000000083A
(0000000000.907840) vcan0 231#0003000000000201
(0000000000.908114) vcan0 517#0100000000000000
(0000000000.909837) vcan0 332#0100000000000F0E
(0000000000.910089) vcan0 530#FFFF704C64044900
(0000000000.916031) vcan0 102#0000195456CD01D7
(0000000000.916266) vcan0 103#0200020000000101
(0000000000.916514) vcan0 122#D32300CA1CE203C7
(0000000000.916739) vcan0 110#0000007B01050976
(0000000000.916995) vcan0 300#00000D8C00660000
(0000000000.917242) vcan0 308#0012000000008200
(0000000000.917488) vcan0 316#13AD012B53000000
(0000000000.917740) vcan0 320#20000000F0008200
(0000000000.917966) vcan0 010#00FF6130000001AF
(0000000000.918191) vcan0 342#03C299997C000390
(0000000000.918439) vcan0 013#FF01090000000000
(0000000000.918690) vcan0 516#0000000000000000
(0000000000.918941) vcan0 231#0003000000000300
(0000000000.919217) vcan0 517#0000000000000000
(0000000000.919865) vcan0 400#000B58F0000101A3
(0000000000.920115) vcan0 408#0041330AFFFF0179
(0000000000.920414) vcan0 410#4300000000FF00BC
(0000000000.920663) vcan0 411#3260000000000000
(0000000000.920966) vcan0 022#FFFFFFFF00000000
(0000000000.926054) vcan0 102#0000195456CD02D4
(0000000000.926290) vcan0 103#0200020000000202
(0000000000.926524) vcan0 122#D32300CA1CE204C0
(0000000000.928805) vcan0 010#00FF6130000002AC
(0000000000.929016) vcan0 012#999932000100093A
(0000000000.929840) vcan0 231#0003000000000407
(0000000000.930115) vcan0 517#0000000000000000
(0000000000.936055) vcan0 102#0000195456CD03D5
(0000000000.936290) vcan0 103#0200020000000303
(0000000000.936524) vcan0 122#D32300CA1CE205C1
(0000000000.936991) vcan0 110#0000007B01050A75
(0000000000.937216) vcan0 308#0012000000008200
(0000000000.937490) vcan0 300#00000D8C00660000
(0000000000.937716) vcan0 316#13AD012B53000000
(0000000000.937966) vcan0 320#20000000F0008200
(0000000000.938193) vcan0 342#03C299997C000390
(0000000000.938447) vcan0 516#0000000000000000
(0000000000.939717) vcan0 010#00FF6130000003AD
(0000000000.940940) vcan0 231#0003000000000605
(0000000000.941213) vcan0 400#000B58F0000102A0
(0000000000.941489) vcan0 408#0041330AFFFF027A
(0000000000.941804) vcan0 410#4300000000FF02BE
(0000000000.942066) vcan0 411#3260000000000000
(0000000000.942390) vcan0 022#FFFFFFFF00000202
(0000000000.942613) vcan0 517#0100000000000000
(0000000000.946032) vcan0 102#0000195456CD04D2
(0000000000.946267) vcan0 103#0200020000000404
(0000000000.946516) vcan0 122#D32300CA1CE206C2
(0000000000.950757) vcan0 010#00FF6130000004AA
(0000000000.950978) vcan0 012#9999320000000A38
(0000000000.951841) vcan0 231#0003000000000605
(0000000000.952116) vcan0 517#0100000000000000
(0000000000.956063) vcan0 102#0000195456CD05D3
(0000000000.956290) vcan0 103#0200020000000505
(0000000000.956515) vcan0 122#D32300CA1CE207C3
(0000000000.956741) vcan0 110#0000007B01050B74
(0000000000.956991) vcan0 300#00000D8C00660000
(0000000000.957242) vcan0 308#0012000000008200
(0000000000.957490) vcan0 316#13AD012B53000000
(0000000000.957716) vcan0 320#20000000F0008200
(0000000000.957967) vcan0 342#03C299997C000390
(0000000000.958218) vcan0 516#0000000000000000
(0000000000.961733) vcan0 010#00FF6130000005AB
(0000000000.961941) vcan0 400#000B58F0000103A1
(0000000000.962216) vcan0 408#0041330AFFFF037B
(0000000000.962490) vcan0 410#4300000000FF03BF
(0000000000.962791) vcan0 411#3260000000000000
(0000000000.963067) vcan0 022#FFFFFFFF00000303
(0000000000.963389) vcan0 231#000300000000080B
(0000000000.963614) vcan0 517#0000000000000000
(0000000000.966053) vcan0 102#0000195456CD06D0
(0000000000.966291) vcan0 103#0200020000000606
(0000000000.966529) vcan0 122#D32300CA1CE208CC
(0000000000.972735) vcan0 010#00FF6130000006A8
(0000000000.972966) vcan0 012#9999320001000B38
(0000000000.973238) vcan0 013#FF01090000000000
(0000000000.973841) vcan0 231#000300000000090A
(0000000000.974091) vcan0 517#0100000000000000
(0000000000.976047) vcan0 102#0000195456CD07D1
(0000000000.976291) vcan0 103#0200020000000707
(0000000000.976514) vcan0 122#D32300CA1CE209CD
(0000000000.976967) vcan0 110#0000007B01050C73
(0000000000.977217) vcan0 308#0012000000008200
(0000000000.977465) vcan0 300#00000D8C00660000
(0000000000.977688) vcan0 316#13AD012B53000000
(0000000000.977941) vcan0 320#20000000F0008200
(0000000000.978168) vcan0 342#03C299997C000390
(0000000000.978441) vcan0 516#0000000000000000
(0000000000.982862) vcan0 400#000B58F0000104A6
(0000000000.983142) vcan0 408#0041330AFFFF047C
(0000000000.983390) vcan0 410#4300000000FF04B8
(0000000000.983666) vcan0 411#3260000000000000
(0000000000.983916) vcan0 010#00FF6130000007A9
(0000000000.984168) vcan0 022#FFFFFFFF00000404
(0000000000.984840) vcan0 231#0003000000000A09
(0000000000.985091) vcan0 517#0100000000000000
(0000000000.986043) vcan0 102#0000195456CD08DE
(0000000000.986266) vcan0 103#0200020000000808
(0000000000.986493) vcan0 122#D32300CA1CE20ACE
(0000000000.994735) vcan0 010#00FF6130000008A6
(0000000000.994941) vcan0 012#9999320000000C3E
(0000000000.995842) vcan0 231#0003000000000B08
(0000000000.996066) vcan0 102#0000195456CD09DF
(0000000000.996292) vcan0 103#0200020000000909
(0000000000.996540) vcan0 122#D32300CA1CE20BCF
(0000000000.996791) vcan0 110#0000007B01050D72
(0000000000.997017) vcan0 300#00000D8C00660000
(0000000000.997269) vcan0 308#0012000000008200
(0000000000.997490) vcan0 316#13AD012B53000000
(0000000000.997741) vcan0 320#20000000F0008200
(0000000000.997993) vcan0 342#03C299997C000390
(0000000000.998243) vcan0 516#0000000000000000
(0000000000.998491) vcan0 517#0000000000000000
(0000000001.003882) vcan0 400#000B58F0000105A7
(0000000001.004143) vcan0 408#0041330AFFFF057D
(0000000001.004427) vcan0 410#4300000000FF05B9
(0000000001.004726) vcan0 411#3260000000000000
(0000000001.004976) vcan0 022#FFFFFFFF00000505
(0000000001.005700) vcan0 010#00FF6130000009A7
(0000000001.006017) vcan0 102#0000195456CD0ADC
(0000000001.006308) vcan0 103#0200020000000A0A
(0000000001.006530) vcan0 122#D32300CA1CE20CC8
(0000000001.006824) vcan0 231#0003000000000C0F
(0000000001.007099) vcan0 517#0000000000000000
(0000000001.010972) vcan0 332#0100000000000001
(0000000001.011107) vcan0 530#FFFF704C64044900
(0000000001.016029) vcan0 102#0000195456CD0BDD
(0000000001.016268) vcan0 103#0200020000000B0B
(0000000001.016488) vcan0 122#D32300CA1CE20DC9
(0000000001.016741) vcan0 010#00FF613000000AA4
(0000000001.016993) vcan0 110#0000007B01050E71
(0000000001.017219) vcan0 012#9999320001000D3E
(0000000001.017441) vcan0 300#00000D8C00660000
(0000000001.017692) vcan0 308#0012000000008200
(0000000001.017942) vcan0 231#0003000000000D0E
(0000000001.018195) vcan0 316#13AD012B53000000
(0000000001.018487) vcan0 320#20000000F0008200
(0000000001.018672) vcan0 342#03C299997C000390
(0000000001.018923) vcan0 516#0000000000000000
(0000000001.019202) vcan0 517#0100000000000000
(0000000001.024939) vcan0 400#000B58F0000106A4
(0000000001.025116) vcan0 408#0041330AFFFF067E
(0000000001.025481) vcan0 410#4300000000FF06BA
(0000000001.025667) vcan0 411#3260000000000000
(0000000001.025977) vcan0 022#FFFFFFFF00000606
(0000000001.026216) vcan0 102#0000195456CD0CDA
(0000000001.026416) vcan0 103#0200020000000C0C
(0000000001.026639) vcan0 122#D32300CA1CE20ECA
(0000000001.027642) vcan0 010#00FF613000000BA5
(0000000001.027893) vcan0 013#FF01090000000000
(0000000001.028845) vcan0 231#0003000000000E0D
(0000000001.029117) vcan0 517#0100000000000000
(0000000001.036023) vcan0 102#0000195456CD0DDB
(0000000001.036267) vcan0 103#0200020000000D0D
(0000000001.036489) vcan0 122#D32300CA1CE20FCB
(0000000001.036741) vcan0 110#0000007B01050F70
(0000000001.036993) vcan0 300#00000D8C00660000
(0000000001.037244) vcan0 308#0012000000008200
(0000000001.037466) vcan0 316#13AD012B53000000
(0000000001.037716) vcan0 320#20000000F0008200
(0000000001.037943) vcan0 342#03C299997C000390
(0000000001.038195) vcan0 516#0000000000000000
(0000000001.038641) vcan0 010#00FF613000000CA2
(0000000001.038867) vcan0 012#9999320000000E3C
(0000000001.039843) vcan0 231#0003000000000F0C
(0000000001.040092) vcan0 517#0000000000000000
(0000000001.045879) vcan0 400#000B58F0000107A5
(0000000001.046089) vcan0 102#0000195456CD0ED8
(0000000001.046391) vcan0 103#0200020000000E0E
(0000000001.046567) vcan0 122#D32300CA1CE200C4
(0000000001.046816) vcan0 408#0041330AFFFF077F
(0000000001.047092) vcan0 410#4300000000FF07BB
(0000000001.047388) vcan0 411#3260000000000000
(0000000001.047640) vcan0 022#FFFFFFFF00000707
(0000000001.049629) vcan0 010#00FF613000000DA3
(0000000001.050845) vcan0 231#0003000000000003
(0000000001.051119) vcan0 517#0000000000000000
(0000000001.056036) vcan0 102#0000195456CD0FD9
(0000000001.056268) vcan0 103#0200020000000F0F
(0000000001.056492) vcan0 122#D32300CA1CE201C5
(0000000001.056968) vcan0 110#0000007B0105007F
(0000000001.057219) vcan0 300#00000D8C00660000
(0000000001.057466) vcan0 308#0012000000008200
(0000000001.057718) vcan0 316#13AD012B53000000
(0000000001.057944) vcan0 320#20000000F0008200
(0000000001.058193) vcan0 342#03C299997C000390
(0000000001.058442) vcan0 516#0000000000000000
(0000000001.060646) vcan0 010#00FF613000000EA0
(0000000001.060874) vcan0 012#9999320001000F3C
(0000000001.061843) vcan0 231#0003000000000201
(0000000001.062092) vcan0 517#0100000000000000
(0000000001.066035) vcan0 102#0000195456CD00D6
(0000000001.066284) vcan0 103#0200020000000000
(0000000001.066496) vcan0 122#D32300CA1CE202C6
(0000000001.066869) vcan0 400#000B58F0000108AA
(0000000001.067123) vcan0 408#0041330AFFFF0870
(0000000001.067392) vcan0 410#4300000000FF08B4
(0000000001.067668) vcan0 411#3260000000000000
(0000000001.067944) vcan0 022#FFFFFFFF00000808
(0000000001.071607) vcan0 010#00FF613000000FA1
(0000000001.072823) vcan0 231#0003000000000300
(0000000001.073115) vcan0 517#0000000000000000
(0000000001.076025) vcan0 102#0000195456CD01D7
(0000000001.076268) vcan0 103#0200020000000101
(0000000001.076492) vcan0 122#D32300CA1CE203C7
(0000000001.076743) vcan0 110#0000007B0105017E
(0000000001.076992) vcan0 300#00000D8C00660000
(0000000001.077217) vcan0 308#0012000000008200
(0000000001.077464) vcan0 316#13AD012B53000000
(0000000001.077716) vcan0 320#20000000F0008200
(0000000001.077942) vcan0 342#03C299997C000390
(0000000001.078192) vcan0 516#0000000000000000
(0000000001.082606) vcan0 010#00FF6130000000AE
(0000000001.082843) vcan0 012#9999320000000032
(0000000001.083095) vcan0 013#FF01090000000000
(0000000001.083842) vcan0 231#0003000000000407
(0000000001.084092) vcan0 517#0000000000000000
(0000000001.086021) vcan0 102#0000195456CD02D4
(0000000001.086268) vcan0 103#0200020000000202
(0000000001.086492) vcan0 122#D32300CA1CE204C0
(0000000001.087868) vcan0 400#000B58F0000109AB
(0000000001.088119) vcan0 408#0041330AFFFF0971
(0000000001.088396) vcan0 410#4300000000FF09B5
(0000000001.088670) vcan0 411#3260000000000000
(0000000001.088968) vcan0 022#FFFFFFFF00000909
(0000000001.093583) vcan0 010#00FF6130000001AF
(0000000001.094823) vcan0 231#0003000000000506
(0000000001.095093) vcan0 517#0100000000000000
(0000000001.096016) vcan0 102#0000195456CD03D5
(0000000001.096270) vcan0 103#0200020000000303
(0000000001.096492) vcan0 122#D32300CA1CE205C1
(0000000001.096968) vcan0 110#0000007B0105027D
(0000000001.097219) vcan0 308#0012000000008200
(0000000001.097469) vcan0 300#00000D8C00660000
(0000000001.097694) vcan0 316#13AD012B53000000
(0000000001.097944) vcan0 320#20000000F0008200
(0000000001.098195) vcan0 342#03C299997C000390
(0000000001.098442) vcan0 516#0000000000000000
(0000000001.104607) vcan0 010#00FF6130000002AC
(0000000001.104820) vcan0 012#9999320001000132
(0000000001.105822) vcan0 231#0003000000000605
(0000000001.106068) vcan0 102#0000195456CD04D2
(0000000001.106320) vcan0 103#0200020000000404
(0000000001.106539) vcan0 122#D32300CA1CE206C2
(0000000001.106793) vcan0 517#0100000000000000
(0000000001.108847) vcan0 400#000B58F000010AA8
(0000000001.109144) vcan0 408#0041330AFFFF0A72
(0000000001.109416) vcan0 410#4300000000FF0AB6
(0000000001.109692) vcan0 411#3260000000000000
(0000000001.109985) vcan0 022#FFFFFFFF00000A0A
(0000000001.111849) vcan0 332#0100000000000100
(0000000001.112094) vcan0 530#FFFF704C64044900
(0000000001.115573) vcan0 010#00FF6130000003AD
(0000000001.116020) vcan0 102#0000195456CD05D3
(0000000001.116269) vcan0 103#0200020000000505
(0000000001.116491) vcan0 122#D32300CA1CE207C3
(0000000001.116742) vcan0 110#0000007B0105037C
(0000000001.117010) vcan0 231#0003000000000704
(0000000001.117223) vcan0 300#00000D8C00660000
(0000000001.117465) vcan0 308#0012000000008200
(0000000001.117734) vcan0 316#13AD012B53000000
(0000000001.117943) vcan0 320#20000000F0008200
(0000000001.118196) vcan0 342#03C299997C000390
(0000000001.118443) vcan0 516#0000000000000000
(0000000001.118668) vcan0 517#0000000000000000
(0000000001.126032) vcan0 102#0000195456CD06D0
(0000000001.126268) vcan0 103#0200020000000606
(0000000001.126492) vcan0 122#D32300CA1CE208CC
(0000000001.126744) vcan0 010#00FF6130000004AA
(0000000001.126969) vcan0 012#9999320000000230
(0000000001.127876) vcan0 231#000300000000080B
(0000000001.128119) vcan0 517#0000000000000000
(0000000001.129878) vcan0 400#000B58F000010BA9
(0000000001.130146) vcan0 408#0041330AFFFF0B73
(0000000001.130452) vcan0 410#4300000000FF0BB7
(0000000001.130695) vcan0 411#3260000000000000
(0000000001.130971) vcan0 022#FFFFFFFF00000B0B
(0000000001.136036) vcan0 102#0000195456CD07D1
(0000000001.136271) vcan0 103#0200020000000707
(0000000001.136490) vcan0 122#D32300CA1CE209CD
(0000000001.136969) vcan0 110#0000007B0105047B
(0000000001.137220) vcan0 308#0012000000008200
(0000000001.137468) vcan0 300#00000D8C00660000
(0000000001.137694) vcan0 010#00FF6130000005AB
(0000000001.137920) vcan0 316#13AD012B53000000
(0000000001.138172) vcan0 013#FF01090000000000
(0000000001.138443) vcan0 320#20000000F0008200
(0000000001.138670) vcan0 342#03C299997C000390
(0000000001.138895) vcan0 231#000300000000090A
(0000000001.139144) vcan0 516#0000000000000000
(0000000001.139418) vcan0 517#0100000000000000
(0000000001.146038) vcan0 102#0000195456CD08DE
(0000000001.146270) vcan0 103#0200020000000808
(0000000001.146493) vcan0 122#D32300CA1CE20ACE
(0000000001.148568) vcan0 010#00FF6130000006A8
(0000000001.148792) vcan0 012#9999320001000330
(0000000001.149876) vcan0 231#0003000000000A09
(0000000001.150145) vcan0 517#0100000000000000
(0000000001.150869) vcan0 400#000B58F000010CAE
(0000000001.151170) vcan0 408#0041330AFFFF0C74
(0000000001.151419) vcan0 410#4300000000FF0CB0
(0000000001.151719) vcan0 411#3260000000000000
(0000000001.151971) vcan0 022#FFFFFFFF00000C0C
(0000000001.156038) vcan0 102#0000195456CD09DF
(0000000001.156268) vcan0 103#0200020000000909
(0000000001.156505) vcan0 122#D32300CA1CE20BCF
(0000000001.156719) vcan0 110#0000007B0105057A
(0000000001.156971) vcan0 300#00000D8C00660000
(0000000001.157221) vcan0 308#0012000000008200
(0000000001.157443) vcan0 316#13AD012B53000000
(0000000001.157694) vcan0 320#20000000F0008200
(0000000001.157921) vcan0 342#03C299997C000390
(0000000001.158173) vcan0 516#0000000000000000
(0000000001.159527) vcan0 010#00FF6130000007A9
(0000000001.160904) vcan0 231#0003000000000C0F
(0000000001.161171) vcan0 517#0000000000000000
(0000000001.166038) vcan0 102#0000195456CD0ADC
(0000000001.166245) vcan0 103#0200020000000A0A
(0000000001.166494) vcan0 122#D32300CA1CE20CC8
(0000000001.170532) vcan0 010#00FF6130000008A6
(0000000001.170745) vcan0 012#9999320000000436
(0000000001.171931) vcan0 231#0003000000000C0F
(0000000001.172206) vcan0 400#000B58F000010DAF
(0000000001.172445) vcan0 408#0041330AFFFF0D75
(0000000001.172695) vcan0 410#4300000000FF0DB1
(0000000001.172995) vcan0 411#3260000000000000
(0000000001.173332) vcan0 022#FFFFFFFF00000D0D
(0000000001.173550) vcan0 517#0000000000000000
(0000000001.176055) vcan0 102#0000195456CD0BDD
(0000000001.176270) vcan0 103#0200020000000B0B
(0000000001.176469) vcan0 122#D32300CA1CE20DC9
(0000000001.176944) vcan0 110#0000007B01050679
(0000000001.177198) vcan0 300#00000D8C00660000
(0000000001.177465) vcan0 308#0012000000008200
(0000000001.177710) vcan0 316#13AD012B53000000
(0000000001.177942) vcan0 320#20000000F0008200
(0000000001.178168) vcan0 342#03C299997C000390
(0000000001.178419) vcan0 516#0000000000000000
(0000000001.181513) vcan0 010#00FF6130000009A7
(0000000001.182876) vcan0 231#0003000000000E0D
(0000000001.183122) vcan0 517#0100000000000000
(0000000001.186038) vcan0 102#0000195456CD0CDA
(0000000001.186270) vcan0 103#0200020000000C0C
(0000000001.186484) vcan0 122#D32300CA1CE20ECA
(0000000001.192572) vcan0 010#00FF613000000AA4
(0000000001.192746) vcan0 012#9999320001000536
(0000000001.192968) vcan0 400#000B58F000010EAC
(0000000001.193227) vcan0 013#FF01090000000000
(0000000001.193470) vcan0 408#0041330AFFFF0E76
(0000000001.193770) vcan0 410#4300000000FF0EB2
(0000000001.194072) vcan0 411#3260000000000000
(0000000001.194395) vcan0 022#FFFFFFFF00000E0E
(0000000001.194620) vcan0 231#0003000000000E0D
(0000000001.194896) vcan0 517#0100000000000000
(0000000001.196068) vcan0 102#0000195456CD0DDB
(0000000001.196245) vcan0 103#0200020000000D0D
(0000000001.196472) vcan0 122#D32300CA1CE20FCB
(0000000001.196720) vcan0 110#0000007B01050778
(0000000001.196972) vcan0 300#00000D8C00660000
(0000000001.197221) vcan0 308#0012000000008200
(0000000001.197445) vcan0 316#13AD012B53000000
(0000000001.197695) vcan0 320#20000000F0008200
(0000000001.197919) vcan0 342#03C299997C000390
(0000000001.198172) vcan0 516#0000000000000000
(0000000001.203466) vcan0 010#00FF613000000BA5
(0000000001.204860) vcan0 231#0003000000000003
(0000000001.205096) vcan0 517#0000000000000000
(0000000001.206000) vcan0 102#0000195456CD0ED8
(0000000001.206245) vcan0 103#0200020000000E0E
(0000000001.206470) vcan0 122#D32300CA1CE200C4
(0000000001.212887) vcan0 332#0100000000000203
(0000000001.213147) vcan0 530#FFFF704C64044900
(0000000001.213867) vcan0 400#000B58F0000100A2
(0000000001.214120) vcan0 408#0041330AFFFF0078
(0000000001.214393) vcan0 410#4300000000FF0FB3
(0000000001.214643) vcan0 010#00FF613000000CA2
(0000000001.214914) vcan0 411#3260000000000000
(0000000001.215122) vcan0 012#9999320000000634
(0000000001.215396) vcan0 022#FFFFFFFF00000F0F
(0000000001.215844) vcan0 231#0003000000000102
(0000000001.216069) vcan0 102#0000195456CD0FD9
(0000000001.216321) vcan0 103#0200020000000F0F
(0000000001.216544) vcan0 122#D32300CA1CE201C5
(0000000001.216794) vcan0 517#0100000000000000
(0000000001.217045) vcan0 110#0000007B01050877
(0000000001.217271) vcan0 300#00000D8C00660000
(0000000001.217520) vcan0 308#0012000000008200
(0000000001.217746) vcan0 316#13AD012B53000000
(0000000001.217996) vcan0 320#20000000F0008200
(0000000001.218248) vcan0 342#03C299997C000390
(0000000001.218497) vcan0 516#0000000000000000
(0000000001.225463) vcan0 010#00FF613000000DA3
(0000000001.226000) vcan0 102#0000195456CD00D6
(0000000001.226246) vcan0 103#0200020000000000
(0000000001.226495) vcan0 122#D32300CA1CE202C6
(0000000001.226844) vcan0 231#0003000000000201
(0000000001.227120) vcan0 517#0100000000000000
(0000000001.234885) vcan0 400#000B58F0000101A3
(0000000001.235123) vcan0 408#0041330AFFFF0179
(0000000001.235397) vcan0 410#4300000000FF00BC
(0000000001.235669) vcan0 411#3260000000000000
(0000000001.235948) vcan0 022#FFFFFFFF00000000
(0000000001.236173) vcan0 102#0000195456CD01D7
(0000000001.236445) vcan0 103#0200020000000101
(0000000001.236669) vcan0 010#00FF613000000EA0
(0000000001.236922) vcan0 110#0000007B01050976
(0000000001.237153) vcan0 012#9999320001000734
(0000000001.237393) vcan0 122#D32300CA1CE203C7
(0000000001.237622) vcan0 300#00000D8C00660000
(0000000001.237872) vcan0 231#0003000000000300
(0000000001.238128) vcan0 308#0012000000008200
(0000000001.238395) vcan0 316#13AD012B53000000
(0000000001.238596) vcan0 320#20000000F0008200
(0000000001.238822) vcan0 342#03C299997C000390
(0000000001.239073) vcan0 516#0000000000000000
(0000000001.239324) vcan0 517#0000000000000000
(0000000001.246038) vcan0 102#0000195456CD02D4
(0000000001.246247) vcan0 103#0200020000000202
(0000000001.246491) vcan0 122#D32300CA1CE204C0
(0000000001.247398) vcan0 010#00FF613000000FA1
(0000000001.247672) vcan0 013#FF01090000000000
(0000000001.248888) vcan0 231#0002000000000406
(0000000001.249120) vcan0 517#0000000000000000
(0000000001.255922) vcan0 400#000B58F0000102A0
(0000000001.256097) vcan0 102#0000195456CD03D5
(0000000001.256420) vcan0 103#0200020000000303
(0000000001.256568) vcan0 122#D32300CA1CE205C1
(0000000001.256822) vcan0 408#0041330AFFFF027A
(0000000001.257046) vcan0 110#0000007B01050A75
(0000000001.257300) vcan0 300#00000D8C00660000
(0000000001.257543) vcan0 308#0012000000008200
(0000000001.257804) vcan0 316#13AD012B53000000
(0000000001.258029) vcan0 320#20000000F0008200
(0000000001.258273) vcan0 342#03C299997C000390
(0000000001.258518) vcan0 010#00FF6130000000AE
(0000000001.258771) vcan0 410#4300000000FF01BD
(0000000001.258995) vcan0 012#999932000000083A
(0000000001.259249) vcan0 411#3260000000000000
(0000000001.259502) vcan0 516#0000000000000000
(0000000001.259744) vcan0 022#FFFFFFFF00000101
(0000000001.260023) vcan0 231#0002000000000507
(0000000001.260323) vcan0 517#0100000000000000
(0000000001.266080) vcan0 102#0000195456CD04D2
(0000000001.266247) vcan0 103#0200020000000404
(0000000001.266470) vcan0 122#D32300CA1CE206C2
(0000000001.269406) vcan0 010#00FF6130000001AF
(0000000001.270853) vcan0 231#0002000000000604
(0000000001.271120) vcan0 517#0100000000000000
(0000000001.276041) vcan0 102#0000195456CD05D3
(0000000001.276247) vcan0 103#0200020000000505
(0000000001.276496) vcan0 122#D32300CA1CE207C3
(0000000001.276722) vcan0 110#0000007B01050B74
(0000000001.276971) vcan0 300#00000D8C00660000
(0000000001.277196) vcan0 308#0012000000008200
(0000000001.277444) vcan0 316#13AD012B53000000
(0000000001.277695) vcan0 320#20000000F0008200
(0000000001.277923) vcan0 342#03C299997C000390
(0000000001.278175) vcan0 400#000B58F0000103A1
(0000000001.278419) vcan0 516#0000000000000000
(0000000001.278672) vcan0 408#0041330AFFFF037B
(0000000001.278950) vcan0 410#4300000000FF02BE
(0000000001.279221) vcan0 411#3260000000000000
(0000000001.279495) vcan0 022#FFFFFFFF00000202
(0000000001.280422) vcan0 010#00FF6130000002AC
(0000000001.280643) vcan0 012#999932000100093A
(0000000001.281825) vcan0 231#000200000000080A
(0000000001.282122) vcan0 517#0000000000000000
(0000000001.286016) vcan0 102#0000195456CD06D0
(0000000001.286247) vcan0 103#0200020000000606
(0000000001.286481) vcan0 122#D32300CA1CE208CC
(0000000001.291419) vcan0 010#00FF6130000003AD
(0000000001.292857) vcan0 231#000200000000080A
(0000000001.293123) vcan0 517#0000000000000000
(0000000001.296016) vcan0 102#0000195456CD07D1
(0000000001.296248) vcan0 103#0200020000000707
(0000000001.296494) vcan0 122#D32300CA1CE209CD
(0000000001.296972) vcan0 110#0000007B01050C73
(0000000001.297196) vcan0 308#0012000000008200
(0000000001.297446) vcan0 300#00000D8C00660000
(0000000001.297672) vcan0 316#13AD012B53000000
(0000000001.297922) vcan0 320#20000000F0008200
(0000000001.298149) vcan0 342#03C299997C000390
(0000000001.298393) vcan0 400#000B58F0000104A6
(0000000001.298647) vcan0 516#0000000000000000
(0000000001.298896) vcan0 408#0041330AFFFF047C
(0000000001.299175) vcan0 410#4300000000FF03BF
(0000000001.299444) vcan0 411#3260000000000000
(0000000001.299773) vcan0 022#FFFFFFFF00000303
(0000000001.302415) vcan0 010#00FF6130000004AA
(0000000001.302623) vcan0 012#9999320000000A38
(0000000001.302871) vcan0 013#FF01090000000000
(0000000001.303823) vcan0 231#0002000000000A08
(0000000001.304097) vcan0 517#0100000000000000
(0000000001.306012) vcan0 102#0000195456CD08DE
(0000000001.306246) vcan0 103#0200020000000808
(0000000001.306471) vcan0 122#D32300CA1CE20ACE
(0000000001.313370) vcan0 010#00FF6130000005AB
(0000000001.313849) vcan0 332#0100000000000302
(0000000001.314097) vcan0 530#FFFF704C64044900
(0000000001.314823) vcan0 231#0002000000000B09
(0000000001.315095) vcan0 517#0000000000000000
(0000000001.315997) vcan0 102#0000195456CD09DF
(0000000001.316248) vcan0 103#0200020000000909
(0000000001.316471) vcan0 122#D32300CA1CE20BCF
(0000000001.316697) vcan0 110#0000007B01050D72
(0000000001.316949) vcan0 300#00000D8C00660000
(0000000001.317197) vcan0 308#0012000000008200
(0000000001.317444) vcan0 316#13AD012B53000000
(0000000001.317697) vcan0 320#20000000F0008200
(0000000001.317923) vcan0 342#03C299997C000390
(0000000001.318176) vcan0 516#0000000000000000
(0000000001.318873) vcan0 400#000B58F0000105A7
(0000000001.319148) vcan0 408#0041330AFFFF057D
(0000000001.319420) vcan0 410#4300000000FF04B8
(0000000001.319696) vcan0 411#3260000000000000
(0000000001.319998) vcan0 022#FFFFFFFF00000404
(0000000001.324416) vcan0 010#00FF6130000006A8
(0000000001.324597) vcan0 012#9999320001000B38
(0000000001.325848) vcan0 231#0002000000000C0E
(0000000001.326071) vcan0 102#0000195456CD0ADC
(0000000001.326323) vcan0 103#0200020000000A0A
(0000000001.326547) vcan0 122#D32300CA1CE20CC8
(0000000001.326803) vcan0 517#0000000000000000
(0000000001.335339) vcan0 010#00FF6130000007A9
(0000000001.336004) vcan0 102#0000195456CD0BDD
(0000000001.336248) vcan0 103#0200020000000B0B
(0000000001.336472) vcan0 122#D32300CA1CE20DC9
(0000000001.336823) vcan0 231#0002000000000D0F
(0000000001.337072) vcan0 110#0000007B01050E71
(0000000001.337329) vcan0 300#00000D8C00660000
(0000000001.337569) vcan0 308#0012000000008200
(0000000001.337805) vcan0 316#13AD012B53000000
(0000000001.338049) vcan0 320#20000000F0008200
(0000000001.338274) vcan0 342#03C299997C000390
(0000000001.338527) vcan0 516#0000000000000000
(0000000001.338773) vcan0 517#0100000000000000
(0000000001.339881) vcan0 400#000B58F0000106A4
(0000000001.340148) vcan0 408#0041330AFFFF067E
(0000000001.340396) vcan0 410#4300000000FF05B9
(0000000001.340698) vcan0 411#3260000000000000
(0000000001.340949) vcan0 022#FFFFFFFF00000505
(0000000001.346016) vcan0 102#0000195456CD0CDA
(0000000001.346223) vcan0 103#0200020000000C0C
(0000000001.346469) vcan0 010#00FF6130000008A6
(0000000001.346695) vcan0 122#D32300CA1CE20ECA
(0000000001.346953) vcan0 012#9999320000000C3E
(0000000001.347846) vcan0 231#0001000000000E0F
(0000000001.348125) vcan0 517#0100000000000000
(0000000001.356019) vcan0 102#0000195456CD0DDB
(0000000001.356253) vcan0 103#0200020000000D0D
(0000000001.356471) vcan0 122#D32300CA1CE20FCB
(0000000001.356695) vcan0 110#0000007B01050F70
(0000000001.356969) vcan0 300#00000D8C00660000
(0000000001.357199) vcan0 308#0012000000008200
(0000000001.357448) vcan0 010#00FF6130000009A7
(0000000001.357672) vcan0 316#13AD012B53000000
(0000000001.357926) vcan0 013#FF01090000000000
