Time Stamp,ID,Extended,Dir,Bus,LEN,D1,D2,D3,D4,D5,D6,D7,D8
1453387832,00000231,false,Rx,0,8,00,01,00,00,00,00,05,04,
1453388046,00000010,false,Rx,0,8,00,FF,61,30,00,00,0E,A0,
1453388290,00000517,false,Rx,0,8,01,00,00,00,00,00,00,00,
1453388534,00000012,false,Rx,0,8,99,99,32,00,01,00,0F,3C,
1453388767,00000013,false,Rx,0,8,FF,01,09,00,00,00,00,00,
1453390121,00000102,false,Rx,0,8,00,00,19,54,56,CD,03,D5,
1453390367,00000103,false,Rx,0,8,02,00,02,00,00,00,03,03,
1453390616,00000122,false,Rx,0,8,D3,23,00,CA,1C,E2,05,C1,
1453391091,00000110,false,Rx,0,8,00,00,00,7B,01,05,0A,75,
1453391365,00000308,false,Rx,0,8,00,12,00,00,00,00,82,00,
1453391566,00000300,false,Rx,0,8,00,00,0D,8C,00,66,00,00,
1453391802,00000316,false,Rx,0,8,13,AD,01,2B,53,00,00,00,
1453392043,00000320,false,Rx,0,8,20,00,00,00,F0,00,82,00,
1453392295,00000342,false,Rx,0,8,03,C2,99,99,7C,00,03,90,
1453392540,00000516,false,Rx,0,8,00,00,00,00,00,00,00,00,
1453393846,00000400,false,Rx,0,8,00,0B,58,F0,00,01,02,A0,
1453394090,00000408,false,Rx,0,8,00,41,33,0A,FF,FF,02,7A,
1453394365,00000410,false,Rx,0,8,43,00,00,00,00,FF,01,BD,
1453394665,00000411,false,Rx,0,8,32,60,00,00,00,00,00,00,
1453394942,00000022,false,Rx,0,8,FF,FF,FF,FF,00,00,01,01,
1453398807,00000231,false,Rx,0,8,00,01,00,00,00,00,06,07,
1453399041,00000010,false,Rx,0,8,00,FF,61,30,00,00,0F,A1,
1453399310,00000517,false,Rx,0,8,01,00,00,00,00,00,00,00,
1453400141,00000102,false,Rx,0,8,00,00,19,54,56,CD,04,D2,
1453400388,00000103,false,Rx,0,8,02,00,02,00,00,00,04,04,
1453400591,00000122,false,Rx,0,8,D3,23,00,CA,1C,E2,06,C2,
1453409826,00000231,false,Rx,0,8,00,01,00,00,00,00,07,06,
1453410041,00000010,false,Rx,0,8,00,FF,61,30,00,00,00,AE,
1453410271,00000102,false,Rx,0,8,00,00,19,54,56,CD,05,D3,
1453410513,00000012,false,Rx,0,8,99,99,32,00,00,00,00,32,
1453410767,00000103,false,Rx,0,8,02,00,02,00,00,00,05,05,
1453411016,00000110,false,Rx,0,8,00,00,00,7B,01,05,0B,74,
1453411242,00000122,false,Rx,0,8,D3,23,00,CA,1C,E2,07,C3,
1453411466,00000300,false,Rx,0,8,00,00,0D,8C,00,66,00,00,
1453411713,00000308,false,Rx,0,8,00,12,00,00,00,00,82,00,
1453411968,00000316,false,Rx,0,8,13,AD,01,2B,53,00,00,00,
1453412219,00000320,false,Rx,0,8,20,00,00,00,F0,00,82,00,
1453412440,00000342,false,Rx,0,8,03,C2,99,99,7C,00,03,90,
1453412689,00000516,false,Rx,0,8,00,00,00,00,00,00,00,00,
1453412943,00000517,false,Rx,0,8,00,00,00,00,00,00,00,00,
1453414870,00000400,false,Rx,0,8,00,0B,58,F0,00,01,03,A1,
1453415157,00000408,false,Rx,0,8,00,41,33,0A,FF,FF,03,7B,
1453415420,00000410,false,Rx,0,8,43,00,00,00,00,FF,03,BF,
1453415692,00000411,false,Rx,0,8,32,60,00,00,00,00,00,00,
1453415968,00000022,false,Rx,0,8,FF,FF,FF,FF,00,00,03,03,
1453420135,00000102,false,Rx,0,8,00,00,19,54,56,CD,06,D0,
1453420365,00000103,false,Rx,0,8,02,00,02,00,00,00,06,06,
1453420614,00000122,false,Rx,0,8,D3,23,00,CA,1C,E2,08,CC,
1453420842,00000231,false,Rx,0,8,00,01,00,00,00,00,08,09,
1453421094,00000010,false,Rx,0,8,00,FF,61,30,00,00,01,AF,
1453421363,00000517,false,Rx,0,8,00,00,00,00,00,00,00,00,
1453430152,00000102,false,Rx,0,8,00,00,19,54,56,CD,07,D1,
1453430367,00000103,false,Rx,0,8,02,00,02,00,00,00,07,07,
1453430643,00000122,false,Rx,0,8,D3,23,00,CA,1C,E2,09,CD,
1453431094,00000110,false,Rx,0,8,00,00,00,7B,01,05,0C,73,
1453431367,00000308,false,Rx,0,8,00,12,00,00,00,00,82,00,
1453431566,00000300,false,Rx,0,8,00,00,0D,8C,00,66,00,00,
1453431804,00000316,false,Rx,0,8,13,AD,01,2B,53,00,00,00,
1453432044,00000010,false,Rx,0,8,00,FF,61,30,00,00,02,AC,
1453432296,00000231,false,Rx,0,8,00,01,00,00,00,00,09,08,
1453432541,00000012,false,Rx,0,8,99,99,32,00,01,00,01,32,
1453432792,00000320,false,Rx,0,8,20,00,00,00,F0,00,82,00,
1453433017,00000332,false,Rx,0,8,01,00,00,00,00,00,03,02,
1453433269,00000342,false,Rx,0,8,03,C2,99,99,7C,00,03,90,
1453433500,00000516,false,Rx,0,8,00,00,00,00,00,00,00,00,
1453433742,00000517,false,Rx,0,8,01,00,00,00,00,00,00,00,
1453434044,00000530,false,Rx,0,8,FF,FF,70,4B,64,04,49,00,
1453435842,00000400,false,Rx,0,8,00,0B,58,F0,00,01,04,A6,
1453436091,00000408,false,Rx,0,8,00,41,33,0A,FF,FF,04,7C,
1453436367,00000410,false,Rx,0,8,43,00,00,00,00,FF,04,B8,
1453436642,00000411,false,Rx,0,8,32,60,00,00,00,00,00,00,
1453436918,00000022,false,Rx,0,8,FF,FF,FF,FF,00,00,04,04,
1453440163,00000102,false,Rx,0,8,00,00,19,54,56,CD,08,DE,
1453440368,00000103,false,Rx,0,8,02,00,02,00,00,00,08,08,
1453440592,00000122,false,Rx,0,8,D3,23,00,CA,1C,E2,0A,CE,
1453442811,00000231,false,Rx,0,8,00,01,00,00,00,00,0A,0B,
1453443043,00000010,false,Rx,0,8,00,FF,61,30,00,00,03,AD,
1453443291,00000517,false,Rx,0,8,01,00,00,00,00,00,00,00,
1453443541,00000013,false,Rx,0,8,FF,01,09,00,00,00,00,00,
1453450163,00000102,false,Rx,0,8,00,00,19,54,56,CD,09,DF,
1453450367,00000103,false,Rx,0,8,02,00,02,00,00,00,09,09,
1453450592,00000122,false,Rx,0,8,D3,23,00,CA,1C,E2,0B,CF,
1453450844,00000110,false,Rx,0,8,00,00,00,7B,01,05,0D,72,
1453451097,00000300,false,Rx,0,8,00,00,0D,8C,00,66,00,00,
1453451366,00000308,false,Rx,0,8,00,12,00,00,00,00,82,00,
1453451566,00000316,false,Rx,0,8,13,AD,01,2B,53,00,00,00,
1453451846,00000320,false,Rx,0,8,20,00,00,00,F0,00,82,00,
1453452045,00000342,false,Rx,0,8,03,C2,99,99,7C,00,03,90,
1453452295,00000516,false,Rx,0,8,00,00,00,00,00,00,00,00,
1453453834,00000231,false,Rx,0,8,00,01,00,00,00,00,0B,0A,
1453454042,00000010,false,Rx,0,8,00,FF,61,30,00,00,04,AA,
1453454291,00000517,false,Rx,0,8,00,00,00,00,00,00,00,00,
1453454527,00000012,false,Rx,0,8,99,99,32,00,00,00,02,30,
1453456866,00000400,false,Rx,0,8,00,0B,58,F0,00,01,05,A7,
1453457091,00000408,false,Rx,0,8,00,41,33,0A,FF,FF,05,7D,
1453457364,00000410,false,Rx,0,8,43,00,00,00,00,FF,05,B9,
1453457642,00000411,false,Rx,0,8,32,60,00,00,00,00,00,00,
1453457919,00000022,false,Rx,0,8,FF,FF,FF,FF,00,00,05,05,
1453460131,00000102,false,Rx,0,8,00,00,19,54,56,CD,0A,DC,
1453460366,00000103,false,Rx,0,8,02,00,02,00,00,00,0A,0A,
1453460593,00000122,false,Rx,0,8,D3,23,00,CA,1C,E2,0C,C8,
1453464809,00000231,false,Rx,0,8,00,01,00,00,00,00,0C,0D,
1453465042,00000010,false,Rx,0,8,00,FF,61,30,00,00,05,AB,
1453465292,00000517,false,Rx,0,8,00,00,00,00,00,00,00,00,
1453470158,00000102,false,Rx,0,8,00,00,19,54,56,CD,0B,DD,
1453470368,00000103,false,Rx,0,8,02,00,02,00,00,00,0B,0B,
1453470612,00000122,false,Rx,0,8,D3,23,00,CA,1C,E2,0D,C9,
1453471068,00000110,false,Rx,0,8,00,00,00,7B,01,05,0E,71,
1453471368,00000308,false,Rx,0,8,00,12,00,00,00,00,82,00,
1453471565,00000300,false,Rx,0,8,00,00,0D,8C,00,66,00,00,
1453471818,00000316,false,Rx,0,8,13,AD,01,2B,53,00,00,00,
1453472044,00000320,false,Rx,0,8,20,00,00,00,F0,00,82,00,
1453472295,00000342,false,Rx,0,8,03,C2,99,99,7C,00,03,90,
1453472525,00000516,false,Rx,0,8,00,00,00,00,00,00,00,00,
1453475821,00000231,false,Rx,0,8,00,01,00,00,00,00,0E,0F,
1453476043,00000010,false,Rx,0,8,00,FF,61,30,00,00,06,A8,
1453476291,00000517,false,Rx,0,8,01,00,00,00,00,00,00,00,
1453476543,00000012,false,Rx,0,8,99,99,32,00,01,00,03,30,
1453477821,00000400,false,Rx,0,8,00,0B,58,F0,00,01,06,A4,
1453478095,00000408,false,Rx,0,8,00,41,33,0A,FF,FF,06,7E,
1453478367,00000410,false,Rx,0,8,43,00,00,00,00,FF,06,BA,
1453478643,00000411,false,Rx,0,8,32,60,00,00,00,00,00,00,
1453478919,00000022,false,Rx,0,8,FF,FF,FF,FF,00,00,06,06,
1453480127,00000102,false,Rx,0,8,00,00,19,54,56,CD,0C,DA,
1453480367,00000103,false,Rx,0,8,02,00,02,00,00,00,0C,0C,
1453480592,00000122,false,Rx,0,8,D3,23,00,CA,1C,E2,0E,CA,
1453486816,00000231,false,Rx,0,8,00,01,00,00,00,00,0F,0E,
1453487045,00000010,false,Rx,0,8,00,FF,61,30,00,00,07,A9,
1453487293,00000517,false,Rx,0,8,00,00,00,00,00,00,00,00,
1453490146,00000102,false,Rx,0,8,00,00,19,54,56,CD,0D,DB,
1453490368,00000103,false,Rx,0,8,02,00,02,00,00,00,0D,0D,
1453490593,00000122,false,Rx,0,8,D3,23,00,CA,1C,E2,0F,CB,
1453490857,00000110,false,Rx,0,8,00,00,00,7B,01,05,0F,70,
1453491096,00000300,false,Rx,0,8,00,00,0D,8C,00,66,00,00,
1453491367,00000308,false,Rx,0,8,00,12,00,00,00,00,82,00,
1453491565,00000316,false,Rx,0,8,13,AD,01,2B,53,00,00,00,
1453491819,00000320,false,Rx,0,8,20,00,00,00,F0,00,82,00,
1453492045,00000342,false,Rx,0,8,03,C2,99,99,7C,00,03,90,
1453492296,00000516,false,Rx,0,8,00,00,00,00,00,00,00,00,
1453497836,00000231,false,Rx,0,8,00,01,00,00,00,00,00,01,
1453498043,00000010,false,Rx,0,8,00,FF,61,30,00,00,08,A6,
1453498293,00000517,false,Rx,0,8,00,00,00,00,00,00,00,00,
1453498541,00000012,false,Rx,0,8,99,99,32,00,00,00,04,36,
1453498767,00000013,false,Rx,0,8,FF,01,09,00,00,00,00,00,
1453499018,00000400,false,Rx,0,8,00,0B,58,F0,00,01,07,A5,
1453499295,00000408,false,Rx,0,8,00,41,33,0A,FF,FF,07,7F,
1453499568,00000410,false,Rx,0,8,43,00,00,00,00,FF,07,BB,
1453499843,00000411,false,Rx,0,8,32,60,00,00,00,00,00,00,
1453500095,00000022,false,Rx,0,8,FF,FF,FF,FF,00,00,07,07,
1453500368,00000102,false,Rx,0,8,00,00,19,54,56,CD,0E,D8,
1453500593,00000103,false,Rx,0,8,02,00,02,00,00,00,0E,0E,
1453500821,00000122,false,Rx,0,8,D3,23,00,CA,1C,E2,00,C4,
1453508823,00000231,false,Rx,0,8,00,01,00,00,00,00,01,00,
1453509045,00000010,false,Rx,0,8,00,FF,61,30,00,00,09,A7,
1453509294,00000517,false,Rx,0,8,01,00,00,00,00,00,00,00,
1453510122,00000102,false,Rx,0,8,00,00,19,54,56,CD,0F,D9,
1453510368,00000103,false,Rx,0,8,02,00,02,00,00,00,0F,0F,
1453510592,00000122,false,Rx,0,8,D3,23,00,CA,1C,E2,01,C5,
1453511069,00000110,false,Rx,0,8,00,00,00,7B,01,05,00,7F,
1453511366,00000308,false,Rx,0,8,00,12,00,00,00,00,82,00,
1453511566,00000300,false,Rx,0,8,00,00,0D,8C,00,66,00,00,
1453511823,00000316,false,Rx,0,8,13,AD,01,2B,53,00,00,00,
1453512045,00000320,false,Rx,0,8,20,00,00,00,F0,00,82,00,
1453512296,00000342,false,Rx,0,8,03,C2,99,99,7C,00,03,90,
1453512516,00000516,false,Rx,0,8,00,00,00,00,00,00,00,00,
1453519891,00000231,false,Rx,0,8,00,01,00,00,00,00,02,03,
1453520120,00000010,false,Rx,0,8,00,FF,61,30,00,00,0A,A4,
1453520365,00000102,false,Rx,0,8,00,00,19,54,56,CD,00,D6,
1453520568,00000012,false,Rx,0,8,99,99,32,00,01,00,05,36,
1453520820,00000103,false,Rx,0,8,02,00,02,00,00,00,00,00,
1453521077,00000122,false,Rx,0,8,D3,23,00,CA,1C,E2,02,C6,
1453521295,00000400,false,Rx,0,8,00,0B,58,F0,00,01,08,AA,
1453521567,00000408,false,Rx,0,8,00,41,33,0A,FF,FF,08,70,
1453521816,00000410,false,Rx,0,8,43,00,00,00,00,FF,08,B4,
1453522100,00000411,false,Rx,0,8,32,60,00,00,00,00,00,00,
1453522393,00000022,false,Rx,0,8,FF,FF,FF,FF,00,00,08,08,
1453522646,00000517,false,Rx,0,8,01,00,00,00,00,00,00,00,
1453530134,00000102,false,Rx,0,8,00,00,19,54,56,CD,01,D7,
1453530369,00000103,false,Rx,0,8,02,00,02,00,00,00,01,01,
1453530604,00000122,false,Rx,0,8,D3,23,00,CA,1C,E2,03,C7,
1453530843,00000110,false,Rx,0,8,00,00,00,7B,01,05,01,7E,
1453531096,00000010,false,Rx,0,8,00,FF,61,30,00,00,0B,A5,
1453531366,00000231,false,Rx,0,8,00,01,00,00,00,00,03,02,
1453531568,00000300,false,Rx,0,8,00,00,0D,8C,00,66,00,00,
1453531817,00000308,false,Rx,0,8,00,12,00,00,00,00,82,00,
1453532045,00000316,false,Rx,0,8,13,AD,01,2B,53,00,00,00,
1453532298,00000320,false,Rx,0,8,20,00,00,00,F0,00,82,00,
1453532543,00000342,false,Rx,0,8,03,C2,99,99,7C,00,03,90,
1453532795,00000516,false,Rx,0,8,00,00,00,00,00,00,00,00,
1453533020,00000517,false,Rx,0,8,00,00,00,00,00,00,00,00,
1453533367,00000332,false,Rx,0,8,01,00,00,00,00,00,04,05,
1453533596,00000530,false,Rx,0,8,FF,FF,70,4B,64,04,49,00,
1453540182,00000102,false,Rx,0,8,00,00,19,54,56,CD,02,D4,
1453540367,00000103,false,Rx,0,8,02,00,02,00,00,00,02,02,
1453540593,00000122,false,Rx,0,8,D3,23,00,CA,1C,E2,04,C0,
1453540845,00000400,false,Rx,0,8,00,0B,58,F0,00,01,09,AB,
1453541121,00000408,false,Rx,0,8,00,41,33,0A,FF,FF,09,71,
1453541373,00000410,false,Rx,0,8,43,00,00,00,00,FF,09,B5,
1453541644,00000411,false,Rx,0,8,32,60,00,00,00,00,00,00,
1453541893,00000010,false,Rx,0,8,00,FF,61,30,00,00,0C,A2,
1453542145,00000022,false,Rx,0,8,FF,FF,FF,FF,00,00,09,09,
1453542365,00000012,false,Rx,0,8,99,99,32,00,00,00,06,34,
1453542653,00000231,false,Rx,0,8,00,01,00,00,00,00,04,05,
1453542927,00000517,false,Rx,0,8,00,00,00,00,00,00,00,00,
1453550134,00000102,false,Rx,0,8,00,00,19,54,56,CD,03,D5,
1453550369,00000103,false,Rx,0,8,02,00,02,00,00,00,03,03,
1453550597,00000122,false,Rx,0,8,D3,23,00,CA,1C,E2,05,C1,
1453551075,00000110,false,Rx,0,8,00,00,00,7B,01,05,02,7D,
1453551368,00000308,false,Rx,0,8,00,12,00,00,00,00,82,00,
1453551570,00000300,false,Rx,0,8,00,00,0D,8C,00,66,00,00,
1453551805,00000316,false,Rx,0,8,13,AD,01,2B,53,00,00,00,
1453552047,00000320,false,Rx,0,8,20,00,00,00,F0,00,82,00,
1453552271,00000342,false,Rx,0,8,03,C2,99,99,7C,00,03,90,
1453552517,00000516,false,Rx,0,8,00,00,00,00,00,00,00,00,
1453552795,00000231,false,Rx,0,8,00,01,00,00,00,00,05,04,
1453553045,00000010,false,Rx,0,8,00,FF,61,30,00,00,0D,A3,
1453553295,00000517,false,Rx,0,8,01,00,00,00,00,00,00,00,
1453553543,00000013,false,Rx,0,8,FF,01,09,00,00,00,00,00,
1453560135,00000102,false,Rx,0,8,00,00,19,54,56,CD,04,D2,
1453560370,00000103,false,Rx,0,8,02,00,02,00,00,00,04,04,
1453560593,00000122,false,Rx,0,8,D3,23,00,CA,1C,E2,06,C2,
1453561818,00000400,false,Rx,0,8,00,0B,58,F0,00,01,0A,A8,
1453562095,00000408,false,Rx,0,8,00,41,33,0A,FF,FF,0A,72,
1453562369,00000410,false,Rx,0,8,43,00,00,00,00,FF,0A,B6,
1453562645,00000411,false,Rx,0,8,32,60,00,00,00,00,00,00,
1453562919,00000022,false,Rx,0,8,FF,FF,FF,FF,00,00,0A,0A,
1453563808,00000231,false,Rx,0,8,00,01,00,00,00,00,06,07,
1453564044,00000010,false,Rx,0,8,00,FF,61,30,00,00,0E,A0,
1453564311,00000517,false,Rx,0,8,01,00,00,00,00,00,00,00,
1453564516,00000012,false,Rx,0,8,99,99,32,00,01,00,07,34,
1453570142,00000102,false,Rx,0,8,00,00,19,54,56,CD,05,D3,
1453570369,00000103,false,Rx,0,8,02,00,02,00,00,00,05,05,
1453570619,00000122,false,Rx,0,8,D3,23,00,CA,1C,E2,07,C3,
1453570846,00000110,false,Rx,0,8,00,00,00,7B,01,05,03,7C,
1453571096,00000300,false,Rx,0,8,00,00,0D,8C,00,66,00,00,
1453571366,00000308,false,Rx,0,8,00,12,00,00,00,00,82,00,
1453571569,00000316,false,Rx,0,8,13,AD,01,2B,53,00,00,00,
1453571818,00000320,false,Rx,0,8,20,00,00,00,F0,00,82,00,
1453572044,00000342,false,Rx,0,8,03,C2,99,99,7C,00,03,90,
1453572298,00000516,false,Rx,0,8,00,00,00,00,00,00,00,00,
1453574810,00000010,false,Rx,0,8,00,FF,61,30,00,00,0F,A1,
1453575045,00000231,false,Rx,0,8,00,01,00,00,00,00,08,09,
1453575367,00000517,false,Rx,0,8,00,00,00,00,00,00,00,00,
1453580136,00000102,false,Rx,0,8,00,00,19,54,56,CD,06,D0,
1453580369,00000103,false,Rx,0,8,02,00,02,00,00,00,06,06,
1453580595,00000122,false,Rx,0,8,D3,23,00,CA,1C,E2,08,CC,
1453582855,00000400,false,Rx,0,8,00,0B,58,F0,00,01,0B,A9,
1453583096,00000408,false,Rx,0,8,00,41,33,0A,FF,FF,0B,73,
1453583394,00000410,false,Rx,0,8,43,00,00,00,00,FF,0B,B7,
1453583671,00000411,false,Rx,0,8,32,60,00,00,00,00,00,00,
1453583946,00000022,false,Rx,0,8,FF,FF,FF,FF,00,00,0B,0B,
1453585824,00000231,false,Rx,0,8,00,01,00,00,00,00,08,09,
1453586044,00000010,false,Rx,0,8,00,FF,61,30,00,00,00,AE,
1453586295,00000517,false,Rx,0,8,00,00,00,00,00,00,00,00,
1453586517,00000012,false,Rx,0,8,99,99,32,00,00,00,08,3A,
1453590136,00000102,false,Rx,0,8,00,00,19,54,56,CD,07,D1,
1453590368,00000103,false,Rx,0,8,02,00,02,00,00,00,07,07,
1453590598,00000122,false,Rx,0,8,D3,23,00,CA,1C,E2,09,CD,
1453591071,00000110,false,Rx,0,8,00,00,00,7B,01,05,04,7B,
1453591369,00000308,false,Rx,0,8,00,12,00,00,00,00,82,00,
1453591570,00000300,false,Rx,0,8,00,00,0D,8C,00,66,00,00,
1453591807,00000316,false,Rx,0,8,13,AD,01,2B,53,00,00,00,
1453592046,00000320,false,Rx,0,8,20,00,00,00,F0,00,82,00,
1453592273,00000342,false,Rx,0,8,03,C2,99,99,7C,00,03,90,
1453592518,00000516,false,Rx,0,8,00,00,00,00,00,00,00,00,
1453596842,00000010,false,Rx,0,8,00,FF,61,30,00,00,01,AF,
1453597073,00000231,false,Rx,0,8,00,01,00,00,00,00,0A,0B,
1453597393,00000517,false,Rx,0,8,01,00,00,00,00,00,00,00,
1453600134,00000102,false,Rx,0,8,00,00,19,54,56,CD,08,DE,
1453600370,00000103,false,Rx,0,8,02,00,02,00,00,00,08,08,
1453600597,00000122,false,Rx,0,8,D3,23,00,CA,1C,E2,0A,CE,
1453603879,00000400,false,Rx,0,8,00,0B,58,F0,00,01,0C,AE,
1453604097,00000408,false,Rx,0,8,00,41,33,0A,FF,FF,0C,74,
1453604369,00000410,false,Rx,0,8,43,00,00,00,00,FF,0C,B0,
1453604647,00000411,false,Rx,0,8,32,60,00,00,00,00,00,00,
1453604948,00000022,false,Rx,0,8,FF,FF,FF,FF,00,00,0C,0C,
1453607841,00000231,false,Rx,0,8,00,01,00,00,00,00,0B,0A,
1453608046,00000010,false,Rx,0,8,00,FF,61,30,00,00,02,AC,
1453608297,00000517,false,Rx,0,8,00,00,00,00,00,00,00,00,
1453608544,00000012,false,Rx,0,8,99,99,32,00,01,00,09,3A,
1453608772,00000013,false,Rx,0,8,FF,01,09,00,00,00,00,00,
1453610142,00000102,false,Rx,0,8,00,00,19,54,56,CD,09,DF,
1453610370,00000103,false,Rx,0,8,02,00,02,00,00,00,09,09,
1453610596,00000122,false,Rx,0,8,D3,23,00,CA,1C,E2,0B,CF,
1453610841,00000110,false,Rx,0,8,00,00,00,7B,01,05,05,7A,
1453611072,00000300,false,Rx,0,8,00,00,0D,8C,00,66,00,00,
1453611370,00000308,false,Rx,0,8,00,12,00,00,00,00,82,00,
1453611571,00000316,false,Rx,0,8,13,AD,01,2B,53,00,00,00,
1453611806,00000320,false,Rx,0,8,20,00,00,00,F0,00,82,00,
1453612048,00000342,false,Rx,0,8,03,C2,99,99,7C,00,03,90,
1453612299,00000516,false,Rx,0,8,00,00,00,00,00,00,00,00,
1453618811,00000010,false,Rx,0,8,00,FF,61,30,00,00,03,AD,
1453619022,00000231,false,Rx,0,8,00,01,00,00,00,00,0C,0D,
1453619269,00000517,false,Rx,0,8,00,00,00,00,00,00,00,00,
1453620127,00000102,false,Rx,0,8,00,00,19,54,56,CD,0A,DC,
1453620369,00000103,false,Rx,0,8,02,00,02,00,00,00,0A,0A,
1453620607,00000122,false,Rx,0,8,D3,23,00,CA,1C,E2,0C,C8,
1453624860,00000400,false,Rx,0,8,00,0B,58,F0,00,01,0D,AF,
1453625097,00000408,false,Rx,0,8,00,41,33,0A,FF,FF,0D,75,
1453625370,00000410,false,Rx,0,8,43,00,00,00,00,FF,0D,B1,
1453625646,00000411,false,Rx,0,8,32,60,00,00,00,00,00,00,
1453625922,00000022,false,Rx,0,8,FF,FF,FF,FF,00,00,0D,0D,
1453629806,00000010,false,Rx,0,8,00,FF,61,30,00,00,04,AA,
1453630022,00000231,false,Rx,0,8,00,01,00,00,00,00,0D,0C,
1453630269,00000012,false,Rx,0,8,99,99,32,00,00,00,0A,38,
1453630494,00000102,false,Rx,0,8,00,00,19,54,56,CD,0B,DD,
1453630743,00000103,false,Rx,0,8,02,00,02,00,00,00,0B,0B,
1453630972,00000122,false,Rx,0,8,D3,23,00,CA,1C,E2,0D,C9,
1453631198,00000110,false,Rx,0,8,00,00,00,7B,01,05,06,79,
1453631444,00000300,false,Rx,0,8,00,00,0D,8C,00,66,00,00,
1453631695,00000308,false,Rx,0,8,00,12,00,00,00,00,82,00,
1453631947,00000316,false,Rx,0,8,13,AD,01,2B,53,00,00,00,
1453632171,00000320,false,Rx,0,8,20,00,00,00,F0,00,82,00,
1453632419,00000342,false,Rx,0,8,03,C2,99,99,7C,00,03,90,
1453632645,00000516,false,Rx,0,8,00,00,00,00,00,00,00,00,
1453632928,00000517,false,Rx,0,8,01,00,00,00,00,00,00,00,
1453633872,00000332,false,Rx,0,8,01,00,00,00,00,00,05,04,
1453634073,00000530,false,Rx,0,8,FF,FF,70,4B,64,04,49,00,
1453640139,00000102,false,Rx,0,8,00,00,19,54,56,CD,0C,DA,
1453640371,00000103,false,Rx,0,8,02,00,02,00,00,00,0C,0C,
1453640595,00000122,false,Rx,0,8,D3,23,00,CA,1C,E2,0E,CA,
1453640822,00000010,false,Rx,0,8,00,FF,61,30,00,00,05,AB,
1453641081,00000231,false,Rx,0,8,00,01,00,00,00,00,0E,0F,
1453641370,00000517,false,Rx,0,8,01,00,00,00,00,00,00,00,
1453645853,00000400,false,Rx,0,8,00,0B,58,F0,00,01,0E,AC,
1453646098,00000408,false,Rx,0,8,00,41,33,0A,FF,FF,0E,76,
1453646370,00000410,false,Rx,0,8,43,00,00,00,00,FF,0E,B2,
1453646646,00000411,false,Rx,0,8,32,60,00,00,00,00,00,00,
1453646923,00000022,false,Rx,0,8,FF,FF,FF,FF,00,00,0E,0E,
1453650146,00000102,false,Rx,0,8,00,00,19,54,56,CD,0D,DB,
1453650371,00000103,false,Rx,0,8,02,00,02,00,00,00,0D,0D,
1453650569,00000122,false,Rx,0,8,D3,23,00,CA,1C,E2,0F,CB,
1453650831,00000110,false,Rx,0,8,00,00,00,7B,01,05,07,78,
1453651076,00000300,false,Rx,0,8,00,00,0D,8C,00,66,00,00,
1453651369,00000308,false,Rx,0,8,00,12,00,00,00,00,82,00,
1453651570,00000316,false,Rx,0,8,13,AD,01,2B,53,00,00,00,
1453651807,00000010,false,Rx,0,8,00,FF,61,30,00,00,06,A8,
1453652050,00000231,false,Rx,0,8,00,01,00,00,00,00,0F,0E,
1453652272,00000012,false,Rx,0,8,99,99,32,00,01,00,0B,38,
1453652526,00000320,false,Rx,0,8,20,00,00,00,F0,00,82,00,
1453652745,00000342,false,Rx,0,8,03,C2,99,99,7C,00,03,90,
1453652996,00000516,false,Rx,0,8,00,00,00,00,00,00,00,00,
1453653249,00000517,false,Rx,0,8,00,00,00,00,00,00,00,00,
1453660137,00000102,false,Rx,0,8,00,00,19,54,56,CD,0E,D8,
1453660371,00000103,false,Rx,0,8,02,00,02,00,00,00,0E,0E,
1453660569,00000122,false,Rx,0,8,D3,23,00,CA,1C,E2,00,C4,
1453662766,00000010,false,Rx,0,8,00,FF,61,30,00,00,07,A9,
1453662971,00000231,false,Rx,0,8,00,01,00,00,00,00,00,01,
1453663222,00000013,false,Rx,0,8,FF,01,09,00,00,00,00,00,
1453663470,00000517,false,Rx,0,8,00,00,00,00,00,00,00,00,
1453666887,00000400,false,Rx,0,8,00,0B,58,F0,00,01,00,A2,
1453667122,00000408,false,Rx,0,8,00,41,33,0A,FF,FF,0F,77,
1453667397,00000410,false,Rx,0,8,43,00,00,00,00,FF,0F,B3,
1453667671,00000411,false,Rx,0,8,32,60,00,00,00,00,00,00,
1453667947,00000022,false,Rx,0,8,FF,FF,FF,FF,00,00,0F,0F,
1453670140,00000102,false,Rx,0,8,00,00,19,54,56,CD,0F,D9,
1453670371,00000103,false,Rx,0,8,02,00,02,00,00,00,0F,0F,
1453670571,00000122,false,Rx,0,8,D3,23,00,CA,1C,E2,01,C5,
1453671048,00000110,false,Rx,0,8,00,00,00,7B,01,05,08,77,
1453671299,00000308,false,Rx,0,8,00,12,00,00,00,00,82,00,
1453671546,00000300,false,Rx,0,8,00,00,0D,8C,00,66,00,00,
1453671807,00000316,false,Rx,0,8,13,AD,01,2B,53,00,00,00,
1453672023,00000320,false,Rx,0,8,20,00,00,00,F0,00,82,00,
1453672246,00000342,false,Rx,0,8,03,C2,99,99,7C,00,03,90,
1453672519,00000516,false,Rx,0,8,00,00,00,00,00,00,00,00,
1453673773,00000010,false,Rx,0,8,00,FF,61,30,00,00,08,A6,
1453673998,00000231,false,Rx,0,8,00,01,00,00,00,00,01,00,
1453674228,00000012,false,Rx,0,8,99,99,32,00,00,00,0C,3E,
1453674469,00000517,false,Rx,0,8,01,00,00,00,00,00,00,00,
1453680139,00000102,false,Rx,0,8,00,00,19,54,56,CD,00,D6,
1453680372,00000103,false,Rx,0,8,02,00,02,00,00,00,00,00,
1453680596,00000122,false,Rx,0,8,D3,23,00,CA,1C,E2,02,C6,
1453684714,00000010,false,Rx,0,8,00,FF,61,30,00,00,09,A7,
1453684948,00000231,false,Rx,0,8,00,01,00,00,00,00,02,03,
1453685222,00000517,false,Rx,0,8,01,00,00,00,00,00,00,00,
1453687864,00000400,false,Rx,0,8,00,0B,58,F0,00,01,01,A3,
1453688096,00000408,false,Rx,0,8,00,41,33,0A,FF,FF,01,79,
1453688371,00000410,false,Rx,0,8,43,00,00,00,00,FF,00,BC,
1453688647,00000411,false,Rx,0,8,32,60,00,00,00,00,00,00,
1453688924,00000022,false,Rx,0,8,FF,FF,FF,FF,00,00,00,00,
1453690150,00000102,false,Rx,0,8,00,00,19,54,56,CD,01,D7,
1453690371,00000103,false,Rx,0,8,02,00,02,00,00,00,01,01,
1453690571,00000122,false,Rx,0,8,D3,23,00,CA,1C,E2,03,C7,
1453690823,00000110,false,Rx,0,8,00,00,00,7B,01,05,09,76,
1453691074,00000300,false,Rx,0,8,00,00,0D,8C,00,66,00,00,
1453691300,00000308,false,Rx,0,8,00,12,00,00,00,00,82,00,
1453691543,00000316,false,Rx,0,8,13,AD,01,2B,53,00,00,00,
1453691809,00000320,false,Rx,0,8,20,00,00,00,F0,00,82,00,
1453692021,00000342,false,Rx,0,8,03,C2,99,99,7C,00,03,90,
1453692271,00000516,false,Rx,0,8,00,00,00,00,00,00,00,00,
1453695773,00000010,false,Rx,0,8,00,FF,61,30,00,00,0A,A4,
1453695997,00000231,false,Rx,0,8,00,01,00,00,00,00,04,05,
1453696223,00000012,false,Rx,0,8,99,99,32,00,01,00,0D,3E,
1453696471,00000517,false,Rx,0,8,00,00,00,00,00,00,00,00,
1453700145,00000102,false,Rx,0,8,00,00,19,54,56,CD,02,D4,
1453700372,00000103,false,Rx,0,8,02,00,02,00,00,00,02,02,
1453700597,00000122,false,Rx,0,8,D3,23,00,CA,1C,E2,04,C0,
1453706706,00000010,false,Rx,0,8,00,FF,61,30,00,00,0B,A5,
1453706923,00000231,false,Rx,0,8,00,01,00,00,00,00,05,04,
1453707221,00000517,false,Rx,0,8,01,00,00,00,00,00,00,00,
1453708878,00000400,false,Rx,0,8,00,0B,58,F0,00,01,02,A0,
1453709124,00000408,false,Rx,0,8,00,41,33,0A,FF,FF,02,7A,
1453709372,00000410,false,Rx,0,8,43,00,00,00,00,FF,01,BD,
1453709646,00000411,false,Rx,0,8,32,60,00,00,00,00,00,00,
1453709948,00000022,false,Rx,0,8,FF,FF,FF,FF,00,00,01,01,
1453710174,00000102,false,Rx,0,8,00,00,19,54,56,CD,03,D5,
1453710420,00000103,false,Rx,0,8,02,00,02,00,00,00,03,03,
1453710644,00000122,false,Rx,0,8,D3,23,00,CA,1C,E2,05,C1,
1453711048,00000110,false,Rx,0,8,00,00,00,7B,01,05,0A,75,
1453711297,00000308,false,Rx,0,8,00,12,00,00,00,00,82,00,
1453711544,00000300,false,Rx,0,8,00,00,0D,8C,00,66,00,00,
1453711806,00000316,false,Rx,0,8,13,AD,01,2B,53,00,00,00,
1453712021,00000320,false,Rx,0,8,20,00,00,00,F0,00,82,00,
1453712274,00000342,false,Rx,0,8,03,C2,99,99,7C,00,03,90,
1453712495,00000516,false,Rx,0,8,00,00,00,00,00,00,00,00,
1453717731,00000010,false,Rx,0,8,00,FF,61,30,00,00,0C,A2,
1453717947,00000231,false,Rx,0,8,00,01,00,00,00,00,06,07,
1453718171,00000012,false,Rx,0,8,99,99,32,00,00,00,0E,3C,
1453718421,00000517,false,Rx,0,8,01,00,00,00,00,00,00,00,
1453718670,00000013,false,Rx,0,8,FF,01,09,00,00,00,00,00,
1453720143,00000102,false,Rx,0,8,00,00,19,54,56,CD,04,D2,
1453720372,00000103,false,Rx,0,8,02,00,02,00,00,00,04,04,
1453720572,00000122,false,Rx,0,8,D3,23,00,CA,1C,E2,06,C2,
1453728674,00000010,false,Rx,0,8,00,FF,61,30,00,00,0D,A3,
1453728899,00000231,false,Rx,0,8,00,01,00,00,00,00,07,06,
1453729174,00000517,false,Rx,0,8,00,00,00,00,00,00,00,00,
1453729849,00000400,false,Rx,0,8,00,0B,58,F0,00,01,03,A1,
1453730095,00000102,false,Rx,0,8,00,00,19,54,56,CD,05,D3,
1453730371,00000103,false,Rx,0,8,02,00,02,00,00,00,05,05,
1453730572,00000122,false,Rx,0,8,D3,23,00,CA,1C,E2,07,C3,
1453730824,00000110,false,Rx,0,8,00,00,00,7B,01,05,0B,74,
1453731077,00000300,false,Rx,0,8,00,00,0D,8C,00,66,00,00,
1453731298,00000308,false,Rx,0,8,00,12,00,00,00,00,82,00,
1453731546,00000316,false,Rx,0,8,13,AD,01,2B,53,00,00,00,
1453731806,00000320,false,Rx,0,8,20,00,00,00,F0,00,82,00,
1453732023,00000342,false,Rx,0,8,03,C2,99,99,7C,00,03,90,
1453732275,00000408,false,Rx,0,8,00,41,33,0A,FF,FF,03,7B,
1453732521,00000516,false,Rx,0,8,00,00,00,00,00,00,00,00,
1453732772,00000410,false,Rx,0,8,43,00,00,00,00,FF,02,BE,
1453733073,00000411,false,Rx,0,8,32,60,00,00,00,00,00,00,
1453733372,00000022,false,Rx,0,8,FF,FF,FF,FF,00,00,02,02,
844,00000332,false,Rx,0,8,01,00,00,00,00,00,06,07,
1073,00000530,false,Rx,0,8,FF,FF,70,4B,64,04,49,00,
5700,00000010,false,Rx,0,8,00,FF,61,30,00,00,0E,A0,
5924,00000231,false,Rx,0,8,00,01,00,00,00,00,08,09,
6173,00000012,false,Rx,0,8,99,99,32,00,01,00,0F,3C,
6404,00000102,false,Rx,0,8,00,00,19,54,56,CD,06,D0,
6648,00000103,false,Rx,0,8,02,00,02,00,00,00,06,06,
6874,00000122,false,Rx,0,8,D3,23,00,CA,1C,E2,08,CC,
7134,00000517,false,Rx,0,8,00,00,00,00,00,00,00,00,
16143,00000102,false,Rx,0,8,00,00,19,54,56,CD,07,D1,
16372,00000103,false,Rx,0,8,02,00,02,00,00,00,07,07,
16570,00000122,false,Rx,0,8,D3,23,00,CA,1C,E2,09,CD,
16823,00000010,false,Rx,0,8,00,FF,61,30,00,00,0F,A1,
17048,00000110,false,Rx,0,8,00,00,00,7B,01,05,0C,73,
17300,00000231,false,Rx,0,8,00,01,00,00,00,00,09,08,
17548,00000300,false,Rx,0,8,00,00,0D,8C,00,66,00,00,
17823,00000308,false,Rx,0,8,00,12,00,00,00,00,82,00,
18025,00000316,false,Rx,0,8,13,AD,01,2B,53,00,00,00,
18276,00000320,false,Rx,0,8,20,00,00,00,F0,00,82,00,
18521,00000342,false,Rx,0,8,03,C2,99,99,7C,00,03,90,
18748,00000400,false,Rx,0,8,00,0B,58,F0,00,01,04,A6,
18998,00000516,false,Rx,0,8,00,00,00,00,00,00,00,00,
19252,00000408,false,Rx,0,8,00,41,33,0A,FF,FF,04,7C,
19522,00000410,false,Rx,0,8,43,00,00,00,00,FF,03,BF,
19797,00000411,false,Rx,0,8,32,60,00,00,00,00,00,00,
20099,00000022,false,Rx,0,8,FF,FF,FF,FF,00,00,03,03,
20372,00000517,false,Rx,0,8,01,00,00,00,00,00,00,00,
26117,00000102,false,Rx,0,8,00,00,19,54,56,CD,08,DE,
26374,00000103,false,Rx,0,8,02,00,02,00,00,00,08,08,
26585,00000122,false,Rx,0,8,D3,23,00,CA,1C,E2,0A,CE,
27647,00000010,false,Rx,0,8,00,FF,61,30,00,00,00,AE,
27898,00000231,false,Rx,0,8,00,01,00,00,00,00,0A,0B,
28122,00000012,false,Rx,0,8,99,99,32,00,00,00,00,32,
28372,00000517,false,Rx,0,8,01,00,00,00,00,00,00,00,
36115,00000102,false,Rx,0,8,00,00,19,54,56,CD,09,DF,
36368,00000103,false,Rx,0,8,02,00,02,00,00,00,09,09,
36568,00000122,false,Rx,0,8,D3,23,00,CA,1C,E2,0B,CF,
36821,00000110,false,Rx,0,8,00,00,00,7B,01,05,0D,72,
37046,00000300,false,Rx,0,8,00,00,0D,8C,00,66,00,00,
37296,00000308,false,Rx,0,8,00,12,00,00,00,00,82,00,
37542,00000316,false,Rx,0,8,13,AD,01,2B,53,00,00,00,
37807,00000320,false,Rx,0,8,20,00,00,00,F0,00,82,00,
38024,00000342,false,Rx,0,8,03,C2,99,99,7C,00,03,90,
38248,00000400,false,Rx,0,8,00,0B,58,F0,00,01,05,A7,
38522,00000516,false,Rx,0,8,00,00,00,00,00,00,00,00,
38746,00000010,false,Rx,0,8,00,FF,61,30,00,00,01,AF,
38997,00000408,false,Rx,0,8,00,41,33,0A,FF,FF,05,7D,
39252,00000013,false,Rx,0,8,FF,01,09,00,00,00,00,00,
39472,00000410,false,Rx,0,8,43,00,00,00,00,FF,04,B8,
39773,00000411,false,Rx,0,8,32,60,00,00,00,00,00,00,
40049,00000022,false,Rx,0,8,FF,FF,FF,FF,00,00,04,04,
40372,00000231,false,Rx,0,8,00,01,00,00,00,00,0B,0A,
40596,00000517,false,Rx,0,8,00,00,00,00,00,00,00,00,
46118,00000102,false,Rx,0,8,00,00,19,54,56,CD,0A,DC,
46373,00000103,false,Rx,0,8,02,00,02,00,00,00,0A,0A,
46573,00000122,false,Rx,0,8,D3,23,00,CA,1C,E2,0C,C8,
49635,00000010,false,Rx,0,8,00,FF,61,30,00,00,02,AC,
49875,00000231,false,Rx,0,8,00,01,00,00,00,00,0C,0D,
50103,00000012,false,Rx,0,8,99,99,32,00,01,00,01,32,
50372,00000517,false,Rx,0,8,00,00,00,00,00,00,00,00,
56112,00000102,false,Rx,0,8,00,00,19,54,56,CD,0B,DD,
56374,00000103,false,Rx,0,8,02,00,02,00,00,00,0B,0B,
56589,00000122,false,Rx,0,8,D3,23,00,CA,1C,E2,0D,C9,
57048,00000110,false,Rx,0,8,00,00,00,7B,01,05,0E,71,
57299,00000308,false,Rx,0,8,00,12,00,00,00,00,82,00,
57547,00000300,false,Rx,0,8,00,00,0D,8C,00,66,00,00,
57774,00000316,false,Rx,0,8,13,AD,01,2B,53,00,00,00,
58023,00000320,false,Rx,0,8,20,00,00,00,F0,00,82,00,
58250,00000342,false,Rx,0,8,03,C2,99,99,7C,00,03,90,
58501,00000516,false,Rx,0,8,00,00,00,00,00,00,00,00,
58824,00000400,false,Rx,0,8,00,0B,58,F0,00,01,06,A4,
59123,00000408,false,Rx,0,8,00,41,33,0A,FF,FF,06,7E,
59397,00000410,false,Rx,0,8,43,00,00,00,00,FF,05,B9,
59673,00000411,false,Rx,0,8,32,60,00,00,00,00,00,00,
59950,00000022,false,Rx,0,8,FF,FF,FF,FF,00,00,05,05,
60623,00000010,false,Rx,0,8,00,FF,61,30,00,00,03,AD,
60848,00000231,false,Rx,0,8,00,01,00,00,00,00,0D,0C,
61122,00000517,false,Rx,0,8,01,00,00,00,00,00,00,00,
66112,00000102,false,Rx,0,8,00,00,19,54,56,CD,0C,DA,
66373,00000103,false,Rx,0,8,02,00,02,00,00,00,0C,0C,
66587,00000122,false,Rx,0,8,D3,23,00,CA,1C,E2,0E,CA,
71637,00000010,false,Rx,0,8,00,FF,61,30,00,00,04,AA,
71869,00000231,false,Rx,0,8,00,01,00,00,00,00,0E,0F,
72095,00000012,false,Rx,0,8,99,99,32,00,00,00,02,30,
72482,00000517,false,Rx,0,8,01,00,00,00,00,00,00,00,
76138,00000102,false,Rx,0,8,00,00,19,54,56,CD,0D,DB,
76373,00000103,false,Rx,0,8,02,00,02,00,00,00,0D,0D,
76573,00000122,false,Rx,0,8,D3,23,00,CA,1C,E2,0F,CB,
76823,00000110,false,Rx,0,8,00,00,00,7B,01,05,0F,70,
77074,00000300,false,Rx,0,8,00,00,0D,8C,00,66,00,00,
77301,00000308,false,Rx,0,8,00,12,00,00,00,00,82,00,
77520,00000316,false,Rx,0,8,13,AD,01,2B,53,00,00,00,
77773,00000320,false,Rx,0,8,20,00,00,00,F0,00,82,00,
78060,00000342,false,Rx,0,8,03,C2,99,99,7C,00,03,90,
78276,00000516,false,Rx,0,8,00,00,00,00,00,00,00,00,
79857,00000400,false,Rx,0,8,00,0B,58,F0,00,01,07,A5,
80158,00000408,false,Rx,0,8,00,41,33,0A,FF,FF,07,7F,
80457,00000410,false,Rx,0,8,43,00,00,00,00,FF,06,BA,
80708,00000411,false,Rx,0,8,32,60,00,00,00,00,00,00,
81011,00000022,false,Rx,0,8,FF,FF,FF,FF,00,00,06,06,
82608,00000010,false,Rx,0,8,00,FF,61,30,00,00,05,AB,
82822,00000231,false,Rx,0,8,00,02,00,00,00,00,00,02,
83101,00000517,false,Rx,0,8,00,00,00,00,00,00,00,00,
86110,00000102,false,Rx,0,8,00,00,19,54,56,CD,0E,D8,
86372,00000103,false,Rx,0,8,02,00,02,00,00,00,0E,0E,
86573,00000122,false,Rx,0,8,D3,23,00,CA,1C,E2,00,C4,
93872,00000010,false,Rx,0,8,00,FF,61,30,00,00,06,A8,
93885,00000231,false,Rx,0,8,00,02,00,00,00,00,01,03,
94161,00000012,false,Rx,0,8,99,99,32,00,01,00,03,30,
94316,00000517,false,Rx,0,8,01,00,00,00,00,00,00,00,
94546,00000013,false,Rx,0,8,FF,01,09,00,00,00,00,00,
96174,00000102,false,Rx,0,8,00,00,19,54,56,CD,0F,D9,
96373,00000103,false,Rx,0,8,02,00,02,00,00,00,0F,0F,
96574,00000122,false,Rx,0,8,D3,23,00,CA,1C,E2,01,C5,
97050,00000110,false,Rx,0,8,00,00,00,7B,01,05,00,7F,
97301,00000308,false,Rx,0,8,00,12,00,00,00,00,82,00,
97548,00000300,false,Rx,0,8,00,00,0D,8C,00,66,00,00,
97815,00000316,false,Rx,0,8,13,AD,01,2B,53,00,00,00,
98079,00000320,false,Rx,0,8,20,00,00,00,F0,00,82,00,
98292,00000342,false,Rx,0,8,03,C2,99,99,7C,00,03,90,
98498,00000516,false,Rx,0,8,00,00,00,00,00,00,00,00,
101075,00000400,false,Rx,0,8,00,0B,58,F0,00,01,08,AA,
101158,00000408,false,Rx,0,8,00,41,33,0A,FF,FF,08,70,
101391,00000410,false,Rx,0,8,43,00,00,00,00,FF,08,B4,
101650,00000411,false,Rx,0,8,32,60,00,00,00,00,00,00,
101963,00000022,false,Rx,0,8,FF,FF,FF,FF,00,00,08,08,
102237,00000332,false,Rx,0,8,01,00,00,00,00,00,07,06,
102554,00000530,false,Rx,0,8,FF,FF,70,4B,64,04,49,00,
104568,00000010,false,Rx,0,8,00,FF,61,30,00,00,07,A9,
104821,00000231,false,Rx,0,8,00,02,00,00,00,00,02,00,
105100,00000517,false,Rx,0,8,01,00,00,00,00,00,00,00,
106102,00000102,false,Rx,0,8,00,00,19,54,56,CD,00,D6,
106375,00000103,false,Rx,0,8,02,00,02,00,00,00,00,00,
106574,00000122,false,Rx,0,8,D3,23,00,CA,1C,E2,02,C6,
115833,00000010,false,Rx,0,8,00,FF,61,30,00,00,08,A6,
115848,00000231,false,Rx,0,8,00,02,00,00,00,00,03,01,
116105,00000012,false,Rx,0,8,99,99,32,00,00,00,04,36,
116300,00000102,false,Rx,0,8,00,00,19,54,56,CD,01,D7,
116532,00000103,false,Rx,0,8,02,00,02,00,00,00,01,01,
116775,00000122,false,Rx,0,8,D3,23,00,CA,1C,E2,03,C7,
116999,00000110,false,Rx,0,8,00,00,00,7B,01,05,01,7E,
117252,00000300,false,Rx,0,8,00,00,0D,8C,00,66,00,00,
117497,00000308,false,Rx,0,8,00,12,00,00,00,00,82,00,
117722,00000316,false,Rx,0,8,13,AD,01,2B,53,00,00,00,
117974,00000320,false,Rx,0,8,20,00,00,00,F0,00,82,00,
118224,00000342,false,Rx,0,8,03,C2,99,99,7C,00,03,90,
118531,00000516,false,Rx,0,8,00,00,00,00,00,00,00,00,
118731,00000517,false,Rx,0,8,00,00,00,00,00,00,00,00,
121854,00000400,false,Rx,0,8,00,0B,58,F0,00,01,09,AB,
122133,00000408,false,Rx,0,8,00,41,33,0A,FF,FF,09,71,
122407,00000410,false,Rx,0,8,43,00,00,00,00,FF,09,B5,
122683,00000411,false,Rx,0,8,32,60,00,00,00,00,00,00,
123152,00000022,false,Rx,0,8,FF,FF,FF,FF,00,00,09,09,
126150,00000102,false,Rx,0,8,00,00,19,54,56,CD,02,D4,
126382,00000103,false,Rx,0,8,02,00,02,00,00,00,02,02,
126608,00000010,false,Rx,0,8,00,FF,61,30,00,00,09,A7,
126799,00000122,false,Rx,0,8,D3,23,00,CA,1C,E2,04,C0,
127050,00000231,false,Rx,0,8,00,02,00,00,00,00,04,06,
127374,00000517,false,Rx,0,8,00,00,00,00,00,00,00,00,
136123,00000102,false,Rx,0,8,00,00,19,54,56,CD,03,D5,
136374,00000103,false,Rx,0,8,02,00,02,00,00,00,03,03,
136575,00000122,false,Rx,0,8,D3,23,00,CA,1C,E2,05,C1,
137030,00000110,false,Rx,0,8,00,00,00,7B,01,05,02,7D,
137275,00000300,false,Rx,0,8,00,00,0D,8C,00,66,00,00,
137582,00000308,false,Rx,0,8,00,12,00,00,00,00,82,00,
137775,00000010,false,Rx,0,8,00,FF,61,30,00,00,0A,A4,
138024,00000231,false,Rx,0,8,00,02,00,00,00,00,05,07,
138310,00000012,false,Rx,0,8,99,99,32,00,01,00,05,36,
138538,00000316,false,Rx,0,8,13,AD,01,2B,53,00,00,00,
138767,00000320,false,Rx,0,8,20,00,00,00,F0,00,82,00,
138999,00000342,false,Rx,0,8,03,C2,99,99,7C,00,03,90,
139208,00000516,false,Rx,0,8,00,00,00,00,00,00,00,00,
139493,00000517,false,Rx,0,8,01,00,00,00,00,00,00,00,
143197,00000400,false,Rx,0,8,00,0B,58,F0,00,01,0A,A8,
143211,00000408,false,Rx,0,8,00,41,33,0A,FF,FF,0A,72,
143379,00000410,false,Rx,0,8,43,00,00,00,00,FF,0A,B6,
143648,00000411,false,Rx,0,8,32,60,00,00,00,00,00,00,
144146,00000022,false,Rx,0,8,FF,FF,FF,FF,00,00,0A,0A,
146106,00000102,false,Rx,0,8,00,00,19,54,56,CD,04,D2,
146379,00000103,false,Rx,0,8,02,00,02,00,00,00,04,04,
146574,00000122,false,Rx,0,8,D3,23,00,CA,1C,E2,06,C2,
148572,00000010,false,Rx,0,8,00,FF,61,30,00,00,0B,A5,
148751,00000013,false,Rx,0,8,FF,01,09,00,00,00,00,00,
149002,00000231,false,Rx,0,8,00,02,00,00,00,00,06,04,
149311,00000517,false,Rx,0,8,01,00,00,00,00,00,00,00,
156118,00000102,false,Rx,0,8,00,00,19,54,56,CD,05,D3,
156375,00000103,false,Rx,0,8,02,00,02,00,00,00,05,05,
156576,00000122,false,Rx,0,8,D3,23,00,CA,1C,E2,07,C3,
156827,00000110,false,Rx,0,8,00,00,00,7B,01,05,03,7C,
157053,00000300,false,Rx,0,8,00,00,0D,8C,00,66,00,00,
157303,00000308,false,Rx,0,8,00,12,00,00,00,00,82,00,
157550,00000316,false,Rx,0,8,13,AD,01,2B,53,00,00,00,
157823,00000320,false,Rx,0,8,20,00,00,00,F0,00,82,00,
158028,00000342,false,Rx,0,8,03,C2,99,99,7C,00,03,90,
158278,00000516,false,Rx,0,8,00,00,00,00,00,00,00,00,
159565,00000010,false,Rx,0,8,00,FF,61,30,00,00,0C,A2,
159773,00000012,false,Rx,0,8,99,99,32,00,00,00,06,34,
160025,00000231,false,Rx,0,8,00,02,00,00,00,00,07,05,
160336,00000517,false,Rx,0,8,00,00,00,00,00,00,00,00,
163901,00000400,false,Rx,0,8,00,0B,58,F0,00,01,0B,A9,
164101,00000408,false,Rx,0,8,00,41,33,0A,FF,FF,0B,73,
164417,00000410,false,Rx,0,8,43,00,00,00,00,FF,0B,B7,
164690,00000411,false,Rx,0,8,32,60,00,00,00,00,00,00,
164941,00000022,false,Rx,0,8,FF,FF,FF,FF,00,00,0B,0B,
166133,00000102,false,Rx,0,8,00,00,19,54,56,CD,06,D0,
166373,00000103,false,Rx,0,8,02,00,02,00,00,00,06,06,
166548,00000122,false,Rx,0,8,D3,23,00,CA,1C,E2,08,CC,
170528,00000010,false,Rx,0,8,00,FF,61,30,00,00,0D,A3,
170926,00000231,false,Rx,0,8,00,02,00,00,00,00,08,0A,
171149,00000517,false,Rx,0,8,00,00,00,00,00,00,00,00,
176153,00000102,false,Rx,0,8,00,00,19,54,56,CD,07,D1,
176376,00000103,false,Rx,0,8,02,00,02,00,00,00,07,07,
176597,00000122,false,Rx,0,8,D3,23,00,CA,1C,E2,09,CD,
177026,00000110,false,Rx,0,8,00,00,00,7B,01,05,04,7B,
177276,00000308,false,Rx,0,8,00,12,00,00,00,00,82,00,
177526,00000300,false,Rx,0,8,00,00,0D,8C,00,66,00,00,
177777,00000316,false,Rx,0,8,13,AD,01,2B,53,00,00,00,
178028,00000320,false,Rx,0,8,20,00,00,00,F0,00,82,00,
178253,00000342,false,Rx,0,8,03,C2,99,99,7C,00,03,90,
178472,00000516,false,Rx,0,8,00,00,00,00,00,00,00,00,
181517,00000010,false,Rx,0,8,00,FF,61,30,00,00,0E,A0,
181725,00000012,false,Rx,0,8,99,99,32,00,01,00,07,34,
181977,00000231,false,Rx,0,8,00,03,00,00,00,00,0A,09,
182259,00000517,false,Rx,0,8,01,00,00,00,00,00,00,00,
184863,00000400,false,Rx,0,8,00,0B,58,F0,00,01,0C,AE,
185101,00000408,false,Rx,0,8,00,41,33,0A,FF,FF,0C,74,
185375,00000410,false,Rx,0,8,43,00,00,00,00,FF,0C,B0,
185649,00000411,false,Rx,0,8,32,60,00,00,00,00,00,00,
185926,00000022,false,Rx,0,8,FF,FF,FF,FF,00,00,0C,0C,
186178,00000102,false,Rx,0,8,00,00,19,54,56,CD,08,DE,
186400,00000103,false,Rx,0,8,02,00,02,00,00,00,08,08,
186626,00000122,false,Rx,0,8,D3,23,00,CA,1C,E2,0A,CE,
192494,00000010,false,Rx,0,8,00,FF,61,30,00,00,0F,A1,
192877,00000231,false,Rx,0,8,00,03,00,00,00,00,0A,09,
193176,00000517,false,Rx,0,8,01,00,00,00,00,00,00,00,
196091,00000102,false,Rx,0,8,00,00,19,54,56,CD,09,DF,
196376,00000103,false,Rx,0,8,02,00,02,00,00,00,09,09,
196550,00000122,false,Rx,0,8,D3,23,00,CA,1C,E2,0B,CF,
196799,00000110,false,Rx,0,8,00,00,00,7B,01,05,05,7A,
197053,00000300,false,Rx,0,8,00,00,0D,8C,00,66,00,00,
197277,00000308,false,Rx,0,8,00,12,00,00,00,00,82,00,
197530,00000316,false,Rx,0,8,13,AD,01,2B,53,00,00,00,
197778,00000320,false,Rx,0,8,20,00,00,00,F0,00,82,00,
198001,00000342,false,Rx,0,8,03,C2,99,99,7C,00,03,90,
198252,00000516,false,Rx,0,8,00,00,00,00,00,00,00,00,
202815,00000332,false,Rx,0,8,01,00,00,00,00,00,08,09,
203075,00000530,false,Rx,0,8,FF,FF,70,4B,64,04,49,00,
203486,00000010,false,Rx,0,8,00,FF,61,30,00,00,00,AE,
203709,00000012,false,Rx,0,8,99,99,32,00,00,00,08,3A,
203958,00000231,false,Rx,0,8,00,03,00,00,00,00,0C,0F,
204209,00000013,false,Rx,0,8,FF,01,09,00,00,00,00,00,
204448,00000517,false,Rx,0,8,00,00,00,00,00,00,00,00,
205828,00000400,false,Rx,0,8,00,0B,58,F0,00,01,0D,AF,
206076,00000102,false,Rx,0,8,00,00,19,54,56,CD,0A,DC,
206410,00000103,false,Rx,0,8,02,00,02,00,00,00,0A,0A,
206588,00000122,false,Rx,0,8,D3,23,00,CA,1C,E2,0C,C8,
206816,00000408,false,Rx,0,8,00,41,33,0A,FF,FF,0D,75,
207061,00000410,false,Rx,0,8,43,00,00,00,00,FF,0D,B1,
207391,00000411,false,Rx,0,8,32,60,00,00,00,00,00,00,
207601,00000022,false,Rx,0,8,FF,FF,FF,FF,00,00,0D,0D,
214477,00000010,false,Rx,0,8,00,FF,61,30,00,00,01,AF,
214881,00000231,false,Rx,0,8,00,03,00,00,00,00,0D,0E,
215153,00000517,false,Rx,0,8,01,00,00,00,00,00,00,00,
216082,00000102,false,Rx,0,8,00,00,19,54,56,CD,0B,DD,
216326,00000103,false,Rx,0,8,02,00,02,00,00,00,0B,0B,
216574,00000122,false,Rx,0,8,D3,23,00,CA,1C,E2,0D,C9,
217052,00000110,false,Rx,0,8,00,00,00,7B,01,05,06,79,
217278,00000308,false,Rx,0,8,00,12,00,00,00,00,82,00,
217525,00000300,false,Rx,0,8,00,00,0D,8C,00,66,00,00,
217776,00000316,false,Rx,0,8,13,AD,01,2B,53,00,00,00,
218043,00000320,false,Rx,0,8,20,00,00,00,F0,00,82,00,
218288,00000342,false,Rx,0,8,03,C2,99,99,7C,00,03,90,
218509,00000516,false,Rx,0,8,00,00,00,00,00,00,00,00,
225733,00000010,false,Rx,0,8,00,FF,61,30,00,00,02,AC,
225747,00000012,false,Rx,0,8,99,99,32,00,01,00,09,3A,
225948,00000231,false,Rx,0,8,00,03,00,00,00,00,0E,0D,
226231,00000102,false,Rx,0,8,00,00,19,54,56,CD,0C,DA,
226459,00000103,false,Rx,0,8,02,00,02,00,00,00,0C,0C,
226651,00000122,false,Rx,0,8,D3,23,00,CA,1C,E2,0E,CA,
226936,00000517,false,Rx,0,8,01,00,00,00,00,00,00,00,
227188,00000400,false,Rx,0,8,00,0B,58,F0,00,01,0E,AC,
227471,00000408,false,Rx,0,8,00,41,33,0A,FF,FF,0E,76,
227759,00000410,false,Rx,0,8,43,00,00,00,00,FF,0E,B2,
228034,00000411,false,Rx,0,8,32,60,00,00,00,00,00,00,
228308,00000022,false,Rx,0,8,FF,FF,FF,FF,00,00,0E,0E,
236155,00000102,false,Rx,0,8,00,00,19,54,56,CD,0D,DB,
236377,00000103,false,Rx,0,8,02,00,02,00,00,00,0D,0D,
236614,00000010,false,Rx,0,8,00,FF,61,30,00,00,03,AD,
236837,00000122,false,Rx,0,8,D3,23,00,CA,1C,E2,0F,CB,
237062,00000110,false,Rx,0,8,00,00,00,7B,01,05,07,78,
237280,00000231,false,Rx,0,8,00,03,00,00,00,00,0F,0C,
237541,00000300,false,Rx,0,8,00,00,0D,8C,00,66,00,00,
237764,00000308,false,Rx,0,8,00,12,00,00,00,00,82,00,
238015,00000316,false,Rx,0,8,13,AD,01,2B,53,00,00,00,
238242,00000320,false,Rx,0,8,20,00,00,00,F0,00,82,00,
238476,00000342,false,Rx,0,8,03,C2,99,99,7C,00,03,90,
238723,00000516,false,Rx,0,8,00,00,00,00,00,00,00,00,
238978,00000517,false,Rx,0,8,00,00,00,00,00,00,00,00,
246101,00000102,false,Rx,0,8,00,00,19,54,56,CD,0E,D8,
246376,00000103,false,Rx,0,8,02,00,02,00,00,00,0E,0E,
246549,00000122,false,Rx,0,8,D3,23,00,CA,1C,E2,00,C4,
247664,00000010,false,Rx,0,8,00,FF,61,30,00,00,04,AA,
247737,00000012,false,Rx,0,8,99,99,32,00,00,00,0A,38,
248000,00000231,false,Rx,0,8,00,03,00,00,00,00,00,03,
248246,00000400,false,Rx,0,8,00,0B,58,F0,00,01,0F,AD,
248477,00000408,false,Rx,0,8,00,41,33,0A,FF,FF,0F,77,
248776,00000410,false,Rx,0,8,43,00,00,00,00,FF,0F,B3,
249053,00000411,false,Rx,0,8,32,60,00,00,00,00,00,00,
249558,00000022,false,Rx,0,8,FF,FF,FF,FF,00,00,0F,0F,
249615,00000517,false,Rx,0,8,00,00,00,00,00,00,00,00,
256361,00000102,false,Rx,0,8,00,00,19,54,56,CD,0F,D9,
256376,00000103,false,Rx,0,8,02,00,02,00,00,00,0F,0F,
256556,00000122,false,Rx,0,8,D3,23,00,CA,1C,E2,01,C5,
257037,00000110,false,Rx,0,8,00,00,00,7B,01,05,08,77,
257279,00000308,false,Rx,0,8,00,12,00,00,00,00,82,00,
257549,00000300,false,Rx,0,8,00,00,0D,8C,00,66,00,00,
257749,00000316,false,Rx,0,8,13,AD,01,2B,53,00,00,00,
258001,00000320,false,Rx,0,8,20,00,00,00,F0,00,82,00,
258262,00000342,false,Rx,0,8,03,C2,99,99,7C,00,03,90,
258480,00000010,false,Rx,0,8,00,FF,61,30,00,00,05,AB,
258726,00000516,false,Rx,0,8,00,00,00,00,00,00,00,00,
259035,00000013,false,Rx,0,8,FF,01,09,00,00,00,00,00,
259229,00000231,false,Rx,0,8,00,03,00,00,00,00,01,02,
259500,00000517,false,Rx,0,8,01,00,00,00,00,00,00,00,
266140,00000102,false,Rx,0,8,00,00,19,54,56,CD,00,D6,
266375,00000103,false,Rx,0,8,02,00,02,00,00,00,00,00,
266552,00000122,false,Rx,0,8,D3,23,00,CA,1C,E2,02,C6,
269116,00000400,false,Rx,0,8,00,0B,58,F0,00,01,00,A2,
269189,00000408,false,Rx,0,8,00,41,33,0A,FF,FF,00,78,
269401,00000410,false,Rx,0,8,43,00,00,00,00,FF,00,BC,
269674,00000010,false,Rx,0,8,00,FF,61,30,00,00,06,A8,
269878,00000411,false,Rx,0,8,32,60,00,00,00,00,00,00,
270138,00000012,false,Rx,0,8,99,99,32,00,01,00,0B,38,
270377,00000022,false,Rx,0,8,FF,FF,FF,FF,00,00,00,00,
270652,00000231,false,Rx,0,8,00,03,00,00,00,00,02,01,
270928,00000517,false,Rx,0,8,01,00,00,00,00,00,00,00,
276336,00000102,false,Rx,0,8,00,00,19,54,56,CD,01,D7,
276351,00000103,false,Rx,0,8,02,00,02,00,00,00,01,01,
276555,00000122,false,Rx,0,8,D3,23,00,CA,1C,E2,03,C7,
276814,00000110,false,Rx,0,8,00,00,00,7B,01,05,09,76,
277038,00000300,false,Rx,0,8,00,00,0D,8C,00,66,00,00,
277290,00000308,false,Rx,0,8,00,12,00,00,00,00,82,00,
277526,00000316,false,Rx,0,8,13,AD,01,2B,53,00,00,00,
277753,00000320,false,Rx,0,8,20,00,00,00,F0,00,82,00,
278004,00000342,false,Rx,0,8,03,C2,99,99,7C,00,03,90,
278254,00000516,false,Rx,0,8,00,00,00,00,00,00,00,00,
280425,00000010,false,Rx,0,8,00,FF,61,30,00,00,07,A9,
280827,00000231,false,Rx,0,8,00,03,00,00,00,00,04,07,
281105,00000517,false,Rx,0,8,00,00,00,00,00,00,00,00,
286113,00000102,false,Rx,0,8,00,00,19,54,56,CD,02,D4,
286378,00000103,false,Rx,0,8,02,00,02,00,00,00,02,02,
286578,00000122,false,Rx,0,8,D3,23,00,CA,1C,E2,04,C0,
289842,00000400,false,Rx,0,8,00,0B,58,F0,00,01,01,A3,
290162,00000408,false,Rx,0,8,00,41,33,0A,FF,FF,01,79,
290411,00000410,false,Rx,0,8,43,00,00,00,00,FF,01,BD,
290712,00000411,false,Rx,0,8,32,60,00,00,00,00,00,00,
290963,00000022,false,Rx,0,8,FF,FF,FF,FF,00,00,01,01,
291436,00000010,false,Rx,0,8,00,FF,61,30,00,00,08,A6,
291636,00000012,false,Rx,0,8,99,99,32,00,00,00,0C,3E,
291878,00000231,false,Rx,0,8,00,03,00,00,00,00,04,07,
292188,00000517,false,Rx,0,8,00,00,00,00,00,00,00,00,
296096,00000102,false,Rx,0,8,00,00,19,54,56,CD,03,D5,
296378,00000103,false,Rx,0,8,02,00,02,00,00,00,03,03,
296550,00000122,false,Rx,0,8,D3,23,00,CA,1C,E2,05,C1,
297029,00000110,false,Rx,0,8,00,00,00,7B,01,05,0A,75,
297282,00000308,false,Rx,0,8,00,12,00,00,00,00,82,00,
297534,00000300,false,Rx,0,8,00,00,0D,8C,00,66,00,00,
297753,00000316,false,Rx,0,8,13,AD,01,2B,53,00,00,00,
298004,00000320,false,Rx,0,8,20,00,00,00,F0,00,82,00,
298230,00000342,false,Rx,0,8,03,C2,99,99,7C,00,03,90,
298505,00000516,false,Rx,0,8,00,00,00,00,00,00,00,00,
302391,00000010,false,Rx,0,8,00,FF,61,30,00,00,09,A7,
302804,00000231,false,Rx,0,8,00,03,00,00,00,00,06,05,
303103,00000517,false,Rx,0,8,01,00,00,00,00,00,00,00,
303827,00000332,false,Rx,0,8,01,00,00,00,00,00,09,08,
304076,00000530,false,Rx,0,8,FF,FF,70,4B,64,04,49,00,
306076,00000102,false,Rx,0,8,00,00,19,54,56,CD,04,D2,
306377,00000103,false,Rx,0,8,02,00,02,00,00,00,04,04,
306551,00000122,false,Rx,0,8,D3,23,00,CA,1C,E2,06,C2,
310871,00000400,false,Rx,0,8,00,0B,58,F0,00,01,02,A0,
311130,00000408,false,Rx,0,8,00,41,33,0A,FF,FF,02,7A,
311402,00000410,false,Rx,0,8,43,00,00,00,00,FF,02,BE,
311654,00000411,false,Rx,0,8,32,60,00,00,00,00,00,00,
311954,00000022,false,Rx,0,8,FF,FF,FF,FF,00,00,02,02,
313384,00000010,false,Rx,0,8,00,FF,61,30,00,00,0A,A4,
313604,00000012,false,Rx,0,8,99,99,32,00,01,00,0D,3E,
313855,00000231,false,Rx,0,8,00,03,00,00,00,00,07,04,
314105,00000013,false,Rx,0,8,FF,01,09,00,00,00,00,00,
314378,00000517,false,Rx,0,8,00,00,00,00,00,00,00,00,
316090,00000102,false,Rx,0,8,00,00,19,54,56,CD,05,D3,
316378,00000103,false,Rx,0,8,02,00,02,00,00,00,05,05,
316579,00000122,false,Rx,0,8,D3,23,00,CA,1C,E2,07,C3,
316804,00000110,false,Rx,0,8,00,00,00,7B,01,05,0B,74,
317053,00000300,false,Rx,0,8,00,00,0D,8C,00,66,00,00,
317306,00000308,false,Rx,0,8,00,12,00,00,00,00,82,00,
317528,00000316,false,Rx,0,8,13,AD,01,2B,53,00,00,00,
317778,00000320,false,Rx,0,8,20,00,00,00,F0,00,82,00,
318005,00000342,false,Rx,0,8,03,C2,99,99,7C,00,03,90,
318260,00000516,false,Rx,0,8,00,00,00,00,00,00,00,00,
324346,00000010,false,Rx,0,8,00,FF,61,30,00,00,0B,A5,
324804,00000231,false,Rx,0,8,00,03,00,00,00,00,08,0B,
325102,00000517,false,Rx,0,8,00,00,00,00,00,00,00,00,
326080,00000102,false,Rx,0,8,00,00,19,54,56,CD,06,D0,
326376,00000103,false,Rx,0,8,02,00,02,00,00,00,06,06,
326555,00000122,false,Rx,0,8,D3,23,00,CA,1C,E2,08,CC,
331868,00000400,false,Rx,0,8,00,0B,58,F0,00,01,03,A1,
332129,00000408,false,Rx,0,8,00,41,33,0A,FF,FF,03,7B,
332378,00000410,false,Rx,0,8,43,00,00,00,00,FF,03,BF,
332678,00000411,false,Rx,0,8,32,60,00,00,00,00,00,00,
332930,00000022,false,Rx,0,8,FF,FF,FF,FF,00,00,03,03,
335394,00000010,false,Rx,0,8,00,FF,61,30,00,00,0C,A2,
335579,00000012,false,Rx,0,8,99,99,32,00,00,00,0E,3C,
335830,00000231,false,Rx,0,8,00,03,00,00,00,00,09,0A,
336081,00000102,false,Rx,0,8,00,00,19,54,56,CD,07,D1,
336377,00000103,false,Rx,0,8,02,00,02,00,00,00,07,07,
336554,00000122,false,Rx,0,8,D3,23,00,CA,1C,E2,09,CD,
336806,00000517,false,Rx,0,8,01,00,00,00,00,00,00,00,
337039,00000110,false,Rx,0,8,00,00,00,7B,01,05,0C,73,
337281,00000300,false,Rx,0,8,00,00,0D,8C,00,66,00,00,
337528,00000308,false,Rx,0,8,00,12,00,00,00,00,82,00,
337778,00000316,false,Rx,0,8,13,AD,01,2B,53,00,00,00,
338005,00000320,false,Rx,0,8,20,00,00,00,F0,00,82,00,
338256,00000342,false,Rx,0,8,03,C2,99,99,7C,00,03,90,
338478,00000516,false,Rx,0,8,00,00,00,00,00,00,00,00,
346067,00000102,false,Rx,0,8,00,00,19,54,56,CD,08,DE,
346304,00000010,false,Rx,0,8,00,FF,61,30,00,00,0D,A3,
346555,00000103,false,Rx,0,8,02,00,02,00,00,00,08,08,
346777,00000122,false,Rx,0,8,D3,23,00,CA,1C,E2,0A,CE,
347033,00000231,false,Rx,0,8,00,03,00,00,00,00,0A,09,
347304,00000517,false,Rx,0,8,01,00,00,00,00,00,00,00,
352868,00000400,false,Rx,0,8,00,0B,58,F0,00,01,05,A7,
353104,00000408,false,Rx,0,8,00,41,33,0A,FF,FF,05,7D,
353377,00000410,false,Rx,0,8,43,00,00,00,00,FF,04,B8,
353654,00000411,false,Rx,0,8,32,60,00,00,00,00,00,00,
353930,00000022,false,Rx,0,8,FF,FF,FF,FF,00,00,04,04,
356094,00000102,false,Rx,0,8,00,00,19,54,56,CD,09,DF,
356380,00000103,false,Rx,0,8,02,00,02,00,00,00,09,09,
356555,00000122,false,Rx,0,8,D3,23,00,CA,1C,E2,0B,CF,
356781,00000110,false,Rx,0,8,00,00,00,7B,01,05,0D,72,
357032,00000300,false,Rx,0,8,00,00,0D,8C,00,66,00,00,
357283,00000308,false,Rx,0,8,00,12,00,00,00,00,82,00,
357529,00000010,false,Rx,0,8,00,FF,61,30,00,00,0E,A0,
357754,00000316,false,Rx,0,8,13,AD,01,2B,53,00,00,00,
357978,00000012,false,Rx,0,8,99,99,32,00,01,00,0F,3C,
358237,00000231,false,Rx,0,8,00,03,00,00,00,00,0B,08,
358476,00000320,false,Rx,0,8,20,00,00,00,F0,00,82,00,
358730,00000342,false,Rx,0,8,03,C2,99,99,7C,00,03,90,
358981,00000516,false,Rx,0,8,00,00,00,00,00,00,00,00,
359232,00000517,false,Rx,0,8,00,00,00,00,00,00,00,00,
366093,00000102,false,Rx,0,8,00,00,19,54,56,CD,0A,DC,
366305,00000103,false,Rx,0,8,02,00,02,00,00,00,0A,0A,
366553,00000122,false,Rx,0,8,D3,23,00,CA,1C,E2,0C,C8,
368310,00000010,false,Rx,0,8,00,FF,61,30,00,00,0F,A1,
368531,00000013,false,Rx,0,8,FF,01,09,00,00,00,00,00,
368859,00000231,false,Rx,0,8,00,03,00,00,00,00,0C,0F,
369110,00000517,false,Rx,0,8,00,00,00,00,00,00,00,00,
373885,00000400,false,Rx,0,8,00,0B,58,F0,00,01,06,A4,
374105,00000408,false,Rx,0,8,00,41,33,0A,FF,FF,06,7E,
374412,00000410,false,Rx,0,8,43,00,00,00,00,FF,05,B9,
374689,00000411,false,Rx,0,8,32,60,00,00,00,00,00,00,
374965,00000022,false,Rx,0,8,FF,FF,FF,FF,00,00,05,05,
376089,00000102,false,Rx,0,8,00,00,19,54,56,CD,0B,DD,
376306,00000103,false,Rx,0,8,02,00,02,00,00,00,0B,0B,
376553,00000122,false,Rx,0,8,D3,23,00,CA,1C,E2,0D,C9,
377030,00000110,false,Rx,0,8,00,00,00,7B,01,05,0E,71,
377283,00000308,false,Rx,0,8,00,12,00,00,00,00,82,00,
377504,00000300,false,Rx,0,8,00,00,0D,8C,00,66,00,00,
377754,00000316,false,Rx,0,8,13,AD,01,2B,53,00,00,00,
378005,00000320,false,Rx,0,8,20,00,00,00,F0,00,82,00,
378278,00000342,false,Rx,0,8,03,C2,99,99,7C,00,03,90,
378483,00000516,false,Rx,0,8,00,00,00,00,00,00,00,00,
379308,00000010,false,Rx,0,8,00,FF,61,30,00,00,00,AE,
379553,00000012,false,Rx,0,8,99,99,32,00,00,00,00,32,
379828,00000231,false,Rx,0,8,00,03,00,00,00,00,0D,0E,
380107,00000517,false,Rx,0,8,01,00,00,00,00,00,00,00,
386134,00000102,false,Rx,0,8,00,00,19,54,56,CD,0C,DA,
386380,00000103,false,Rx,0,8,02,00,02,00,00,00,0C,0C,
386529,00000122,false,Rx,0,8,D3,23,00,CA,1C,E2,0E,CA,
390305,00000010,false,Rx,0,8,00,FF,61,30,00,00,01,AF,
390834,00000231,false,Rx,0,8,00,03,00,00,00,00,0E,0D,
391113,00000517,false,Rx,0,8,01,00,00,00,00,00,00,00,
394846,00000400,false,Rx,0,8,00,0B,58,F0,00,01,07,A5,
395132,00000408,false,Rx,0,8,00,41,33,0A,FF,FF,07,7F,
395380,00000410,false,Rx,0,8,43,00,00,00,00,FF,06,BA,
395678,00000411,false,Rx,0,8,32,60,00,00,00,00,00,00,
395931,00000022,false,Rx,0,8,FF,FF,FF,FF,00,00,06,06,
396182,00000102,false,Rx,0,8,00,00,19,54,56,CD,0D,DB,
396429,00000103,false,Rx,0,8,02,00,02,00,00,00,0D,0D,
396656,00000122,false,Rx,0,8,D3,23,00,CA,1C,E2,0F,CB,
396881,00000110,false,Rx,0,8,00,00,00,7B,01,05,0F,70,
397130,00000300,false,Rx,0,8,00,00,0D,8C,00,66,00,00,
397381,00000308,false,Rx,0,8,00,12,00,00,00,00,82,00,
397605,00000316,false,Rx,0,8,13,AD,01,2B,53,00,00,00,
397856,00000320,false,Rx,0,8,20,00,00,00,F0,00,82,00,
398105,00000342,false,Rx,0,8,03,C2,99,99,7C,00,03,90,
398380,00000516,false,Rx,0,8,00,00,00,00,00,00,00,00,
401294,00000010,false,Rx,0,8,00,FF,61,30,00,00,02,AC,
401537,00000012,false,Rx,0,8,99,99,32,00,01,00,01,32,
401885,00000231,false,Rx,0,8,00,03,00,00,00,00,00,03,
402167,00000517,false,Rx,0,8,00,00,00,00,00,00,00,00,
404848,00000332,false,Rx,0,8,01,00,00,00,00,00,0A,0B,
405081,00000530,false,Rx,0,8,FF,FF,70,4B,64,04,49,00,
406082,00000102,false,Rx,0,8,00,00,19,54,56,CD,0E,D8,
406405,00000103,false,Rx,0,8,02,00,02,00,00,00,0E,0E,
406555,00000122,false,Rx,0,8,D3,23,00,CA,1C,E2,00,C4,
412310,00000010,false,Rx,0,8,00,FF,61,30,00,00,03,AD,
412841,00000231,false,Rx,0,8,00,03,00,00,00,00,00,03,
413113,00000517,false,Rx,0,8,00,00,00,00,00,00,00,00,
415843,00000400,false,Rx,0,8,00,0B,58,F0,00,01,08,AA,
416085,00000102,false,Rx,0,8,00,00,19,54,56,CD,0F,D9,
416377,00000103,false,Rx,0,8,02,00,02,00,00,00,0F,0F,
416562,00000122,false,Rx,0,8,D3,23,00,CA,1C,E2,01,C5,
416788,00000408,false,Rx,0,8,00,41,33,0A,FF,FF,08,70,
417032,00000110,false,Rx,0,8,00,00,00,7B,01,05,00,7F,
417284,00000300,false,Rx,0,8,00,00,0D,8C,00,66,00,00,
417530,00000308,false,Rx,0,8,00,12,00,00,00,00,82,00,
417755,00000316,false,Rx,0,8,13,AD,01,2B,53,00,00,00,
418004,00000320,false,Rx,0,8,20,00,00,00,F0,00,82,00,
418232,00000342,false,Rx,0,8,03,C2,99,99,7C,00,03,90,
418477,00000410,false,Rx,0,8,43,00,00,00,00,FF,07,BB,
418730,00000516,false,Rx,0,8,00,00,00,00,00,00,00,00,
418982,00000411,false,Rx,0,8,32,60,00,00,00,00,00,00,
419258,00000022,false,Rx,0,8,FF,FF,FF,FF,00,00,07,07,
423295,00000010,false,Rx,0,8,00,FF,61,30,00,00,04,AA,
423511,00000012,false,Rx,0,8,99,99,32,00,00,00,02,30,
423761,00000013,false,Rx,0,8,FF,01,09,00,00,00,00,00,
424013,00000231,false,Rx,0,8,00,03,00,00,00,00,02,01,
424287,00000517,false,Rx,0,8,01,00,00,00,00,00,00,00,
426124,00000102,false,Rx,0,8,00,00,19,54,56,CD,00,D6,
426380,00000103,false,Rx,0,8,02,00,02,00,00,00,00,00,
426555,00000122,false,Rx,0,8,D3,23,00,CA,1C,E2,02,C6,
434261,00000010,false,Rx,0,8,00,FF,61,30,00,00,05,AB,
434809,00000231,false,Rx,0,8,00,03,00,00,00,00,03,00,
435082,00000517,false,Rx,0,8,00,00,00,00,00,00,00,00,
436083,00000102,false,Rx,0,8,00,00,19,54,56,CD,01,D7,
436379,00000103,false,Rx,0,8,02,00,02,00,00,00,01,01,
436558,00000122,false,Rx,0,8,D3,23,00,CA,1C,E2,03,C7,
436805,00000110,false,Rx,0,8,00,00,00,7B,01,05,01,7E,
437031,00000300,false,Rx,0,8,00,00,0D,8C,00,66,00,00,
437282,00000308,false,Rx,0,8,00,12,00,00,00,00,82,00,
437505,00000316,false,Rx,0,8,13,AD,01,2B,53,00,00,00,
437754,00000320,false,Rx,0,8,20,00,00,00,F0,00,82,00,
438008,00000342,false,Rx,0,8,03,C2,99,99,7C,00,03,90,
438256,00000400,false,Rx,0,8,00,0B,58,F0,00,01,09,AB,
438478,00000516,false,Rx,0,8,00,00,00,00,00,00,00,00,
438731,00000408,false,Rx,0,8,00,41,33,0A,FF,FF,09,71,
439007,00000410,false,Rx,0,8,43,00,00,00,00,FF,08,B4,
439283,00000411,false,Rx,0,8,32,60,00,00,00,00,00,00,
439580,00000022,false,Rx,0,8,FF,FF,FF,FF,00,00,08,08,
445246,00000010,false,Rx,0,8,00,FF,61,30,00,00,06,A8,
445481,00000012,false,Rx,0,8,99,99,32,00,01,00,03,30,
445880,00000231,false,Rx,0,8,00,03,00,00,00,00,04,07,
446133,00000102,false,Rx,0,8,00,00,19,54,56,CD,02,D4,
446379,00000103,false,Rx,0,8,02,00,02,00,00,00,02,02,
446606,00000122,false,Rx,0,8,D3,23,00,CA,1C,E2,04,C0,
446857,00000517,false,Rx,0,8,00,00,00,00,00,00,00,00,
456105,00000102,false,Rx,0,8,00,00,19,54,56,CD,03,D5,
456307,00000010,false,Rx,0,8,00,FF,61,30,00,00,07,A9,
456555,00000103,false,Rx,0,8,02,00,02,00,00,00,03,03,
456780,00000122,false,Rx,0,8,D3,23,00,CA,1C,E2,05,C1,
457030,00000110,false,Rx,0,8,00,00,00,7B,01,05,02,7D,
457282,00000231,false,Rx,0,8,00,03,00,00,00,00,05,06,
457505,00000300,false,Rx,0,8,00,00,0D,8C,00,66,00,00,
457756,00000308,false,Rx,0,8,00,12,00,00,00,00,82,00,
458006,00000316,false,Rx,0,8,13,AD,01,2B,53,00,00,00,
458233,00000320,false,Rx,0,8,20,00,00,00,F0,00,82,00,
458477,00000342,false,Rx,0,8,03,C2,99,99,7C,00,03,90,
458734,00000516,false,Rx,0,8,00,00,00,00,00,00,00,00,
458981,00000517,false,Rx,0,8,01,00,00,00,00,00,00,00,
459262,00000400,false,Rx,0,8,00,0B,58,F0,00,01,0A,A8,
459504,00000408,false,Rx,0,8,00,41,33,0A,FF,FF,0A,72,
459818,00000410,false,Rx,0,8,43,00,00,00,00,FF,09,B5,
460094,00000411,false,Rx,0,8,32,60,00,00,00,00,00,00,
460429,00000022,false,Rx,0,8,FF,FF,FF,FF,00,00,09,09,
466068,00000102,false,Rx,0,8,00,00,19,54,56,CD,04,D2,
466307,00000103,false,Rx,0,8,02,00,02,00,00,00,04,04,
466553,00000122,false,Rx,0,8,D3,23,00,CA,1C,E2,06,C2,
467205,00000010,false,Rx,0,8,00,FF,61,30,00,00,08,A6,
467455,00000012,false,Rx,0,8,99,99,32,00,00,00,04,36,
467911,00000231,false,Rx,0,8,00,03,00,00,00,00,06,05,
468180,00000517,false,Rx,0,8,01,00,00,00,00,00,00,00,
476173,00000102,false,Rx,0,8,00,00,19,54,56,CD,05,D3,
476308,00000103,false,Rx,0,8,02,00,02,00,00,00,05,05,
476553,00000122,false,Rx,0,8,D3,23,00,CA,1C,E2,07,C3,
476778,00000110,false,Rx,0,8,00,00,00,7B,01,05,03,7C,
477041,00000300,false,Rx,0,8,00,00,0D,8C,00,66,00,00,
477290,00000308,false,Rx,0,8,00,12,00,00,00,00,82,00,
477533,00000316,false,Rx,0,8,13,AD,01,2B,53,00,00,00,
477756,00000320,false,Rx,0,8,20,00,00,00,F0,00,82,00,
478007,00000342,false,Rx,0,8,03,C2,99,99,7C,00,03,90,
478232,00000010,false,Rx,0,8,00,FF,61,30,00,00,09,A7,
478481,00000516,false,Rx,0,8,00,00,00,00,00,00,00,00,
478732,00000013,false,Rx,0,8,FF,01,09,00,00,00,00,00,
478980,00000231,false,Rx,0,8,00,03,00,00,00,00,07,04,
479257,00000400,false,Rx,0,8,00,0B,58,F0,00,01,0B,A9,
479503,00000408,false,Rx,0,8,00,41,33,0A,FF,FF,0B,73,
479803,00000410,false,Rx,0,8,43,00,00,00,00,FF,0A,B6,
480084,00000411,false,Rx,0,8,32,60,00,00,00,00,00,00,
480604,00000022,false,Rx,0,8,FF,FF,FF,FF,00,00,0A,0A,
480673,00000517,false,Rx,0,8,00,00,00,00,00,00,00,00,
486228,00000102,false,Rx,0,8,00,00,19,54,56,CD,06,D0,
486313,00000103,false,Rx,0,8,02,00,02,00,00,00,06,06,
486529,00000122,false,Rx,0,8,D3,23,00,CA,1C,E2,08,CC,
489447,00000010,false,Rx,0,8,00,FF,61,30,00,00,0A,A4,
489461,00000012,false,Rx,0,8,99,99,32,00,01,00,05,36,
489880,00000231,false,Rx,0,8,00,03,00,00,00,00,08,0B,
490132,00000517,false,Rx,0,8,00,00,00,00,00,00,00,00,
496104,00000102,false,Rx,0,8,00,00,19,54,56,CD,07,D1,
496307,00000103,false,Rx,0,8,02,00,02,00,00,00,07,07,
496553,00000122,false,Rx,0,8,D3,23,00,CA,1C,E2,09,CD,
497030,00000110,false,Rx,0,8,00,00,00,7B,01,05,04,7B,
497256,00000308,false,Rx,0,8,00,12,00,00,00,00,82,00,
497523,00000300,false,Rx,0,8,00,00,0D,8C,00,66,00,00,
497765,00000316,false,Rx,0,8,13,AD,01,2B,53,00,00,00,
498068,00000320,false,Rx,0,8,20,00,00,00,F0,00,82,00,
498234,00000342,false,Rx,0,8,03,C2,99,99,7C,00,03,90,
498478,00000516,false,Rx,0,8,00,00,00,00,00,00,00,00,
500174,00000400,false,Rx,0,8,00,0B,58,F0,00,01,0C,AE,
500188,00000408,false,Rx,0,8,00,41,33,0A,FF,FF,0C,74,
500385,00000010,false,Rx,0,8,00,FF,61,30,00,00,0B,A5,
500578,00000410,false,Rx,0,8,43,00,00,00,00,FF,0B,B7,
500881,00000411,false,Rx,0,8,32,60,00,00,00,00,00,00,
501159,00000022,false,Rx,0,8,FF,FF,FF,FF,00,00,0B,0B,
501467,00000231,false,Rx,0,8,00,03,00,00,00,00,0A,09,
501981,00000517,false,Rx,0,8,01,00,00,00,00,00,00,00,
505843,00000332,false,Rx,0,8,01,00,00,00,00,00,0B,0A,
506057,00000102,false,Rx,0,8,00,00,19,54,56,CD,08,DE,
506312,00000103,false,Rx,0,8,02,00,02,00,00,00,08,08,
506531,00000122,false,Rx,0,8,D3,23,00,CA,1C,E2,0A,CE,
506759,00000530,false,Rx,0,8,FF,FF,70,4B,64,04,49,00,
511179,00000010,false,Rx,0,8,00,FF,61,30,00,00,0C,A2,
511407,00000012,false,Rx,0,8,99,99,32,00,00,00,06,34,
511831,00000231,false,Rx,0,8,00,03,00,00,00,00,0A,09,
512133,00000517,false,Rx,0,8,01,00,00,00,00,00,00,00,
516078,00000102,false,Rx,0,8,00,00,19,54,56,CD,09,DF,
516309,00000103,false,Rx,0,8,02,00,02,00,00,00,09,09,
516531,00000122,false,Rx,0,8,D3,23,00,CA,1C,E2,0B,CF,
516783,00000110,false,Rx,0,8,00,00,00,7B,01,05,05,7A,
517034,00000300,false,Rx,0,8,00,00,0D,8C,00,66,00,00,
517284,00000308,false,Rx,0,8,00,12,00,00,00,00,82,00,
517506,00000316,false,Rx,0,8,13,AD,01,2B,53,00,00,00,
517757,00000320,false,Rx,0,8,20,00,00,00,F0,00,82,00,
517984,00000342,false,Rx,0,8,03,C2,99,99,7C,00,03,90,
518240,00000516,false,Rx,0,8,00,00,00,00,00,00,00,00,
520873,00000400,false,Rx,0,8,00,0B,58,F0,00,01,0D,AF,
521108,00000408,false,Rx,0,8,00,41,33,0A,FF,FF,0D,75,
521382,00000410,false,Rx,0,8,43,00,00,00,00,FF,0D,B1,
521658,00000411,false,Rx,0,8,32,60,00,00,00,00,00,00,
521934,00000022,false,Rx,0,8,FF,FF,FF,FF,00,00,0D,0D,
522184,00000010,false,Rx,0,8,00,FF,61,30,00,00,0D,A3,
522808,00000231,false,Rx,0,8,00,03,00,00,00,00,0C,0F,
523108,00000517,false,Rx,0,8,00,00,00,00,00,00,00,00,
526068,00000102,false,Rx,0,8,00,00,19,54,56,CD,0A,DC,
526307,00000103,false,Rx,0,8,02,00,02,00,00,00,0A,0A,
526532,00000122,false,Rx,0,8,D3,23,00,CA,1C,E2,0C,C8,
533174,00000010,false,Rx,0,8,00,FF,61,30,00,00,0E,A0,
533408,00000012,false,Rx,0,8,99,99,32,00,01,00,07,34,
533658,00000013,false,Rx,0,8,FF,01,09,00,00,00,00,00,
533885,00000231,false,Rx,0,8,00,03,00,00,00,00,0D,0E,
534160,00000517,false,Rx,0,8,01,00,00,00,00,00,00,00,
536058,00000102,false,Rx,0,8,00,00,19,54,56,CD,0B,DD,
536305,00000103,false,Rx,0,8,02,00,02,00,00,00,0B,0B,
536530,00000122,false,Rx,0,8,D3,23,00,CA,1C,E2,0D,C9,
537008,00000110,false,Rx,0,8,00,00,00,7B,01,05,06,79,
537263,00000308,false,Rx,0,8,00,12,00,00,00,00,82,00,
537507,00000300,false,Rx,0,8,00,00,0D,8C,00,66,00,00,
537731,00000316,false,Rx,0,8,13,AD,01,2B,53,00,00,00,
537981,00000320,false,Rx,0,8,20,00,00,00,F0,00,82,00,
538207,00000342,false,Rx,0,8,03,C2,99,99,7C,00,03,90,
538457,00000516,false,Rx,0,8,00,00,00,00,00,00,00,00,
541855,00000400,false,Rx,0,8,00,0B,58,F0,00,01,0E,AC,
542108,00000408,false,Rx,0,8,00,41,33,0A,FF,FF,0E,76,
542381,00000410,false,Rx,0,8,43,00,00,00,00,FF,0E,B2,
542658,00000411,false,Rx,0,8,32,60,00,00,00,00,00,00,
542931,00000022,false,Rx,0,8,FF,FF,FF,FF,00,00,0E,0E,
544107,00000010,false,Rx,0,8,00,FF,61,30,00,00,0F,A1,
544830,00000231,false,Rx,0,8,00,03,00,00,00,00,0E,0D,
545107,00000517,false,Rx,0,8,01,00,00,00,00,00,00,00,
546057,00000102,false,Rx,0,8,00,00,19,54,56,CD,0C,DA,
546306,00000103,false,Rx,0,8,02,00,02,00,00,00,0C,0C,
546534,00000122,false,Rx,0,8,D3,23,00,CA,1C,E2,0E,CA,
555157,00000010,false,Rx,0,8,00,FF,61,30,00,00,00,AE,
555383,00000012,false,Rx,0,8,99,99,32,00,00,00,08,3A,
555836,00000231,false,Rx,0,8,00,03,00,00,00,00,0F,0C,
556057,00000102,false,Rx,0,8,00,00,19,54,56,CD,0D,DB,
556317,00000103,false,Rx,0,8,02,00,02,00,00,00,0D,0D,
556533,00000122,false,Rx,0,8,D3,23,00,CA,1C,E2,0F,CB,
556756,00000110,false,Rx,0,8,00,00,00,7B,01,05,07,78,
557009,00000300,false,Rx,0,8,00,00,0D,8C,00,66,00,00,
557260,00000308,false,Rx,0,8,00,12,00,00,00,00,82,00,
557482,00000316,false,Rx,0,8,13,AD,01,2B,53,00,00,00,
557733,00000320,false,Rx,0,8,20,00,00,00,F0,00,82,00,
557984,00000342,false,Rx,0,8,03,C2,99,99,7C,00,03,90,
558221,00000516,false,Rx,0,8,00,00,00,00,00,00,00,00,
558483,00000517,false,Rx,0,8,00,00,00,00,00,00,00,00,
562871,00000400,false,Rx,0,8,00,0B,58,F0,00,01,0F,AD,
563109,00000408,false,Rx,0,8,00,41,33,0A,FF,FF,0F,77,
563382,00000410,false,Rx,0,8,43,00,00,00,00,FF,0F,B3,
563659,00000411,false,Rx,0,8,32,60,00,00,00,00,00,00,
563959,00000022,false,Rx,0,8,FF,FF,FF,FF,00,00,0F,0F,
566082,00000102,false,Rx,0,8,00,00,19,54,56,CD,0E,D8,
566298,00000010,false,Rx,0,8,00,FF,61,30,00,00,01,AF,
566549,00000103,false,Rx,0,8,02,00,02,00,00,00,0E,0E,
566763,00000122,false,Rx,0,8,D3,23,00,CA,1C,E2,00,C4,
567014,00000231,false,Rx,0,8,00,03,00,00,00,00,00,03,
567289,00000517,false,Rx,0,8,00,00,00,00,00,00,00,00,
576070,00000102,false,Rx,0,8,00,00,19,54,56,CD,0F,D9,
576309,00000103,false,Rx,0,8,02,00,02,00,00,00,0F,0F,
576532,00000122,false,Rx,0,8,D3,23,00,CA,1C,E2,01,C5,
577009,00000110,false,Rx,0,8,00,00,00,7B,01,05,08,77,
577260,00000010,false,Rx,0,8,00,FF,61,30,00,00,02,AC,
577482,00000300,false,Rx,0,8,00,00,0D,8C,00,66,00,00,
577708,00000012,false,Rx,0,8,99,99,32,00,01,00,09,3A,
577960,00000231,false,Rx,0,8,00,03,00,00,00,00,01,02,
578214,00000308,false,Rx,0,8,00,12,00,00,00,00,82,00,
578456,00000316,false,Rx,0,8,13,AD,01,2B,53,00,00,00,
578683,00000320,false,Rx,0,8,20,00,00,00,F0,00,82,00,
578932,00000342,false,Rx,0,8,03,C2,99,99,7C,00,03,90,
579158,00000516,false,Rx,0,8,00,00,00,00,00,00,00,00,
579430,00000517,false,Rx,0,8,01,00,00,00,00,00,00,00,
583876,00000400,false,Rx,0,8,00,0B,58,F0,00,01,00,A2,
584108,00000408,false,Rx,0,8,00,41,33,0A,FF,FF,00,78,
584408,00000410,false,Rx,0,8,43,00,00,00,00,FF,00,BC,
584697,00000411,false,Rx,0,8,32,60,00,00,00,00,00,00,
584997,00000022,false,Rx,0,8,FF,FF,FF,FF,00,00,00,00,
586091,00000102,false,Rx,0,8,00,00,19,54,56,CD,00,D6,
586308,00000103,false,Rx,0,8,02,00,02,00,00,00,00,00,
586529,00000122,false,Rx,0,8,D3,23,00,CA,1C,E2,02,C6,
588075,00000010,false,Rx,0,8,00,FF,61,30,00,00,03,AD,
588308,00000013,false,Rx,0,8,FF,01,09,00,00,00,00,00,
588832,00000231,false,Rx,0,8,00,03,00,00,00,00,02,01,
589084,00000517,false,Rx,0,8,01,00,00,00,00,00,00,00,
596073,00000102,false,Rx,0,8,00,00,19,54,56,CD,01,D7,
596310,00000103,false,Rx,0,8,02,00,02,00,00,00,01,01,
596533,00000122,false,Rx,0,8,D3,23,00,CA,1C,E2,03,C7,
596784,00000110,false,Rx,0,8,00,00,00,7B,01,05,09,76,
597012,00000300,false,Rx,0,8,00,00,0D,8C,00,66,00,00,
597259,00000308,false,Rx,0,8,00,12,00,00,00,00,82,00,
597507,00000316,false,Rx,0,8,13,AD,01,2B,53,00,00,00,
597734,00000320,false,Rx,0,8,20,00,00,00,F0,00,82,00,
597983,00000342,false,Rx,0,8,03,C2,99,99,7C,00,03,90,
598235,00000516,false,Rx,0,8,00,00,00,00,00,00,00,00,
599094,00000010,false,Rx,0,8,00,FF,61,30,00,00,04,AA,
599396,00000012,false,Rx,0,8,99,99,32,00,00,00,0A,38,
599814,00000231,false,Rx,0,8,00,03,00,00,00,00,03,00,
600110,00000517,false,Rx,0,8,00,00,00,00,00,00,00,00,
604862,00000400,false,Rx,0,8,00,0B,58,F0,00,01,01,A3,
605169,00000408,false,Rx,0,8,00,41,33,0A,FF,FF,01,79,
605382,00000410,false,Rx,0,8,43,00,00,00,00,FF,01,BD,
605679,00000411,false,Rx,0,8,32,60,00,00,00,00,00,00,
605934,00000022,false,Rx,0,8,FF,FF,FF,FF,00,00,01,01,
606158,00000102,false,Rx,0,8,00,00,19,54,56,CD,02,D4,
606431,00000103,false,Rx,0,8,02,00,02,00,00,00,02,02,
606662,00000122,false,Rx,0,8,D3,23,00,CA,1C,E2,04,C0,
606886,00000332,false,Rx,0,8,01,00,00,00,00,00,0C,0D,
607162,00000530,false,Rx,0,8,FF,FF,70,4B,64,04,49,00,
610076,00000010,false,Rx,0,8,00,FF,61,30,00,00,05,AB,
610839,00000231,false,Rx,0,8,00,03,00,00,00,00,04,07,
611107,00000517,false,Rx,0,8,00,00,00,00,00,00,00,00,
616082,00000102,false,Rx,0,8,00,00,19,54,56,CD,03,D5,
616308,00000103,false,Rx,0,8,02,00,02,00,00,00,03,03,
616535,00000122,false,Rx,0,8,D3,23,00,CA,1C,E2,05,C1,
617012,00000110,false,Rx,0,8,00,00,00,7B,01,05,0A,75,
617257,00000308,false,Rx,0,8,00,12,00,00,00,00,82,00,
617484,00000300,false,Rx,0,8,00,00,0D,8C,00,66,00,00,
617739,00000316,false,Rx,0,8,13,AD,01,2B,53,00,00,00,
617984,00000320,false,Rx,0,8,20,00,00,00,F0,00,82,00,
618211,00000342,false,Rx,0,8,03,C2,99,99,7C,00,03,90,
618468,00000516,false,Rx,0,8,00,00,00,00,00,00,00,00,
621102,00000010,false,Rx,0,8,00,FF,61,30,00,00,06,A8,
621309,00000012,false,Rx,0,8,99,99,32,00,01,00,0B,38,
621834,00000231,false,Rx,0,8,00,03,00,00,00,00,06,05,
622110,00000517,false,Rx,0,8,01,00,00,00,00,00,00,00,
625881,00000400,false,Rx,0,8,00,0B,58,F0,00,01,02,A0,
626109,00000102,false,Rx,0,8,00,00,19,54,56,CD,04,D2,
626407,00000103,false,Rx,0,8,02,00,02,00,00,00,04,04,
626557,00000122,false,Rx,0,8,D3,23,00,CA,1C,E2,06,C2,
626811,00000408,false,Rx,0,8,00,41,33,0A,FF,FF,02,7A,
627084,00000410,false,Rx,0,8,43,00,00,00,00,FF,02,BE,
627384,00000411,false,Rx,0,8,32,60,00,00,00,00,00,00,
627635,00000022,false,Rx,0,8,FF,FF,FF,FF,00,00,02,02,
632047,00000010,false,Rx,0,8,00,FF,61,30,00,00,07,A9,
632839,00000231,false,Rx,0,8,00,03,00,00,00,00,07,04,
633085,00000517,false,Rx,0,8,00,00,00,00,00,00,00,00,
636074,00000102,false,Rx,0,8,00,00,19,54,56,CD,05,D3,
636309,00000103,false,Rx,0,8,02,00,02,00,00,00,05,05,
636531,00000122,false,Rx,0,8,D3,23,00,CA,1C,E2,07,C3,
636784,00000110,false,Rx,0,8,00,00,00,7B,01,05,0B,74,
637009,00000300,false,Rx,0,8,00,00,0D,8C,00,66,00,00,
637266,00000308,false,Rx,0,8,00,12,00,00,00,00,82,00,
637509,00000316,false,Rx,0,8,13,AD,01,2B,53,00,00,00,
637760,00000320,false,Rx,0,8,20,00,00,00,F0,00,82,00,
637984,00000342,false,Rx,0,8,03,C2,99,99,7C,00,03,90,
638237,00000516,false,Rx,0,8,00,00,00,00,00,00,00,00,
643069,00000010,false,Rx,0,8,00,FF,61,30,00,00,08,A6,
643286,00000012,false,Rx,0,8,99,99,32,00,00,00,0C,3E,
643534,00000013,false,Rx,0,8,FF,01,09,00,00,00,00,00,
643884,00000231,false,Rx,0,8,00,03,00,00,00,00,08,0B,
644161,00000517,false,Rx,0,8,00,00,00,00,00,00,00,00,
646099,00000102,false,Rx,0,8,00,00,19,54,56,CD,06,D0,
646308,00000103,false,Rx,0,8,02,00,02,00,00,00,06,06,
646534,00000122,false,Rx,0,8,D3,23,00,CA,1C,E2,08,CC,
646859,00000400,false,Rx,0,8,00,0B,58,F0,00,01,03,A1,
647136,00000408,false,Rx,0,8,00,41,33,0A,FF,FF,03,7B,
647384,00000410,false,Rx,0,8,43,00,00,00,00,FF,03,BF,
647661,00000411,false,Rx,0,8,32,60,00,00,00,00,00,00,
647937,00000022,false,Rx,0,8,FF,FF,FF,FF,00,00,03,03,
654024,00000010,false,Rx,0,8,00,FF,61,30,00,00,09,A7,
654815,00000231,false,Rx,0,8,00,03,00,00,00,00,09,0A,
655111,00000517,false,Rx,0,8,01,00,00,00,00,00,00,00,
656061,00000102,false,Rx,0,8,00,00,19,54,56,CD,07,D1,
656308,00000103,false,Rx,0,8,02,00,02,00,00,00,07,07,
656534,00000122,false,Rx,0,8,D3,23,00,CA,1C,E2,09,CD,
657010,00000110,false,Rx,0,8,00,00,00,7B,01,05,0C,73,
657266,00000300,false,Rx,0,8,00,00,0D,8C,00,66,00,00,
657484,00000308,false,Rx,0,8,00,12,00,00,00,00,82,00,
657734,00000316,false,Rx,0,8,13,AD,01,2B,53,00,00,00,
657987,00000320,false,Rx,0,8,20,00,00,00,F0,00,82,00,
658212,00000342,false,Rx,0,8,03,C2,99,99,7C,00,03,90,
658459,00000516,false,Rx,0,8,00,00,00,00,00,00,00,00,
665049,00000010,false,Rx,0,8,00,FF,61,30,00,00,0A,A4,
665286,00000012,false,Rx,0,8,99,99,32,00,01,00,0D,3E,
665836,00000231,false,Rx,0,8,00,03,00,00,00,00,0A,09,
666059,00000102,false,Rx,0,8,00,00,19,54,56,CD,08,DE,
666309,00000103,false,Rx,0,8,02,00,02,00,00,00,08,08,
666534,00000122,false,Rx,0,8,D3,23,00,CA,1C,E2,0A,CE,
666785,00000517,false,Rx,0,8,01,00,00,00,00,00,00,00,
667838,00000400,false,Rx,0,8,00,0B,58,F0,00,01,04,A6,
668150,00000408,false,Rx,0,8,00,41,33,0A,FF,FF,04,7C,
668383,00000410,false,Rx,0,8,43,00,00,00,00,FF,04,B8,
668660,00000411,false,Rx,0,8,32,60,00,00,00,00,00,00,
668938,00000022,false,Rx,0,8,FF,FF,FF,FF,00,00,04,04,
675974,00000010,false,Rx,0,8,00,FF,61,30,00,00,0B,A5,
676211,00000102,false,Rx,0,8,00,00,19,54,56,CD,09,DF,
676457,00000103,false,Rx,0,8,02,00,02,00,00,00,09,09,
676685,00000122,false,Rx,0,8,D3,23,00,CA,1C,E2,0B,CF,
676911,00000110,false,Rx,0,8,00,00,00,7B,01,05,0D,72,
677163,00000231,false,Rx,0,8,00,03,00,00,00,00,0B,08,
677435,00000300,false,Rx,0,8,00,00,0D,8C,00,66,00,00,
677661,00000308,false,Rx,0,8,00,12,00,00,00,00,82,00,
677910,00000316,false,Rx,0,8,13,AD,01,2B,53,00,00,00,
678137,00000320,false,Rx,0,8,20,00,00,00,F0,00,82,00,
678384,00000342,false,Rx,0,8,03,C2,99,99,7C,00,03,90,
678610,00000516,false,Rx,0,8,00,00,00,00,00,00,00,00,
678859,00000517,false,Rx,0,8,00,00,00,00,00,00,00,00,
686077,00000102,false,Rx,0,8,00,00,19,54,56,CD,0A,DC,
686311,00000103,false,Rx,0,8,02,00,02,00,00,00,0A,0A,
686534,00000122,false,Rx,0,8,D3,23,00,CA,1C,E2,0C,C8,
686985,00000010,false,Rx,0,8,00,FF,61,30,00,00,0C,A2,
687237,00000012,false,Rx,0,8,99,99,32,00,00,00,0E,3C,
687809,00000231,false,Rx,0,8,00,03,00,00,00,00,0C,0F,
688109,00000517,false,Rx,0,8,00,00,00,00,00,00,00,00,
688861,00000400,false,Rx,0,8,00,0B,58,F0,00,01,05,A7,
689110,00000408,false,Rx,0,8,00,41,33,0A,FF,FF,05,7D,
689408,00000410,false,Rx,0,8,43,00,00,00,00,FF,05,B9,
689684,00000411,false,Rx,0,8,32,60,00,00,00,00,00,00,
689974,00000022,false,Rx,0,8,FF,FF,FF,FF,00,00,05,05,
696084,00000102,false,Rx,0,8,00,00,19,54,56,CD,0B,DD,
696287,00000103,false,Rx,0,8,02,00,02,00,00,00,0B,0B,
696521,00000122,false,Rx,0,8,D3,23,00,CA,1C,E2,0D,C9,
697008,00000110,false,Rx,0,8,00,00,00,7B,01,05,0E,71,
697263,00000308,false,Rx,0,8,00,12,00,00,00,00,82,00,
697482,00000300,false,Rx,0,8,00,00,0D,8C,00,66,00,00,
697745,00000316,false,Rx,0,8,13,AD,01,2B,53,00,00,00,
697960,00000010,false,Rx,0,8,00,FF,61,30,00,00,0D,A3,
698213,00000320,false,Rx,0,8,20,00,00,00,F0,00,82,00,
698458,00000013,false,Rx,0,8,FF,01,09,00,00,00,00,00,
698711,00000342,false,Rx,0,8,03,C2,99,99,7C,00,03,90,
698938,00000231,false,Rx,0,8,00,03,00,00,00,00,0D,0E,
699188,00000516,false,Rx,0,8,00,00,00,00,00,00,00,00,
699435,00000517,false,Rx,0,8,01,00,00,00,00,00,00,00,
706048,00000102,false,Rx,0,8,00,00,19,54,56,CD,0C,DA,
706285,00000103,false,Rx,0,8,02,00,02,00,00,00,0C,0C,
706507,00000122,false,Rx,0,8,D3,23,00,CA,1C,E2,0E,CA,
707812,00000332,false,Rx,0,8,01,00,00,00,00,00,0D,0C,
708086,00000530,false,Rx,0,8,FF,FF,70,4C,64,04,49,00,
708989,00000010,false,Rx,0,8,00,FF,61,30,00,00,0E,A0,
709210,00000012,false,Rx,0,8,99,99,32,00,01,00,0F,3C,
709884,00000231,false,Rx,0,8,00,03,00,00,00,00,0E,0D,
710160,00000400,false,Rx,0,8,00,0B,58,F0,00,01,06,A4,
710473,00000408,false,Rx,0,8,00,41,33,0A,FF,FF,06,7E,
710721,00000410,false,Rx,0,8,43,00,00,00,00,FF,06,BA,
710996,00000411,false,Rx,0,8,32,60,00,00,00,00,00,00,
711276,00000022,false,Rx,0,8,FF,FF,FF,FF,00,00,06,06,
711568,00000517,false,Rx,0,8,01,00,00,00,00,00,00,00,
716052,00000102,false,Rx,0,8,00,00,19,54,56,CD,0D,DB,
716286,00000103,false,Rx,0,8,02,00,02,00,00,00,0D,0D,
716507,00000122,false,Rx,0,8,D3,23,00,CA,1C,E2,0F,CB,
716774,00000110,false,Rx,0,8,00,00,00,7B,01,05,0F,70,
717012,00000300,false,Rx,0,8,00,00,0D,8C,00,66,00,00,
717261,00000308,false,Rx,0,8,00,12,00,00,00,00,82,00,
717485,00000316,false,Rx,0,8,13,AD,01,2B,53,00,00,00,
717735,00000320,false,Rx,0,8,20,00,00,00,F0,00,82,00,
717990,00000342,false,Rx,0,8,03,C2,99,99,7C,00,03,90,
718213,00000516,false,Rx,0,8,00,00,00,00,00,00,00,00,
719951,00000010,false,Rx,0,8,00,FF,61,30,00,00,0F,A1,
720840,00000231,false,Rx,0,8,00,03,00,00,00,00,00,03,
721111,00000517,false,Rx,0,8,00,00,00,00,00,00,00,00,
726074,00000102,false,Rx,0,8,00,00,19,54,56,CD,0E,D8,
726311,00000103,false,Rx,0,8,02,00,02,00,00,00,0E,0E,
726510,00000122,false,Rx,0,8,D3,23,00,CA,1C,E2,00,C4,
730874,00000400,false,Rx,0,8,00,0B,58,F0,00,01,07,A5,
731087,00000010,false,Rx,0,8,00,FF,61,30,00,00,00,AE,
731385,00000408,false,Rx,0,8,00,41,33,0A,FF,FF,07,7F,
731586,00000012,false,Rx,0,8,99,99,32,00,00,00,00,32,
731837,00000410,false,Rx,0,8,43,00,00,00,00,FF,07,BB,
732112,00000411,false,Rx,0,8,32,60,00,00,00,00,00,00,
732385,00000022,false,Rx,0,8,FF,FF,FF,FF,00,00,07,07,
732724,00000231,false,Rx,0,8,00,03,00,00,00,00,00,03,
732937,00000517,false,Rx,0,8,00,00,00,00,00,00,00,00,
736045,00000102,false,Rx,0,8,00,00,19,54,56,CD,0F,D9,
736286,00000103,false,Rx,0,8,02,00,02,00,00,00,0F,0F,
736507,00000122,false,Rx,0,8,D3,23,00,CA,1C,E2,01,C5,
736987,00000110,false,Rx,0,8,00,00,00,7B,01,05,00,7F,
737237,00000308,false,Rx,0,8,00,12,00,00,00,00,82,00,
737489,00000300,false,Rx,0,8,00,00,0D,8C,00,66,00,00,
737734,00000316,false,Rx,0,8,13,AD,01,2B,53,00,00,00,
737988,00000320,false,Rx,0,8,20,00,00,00,F0,00,82,00,
738213,00000342,false,Rx,0,8,03,C2,99,99,7C,00,03,90,
738459,00000516,false,Rx,0,8,00,00,00,00,00,00,00,00,
741931,00000010,false,Rx,0,8,00,FF,61,30,00,00,01,AF,
742861,00000231,false,Rx,0,8,00,03,00,00,00,00,02,01,
743110,00000517,false,Rx,0,8,01,00,00,00,00,00,00,00,
746034,00000102,false,Rx,0,8,00,00,19,54,56,CD,00,D6,
746283,00000103,false,Rx,0,8,02,00,02,00,00,00,00,00,
746559,00000122,false,Rx,0,8,D3,23,00,CA,1C,E2,02,C6,
751881,00000400,false,Rx,0,8,00,0B,58,F0,00,01,08,AA,
752137,00000408,false,Rx,0,8,00,41,33,0A,FF,FF,08,70,
752436,00000410,false,Rx,0,8,43,00,00,00,00,FF,08,B4,
752712,00000411,false,Rx,0,8,32,60,00,00,00,00,00,00,
752936,00000010,false,Rx,0,8,00,FF,61,30,00,00,02,AC,
753189,00000022,false,Rx,0,8,FF,FF,FF,FF,00,00,08,08,
753434,00000012,false,Rx,0,8,99,99,32,00,01,00,01,32,
753672,00000013,false,Rx,0,8,FF,01,09,00,00,00,00,00,
753909,00000231,false,Rx,0,8,00,03,00,00,00,00,03,00,
754227,00000517,false,Rx,0,8,00,00,00,00,00,00,00,00,
756041,00000102,false,Rx,0,8,00,00,19,54,56,CD,01,D7,
756285,00000103,false,Rx,0,8,02,00,02,00,00,00,01,01,
756535,00000122,false,Rx,0,8,D3,23,00,CA,1C,E2,03,C7,
756761,00000110,false,Rx,0,8,00,00,00,7B,01,05,01,7E,
757012,00000300,false,Rx,0,8,00,00,0D,8C,00,66,00,00,
757263,00000308,false,Rx,0,8,00,12,00,00,00,00,82,00,
757511,00000316,false,Rx,0,8,13,AD,01,2B,53,00,00,00,
757736,00000320,false,Rx,0,8,20,00,00,00,F0,00,82,00,
757963,00000342,false,Rx,0,8,03,C2,99,99,7C,00,03,90,
758214,00000516,false,Rx,0,8,00,00,00,00,00,00,00,00,
763920,00000010,false,Rx,0,8,00,FF,61,30,00,00,03,AD,
764841,00000231,false,Rx,0,8,00,03,00,00,00,00,04,07,
765107,00000517,false,Rx,0,8,00,00,00,00,00,00,00,00,
766038,00000102,false,Rx,0,8,00,00,19,54,56,CD,02,D4,
766287,00000103,false,Rx,0,8,02,00,02,00,00,00,02,02,
766514,00000122,false,Rx,0,8,D3,23,00,CA,1C,E2,04,C0,
772927,00000400,false,Rx,0,8,00,0B,58,F0,00,01,0A,A8,
773112,00000408,false,Rx,0,8,00,41,33,0A,FF,FF,0A,72,
773476,00000410,false,Rx,0,8,43,00,00,00,00,FF,09,B5,
773661,00000411,false,Rx,0,8,32,60,00,00,00,00,00,00,
773964,00000022,false,Rx,0,8,FF,FF,FF,FF,00,00,09,09,
774987,00000010,false,Rx,0,8,00,FF,61,30,00,00,04,AA,
775161,00000012,false,Rx,0,8,99,99,32,00,00,00,02,30,
775836,00000231,false,Rx,0,8,00,03,00,00,00,00,05,06,
776113,00000102,false,Rx,0,8,00,00,19,54,56,CD,03,D5,
776314,00000103,false,Rx,0,8,02,00,02,00,00,00,03,03,
776536,00000122,false,Rx,0,8,D3,23,00,CA,1C,E2,05,C1,
776787,00000517,false,Rx,0,8,01,00,00,00,00,00,00,00,
777037,00000110,false,Rx,0,8,00,00,00,7B,01,05,02,7D,
777288,00000300,false,Rx,0,8,00,00,0D,8C,00,66,00,00,
777535,00000308,false,Rx,0,8,00,12,00,00,00,00,82,00,
777760,00000316,false,Rx,0,8,13,AD,01,2B,53,00,00,00,
778011,00000320,false,Rx,0,8,20,00,00,00,F0,00,82,00,
778237,00000342,false,Rx,0,8,03,C2,99,99,7C,00,03,90,
778484,00000516,false,Rx,0,8,00,00,00,00,00,00,00,00,
785894,00000010,false,Rx,0,8,00,FF,61,30,00,00,05,AB,
786112,00000102,false,Rx,0,8,00,00,19,54,56,CD,04,D2,
786386,00000103,false,Rx,0,8,02,00,02,00,00,00,04,04,
786587,00000122,false,Rx,0,8,D3,23,00,CA,1C,E2,06,C2,
786839,00000231,false,Rx,0,8,00,03,00,00,00,00,06,05,
787114,00000517,false,Rx,0,8,01,00,00,00,00,00,00,00,
793875,00000400,false,Rx,0,8,00,0B,58,F0,00,01,0B,A9,
794114,00000408,false,Rx,0,8,00,41,33,0A,FF,FF,0B,73,
794387,00000410,false,Rx,0,8,43,00,00,00,00,FF,0A,B6,
794663,00000411,false,Rx,0,8,32,60,00,00,00,00,00,00,
794939,00000022,false,Rx,0,8,FF,FF,FF,FF,00,00,0A,0A,
796045,00000102,false,Rx,0,8,00,00,19,54,56,CD,05,D3,
796289,00000103,false,Rx,0,8,02,00,02,00,00,00,05,05,
796512,00000122,false,Rx,0,8,D3,23,00,CA,1C,E2,07,C3,
796763,00000110,false,Rx,0,8,00,00,00,7B,01,05,03,7C,
797013,00000010,false,Rx,0,8,00,FF,61,30,00,00,06,A8,
797263,00000300,false,Rx,0,8,00,00,0D,8C,00,66,00,00,
797484,00000012,false,Rx,0,8,99,99,32,00,01,00,03,30,
797737,00000308,false,Rx,0,8,00,12,00,00,00,00,82,00,
797989,00000231,false,Rx,0,8,00,03,00,00,00,00,07,04,
798215,00000316,false,Rx,0,8,13,AD,01,2B,53,00,00,00,
798462,00000320,false,Rx,0,8,20,00,00,00,F0,00,82,00,
798686,00000342,false,Rx,0,8,03,C2,99,99,7C,00,03,90,
798938,00000516,false,Rx,0,8,00,00,00,00,00,00,00,00,
799190,00000517,false,Rx,0,8,00,00,00,00,00,00,00,00,
806049,00000102,false,Rx,0,8,00,00,19,54,56,CD,06,D0,
806288,00000103,false,Rx,0,8,02,00,02,00,00,00,06,06,
806518,00000122,false,Rx,0,8,D3,23,00,CA,1C,E2,08,CC,
807861,00000010,false,Rx,0,8,00,FF,61,30,00,00,07,A9,
808088,00000013,false,Rx,0,8,FF,01,09,00,00,00,00,00,
808836,00000231,false,Rx,0,8,00,03,00,00,00,00,08,0B,
809113,00000332,false,Rx,0,8,01,00,00,00,00,00,0E,0F,
809411,00000517,false,Rx,0,8,00,00,00,00,00,00,00,00,
809662,00000530,false,Rx,0,8,FF,FF,70,4C,64,04,49,00,
814841,00000400,false,Rx,0,8,00,0B,58,F0,00,01,0C,AE,
815114,00000408,false,Rx,0,8,00,41,33,0A,FF,FF,0C,74,
815387,00000410,false,Rx,0,8,43,00,00,00,00,FF,0B,B7,
815663,00000411,false,Rx,0,8,32,60,00,00,00,00,00,00,
815939,00000022,false,Rx,0,8,FF,FF,FF,FF,00,00,0B,0B,
816165,00000102,false,Rx,0,8,00,00,19,54,56,CD,07,D1,
816437,00000103,false,Rx,0,8,02,00,02,00,00,00,07,07,
816640,00000122,false,Rx,0,8,D3,23,00,CA,1C,E2,09,CD,
816989,00000110,false,Rx,0,8,00,00,00,7B,01,05,04,7B,
817237,00000308,false,Rx,0,8,00,12,00,00,00,00,82,00,
817487,00000300,false,Rx,0,8,00,00,0D,8C,00,66,00,00,
817713,00000316,false,Rx,0,8,13,AD,01,2B,53,00,00,00,
817964,00000320,false,Rx,0,8,20,00,00,00,F0,00,82,00,
818190,00000342,false,Rx,0,8,03,C2,99,99,7C,00,03,90,
818438,00000516,false,Rx,0,8,00,00,00,00,00,00,00,00,
818864,00000010,false,Rx,0,8,00,FF,61,30,00,00,08,A6,
819115,00000012,false,Rx,0,8,99,99,32,00,00,00,04,36,
819841,00000231,false,Rx,0,8,00,03,00,00,00,00,09,0A,
820113,00000517,false,Rx,0,8,01,00,00,00,00,00,00,00,
826075,00000102,false,Rx,0,8,00,00,19,54,56,CD,08,DE,
826288,00000103,false,Rx,0,8,02,00,02,00,00,00,08,08,
826512,00000122,false,Rx,0,8,D3,23,00,CA,1C,E2,0A,CE,
829853,00000010,false,Rx,0,8,00,FF,61,30,00,00,09,A7,
830820,00000231,false,Rx,0,8,00,03,00,00,00,00,0A,09,
831113,00000517,false,Rx,0,8,01,00,00,00,00,00,00,00,
835878,00000400,false,Rx,0,8,00,0B,58,F0,00,01,0D,AF,
836089,00000102,false,Rx,0,8,00,00,19,54,56,CD,09,DF,
836393,00000103,false,Rx,0,8,02,00,02,00,00,00,09,09,
836563,00000122,false,Rx,0,8,D3,23,00,CA,1C,E2,0B,CF,
836815,00000110,false,Rx,0,8,00,00,00,7B,01,05,05,7A,
837041,00000300,false,Rx,0,8,00,00,0D,8C,00,66,00,00,
837302,00000308,false,Rx,0,8,00,12,00,00,00,00,82,00,
837535,00000316,false,Rx,0,8,13,AD,01,2B,53,00,00,00,
837788,00000320,false,Rx,0,8,20,00,00,00,F0,00,82,00,
838015,00000342,false,Rx,0,8,03,C2,99,99,7C,00,03,90,
838267,00000408,false,Rx,0,8,00,41,33,0A,FF,FF,0D,75,
838487,00000516,false,Rx,0,8,00,00,00,00,00,00,00,00,
838739,00000410,false,Rx,0,8,43,00,00,00,00,FF,0C,B0,
839015,00000411,false,Rx,0,8,32,60,00,00,00,00,00,00,
839315,00000022,false,Rx,0,8,FF,FF,FF,FF,00,00,0C,0C,
840864,00000010,false,Rx,0,8,00,FF,61,30,00,00,0A,A4,
841087,00000012,false,Rx,0,8,99,99,32,00,01,00,05,36,
841811,00000231,false,Rx,0,8,00,03,00,00,00,00,0C,0F,
842145,00000517,false,Rx,0,8,00,00,00,00,00,00,00,00,
846056,00000102,false,Rx,0,8,00,00,19,54,56,CD,0A,DC,
846288,00000103,false,Rx,0,8,02,00,02,00,00,00,0A,0A,
846516,00000122,false,Rx,0,8,D3,23,00,CA,1C,E2,0C,C8,
851832,00000010,false,Rx,0,8,00,FF,61,30,00,00,0B,A5,
852851,00000231,false,Rx,0,8,00,03,00,00,00,00,0D,0E,
853160,00000517,false,Rx,0,8,01,00,00,00,00,00,00,00,
856043,00000102,false,Rx,0,8,00,00,19,54,56,CD,0B,DD,
856289,00000103,false,Rx,0,8,02,00,02,00,00,00,0B,0B,
856486,00000122,false,Rx,0,8,D3,23,00,CA,1C,E2,0D,C9,
856839,00000400,false,Rx,0,8,00,0B,58,F0,00,01,0E,AC,
857092,00000110,false,Rx,0,8,00,00,00,7B,01,05,06,79,
857388,00000300,false,Rx,0,8,00,00,0D,8C,00,66,00,00,
857588,00000308,false,Rx,0,8,00,12,00,00,00,00,82,00,
857815,00000316,false,Rx,0,8,13,AD,01,2B,53,00,00,00,
858066,00000320,false,Rx,0,8,20,00,00,00,F0,00,82,00,
858291,00000342,false,Rx,0,8,03,C2,99,99,7C,00,03,90,
858538,00000408,false,Rx,0,8,00,41,33,0A,FF,FF,0E,76,
858787,00000516,false,Rx,0,8,00,00,00,00,00,00,00,00,
859014,00000410,false,Rx,0,8,43,00,00,00,00,FF,0D,B1,
859316,00000411,false,Rx,0,8,32,60,00,00,00,00,00,00,
859589,00000022,false,Rx,0,8,FF,FF,FF,FF,00,00,0D,0D,
862858,00000010,false,Rx,0,8,00,FF,61,30,00,00,0C,A2,
863089,00000012,false,Rx,0,8,99,99,32,00,00,00,06,34,
863316,00000013,false,Rx,0,8,FF,01,09,00,00,00,00,00,
863813,00000231,false,Rx,0,8,00,03,00,00,00,00,0E,0D,
864112,00000517,false,Rx,0,8,01,00,00,00,00,00,00,00,
866055,00000102,false,Rx,0,8,00,00,19,54,56,CD,0C,DA,
866264,00000103,false,Rx,0,8,02,00,02,00,00,00,0C,0C,
866513,00000122,false,Rx,0,8,D3,23,00,CA,1C,E2,0E,CA,
873819,00000010,false,Rx,0,8,00,FF,61,30,00,00,0D,A3,
874848,00000231,false,Rx,0,8,00,03,00,00,00,00,0F,0C,
875088,00000517,false,Rx,0,8,00,00,00,00,00,00,00,00,
876041,00000102,false,Rx,0,8,00,00,19,54,56,CD,0D,DB,
876264,00000103,false,Rx,0,8,02,00,02,00,00,00,0D,0D,
876513,00000122,false,Rx,0,8,D3,23,00,CA,1C,E2,0F,CB,
876764,00000110,false,Rx,0,8,00,00,00,7B,01,05,07,78,
876990,00000300,false,Rx,0,8,00,00,0D,8C,00,66,00,00,
877241,00000308,false,Rx,0,8,00,12,00,00,00,00,82,00,
877463,00000316,false,Rx,0,8,13,AD,01,2B,53,00,00,00,
877714,00000320,false,Rx,0,8,20,00,00,00,F0,00,82,00,
877965,00000342,false,Rx,0,8,03,C2,99,99,7C,00,03,90,
878191,00000400,false,Rx,0,8,00,0B,58,F0,00,01,0F,AD,
878437,00000516,false,Rx,0,8,00,00,00,00,00,00,00,00,
878689,00000408,false,Rx,0,8,00,41,33,0A,FF,FF,0F,77,
878940,00000410,false,Rx,0,8,43,00,00,00,00,FF,0E,B2,
879239,00000411,false,Rx,0,8,32,60,00,00,00,00,00,00,
879513,00000022,false,Rx,0,8,FF,FF,FF,FF,00,00,0E,0E,
884812,00000010,false,Rx,0,8,00,FF,61,30,00,00,0E,A0,
885039,00000012,false,Rx,0,8,99,99,32,00,01,00,07,34,
885839,00000231,false,Rx,0,8,00,03,00,00,00,00,00,03,
886065,00000102,false,Rx,0,8,00,00,19,54,56,CD,0E,D8,
886315,00000103,false,Rx,0,8,02,00,02,00,00,00,0E,0E,
886549,00000122,false,Rx,0,8,D3,23,00,CA,1C,E2,00,C4,
886790,00000517,false,Rx,0,8,00,00,00,00,00,00,00,00,
895807,00000010,false,Rx,0,8,00,FF,61,30,00,00,0F,A1,
896041,00000102,false,Rx,0,8,00,00,19,54,56,CD,0F,D9,
896266,00000103,false,Rx,0,8,02,00,02,00,00,00,0F,0F,
896486,00000122,false,Rx,0,8,D3,23,00,CA,1C,E2,01,C5,
896840,00000231,false,Rx,0,8,00,03,00,00,00,00,01,02,
897065,00000110,false,Rx,0,8,00,00,00,7B,01,05,08,77,
897317,00000300,false,Rx,0,8,00,00,0D,8C,00,66,00,00,
897563,00000308,false,Rx,0,8,00,12,00,00,00,00,82,00,
897802,00000316,false,Rx,0,8,13,AD,01,2B,53,00,00,00,
898040,00000320,false,Rx,0,8,20,00,00,00,F0,00,82,00,
898267,00000342,false,Rx,0,8,03,C2,99,99,7C,00,03,90,
898514,00000516,false,Rx,0,8,00,00,00,00,00,00,00,00,
898765,00000517,false,Rx,0,8,01,00,00,00,00,00,00,00,
899066,00000400,false,Rx,0,8,00,0B,58,F0,00,01,00,A2,
899316,00000408,false,Rx,0,8,00,41,33,0A,FF,FF,00,78,
899613,00000410,false,Rx,0,8,43,00,00,00,00,FF,0F,B3,
899915,00000411,false,Rx,0,8,32,60,00,00,00,00,00,00,
900191,00000022,false,Rx,0,8,FF,FF,FF,FF,00,00,0F,0F,
906090,00000102,false,Rx,0,8,00,00,19,54,56,CD,00,D6,
906266,00000103,false,Rx,0,8,02,00,02,00,00,00,00,00,
906512,00000122,false,Rx,0,8,D3,23,00,CA,1C,E2,02,C6,
906790,00000010,false,Rx,0,8,00,FF,61,30,00,00,00,AE,
907015,00000012,false,Rx,0,8,99,99,32,00,00,00,08,3A,
907840,00000231,false,Rx,0,8,00,03,00,00,00,00,02,01,
908114,00000517,false,Rx,0,8,01,00,00,00,00,00,00,00,
909837,00000332,false,Rx,0,8,01,00,00,00,00,00,0F,0E,
910089,00000530,false,Rx,0,8,FF,FF,70,4C,64,04,49,00,
916031,00000102,false,Rx,0,8,00,00,19,54,56,CD,01,D7,
916266,00000103,false,Rx,0,8,02,00,02,00,00,00,01,01,
916514,00000122,false,Rx,0,8,D3,23,00,CA,1C,E2,03,C7,
916739,00000110,false,Rx,0,8,00,00,00,7B,01,05,09,76,
916995,00000300,false,Rx,0,8,00,00,0D,8C,00,66,00,00,
917242,00000308,false,Rx,0,8,00,12,00,00,00,00,82,00,
917488,00000316,false,Rx,0,8,13,AD,01,2B,53,00,00,00,
917740,00000320,false,Rx,0,8,20,00,00,00,F0,00,82,00,
917966,00000010,false,Rx,0,8,00,FF,61,30,00,00,01,AF,
918191,00000342,false,Rx,0,8,03,C2,99,99,7C,00,03,90,
918439,00000013,false,Rx,0,8,FF,01,09,00,00,00,00,00,
918690,00000516,false,Rx,0,8,00,00,00,00,00,00,00,00,
918941,00000231,false,Rx,0,8,00,03,00,00,00,00,03,00,
919217,00000517,false,Rx,0,8,00,00,00,00,00,00,00,00,
919865,00000400,false,Rx,0,8,00,0B,58,F0,00,01,01,A3,
920115,00000408,false,Rx,0,8,00,41,33,0A,FF,FF,01,79,
920414,00000410,false,Rx,0,8,43,00,00,00,00,FF,00,BC,
920663,00000411,false,Rx,0,8,32,60,00,00,00,00,00,00,
920966,00000022,false,Rx,0,8,FF,FF,FF,FF,00,00,00,00,
926054,00000102,false,Rx,0,8,00,00,19,54,56,CD,02,D4,
926290,00000103,false,Rx,0,8,02,00,02,00,00,00,02,02,
926524,00000122,false,Rx,0,8,D3,23,00,CA,1C,E2,04,C0,
928805,00000010,false,Rx,0,8,00,FF,61,30,00,00,02,AC,
929016,00000012,false,Rx,0,8,99,99,32,00,01,00,09,3A,
929840,00000231,false,Rx,0,8,00,03,00,00,00,00,04,07,
930115,00000517,false,Rx,0,8,00,00,00,00,00,00,00,00,
936055,00000102,false,Rx,0,8,00,00,19,54,56,CD,03,D5,
936290,00000103,false,Rx,0,8,02,00,02,00,00,00,03,03,
936524,00000122,false,Rx,0,8,D3,23,00,CA,1C,E2,05,C1,
936991,00000110,false,Rx,0,8,00,00,00,7B,01,05,0A,75,
937216,00000308,false,Rx,0,8,00,12,00,00,00,00,82,00,
937490,00000300,false,Rx,0,8,00,00,0D,8C,00,66,00,00,
937716,00000316,false,Rx,0,8,13,AD,01,2B,53,00,00,00,
937966,00000320,false,Rx,0,8,20,00,00,00,F0,00,82,00,
938193,00000342,false,Rx,0,8,03,C2,99,99,7C,00,03,90,
938447,00000516,false,Rx,0,8,00,00,00,00,00,00,00,00,
939717,00000010,false,Rx,0,8,00,FF,61,30,00,00,03,AD,
940940,00000231,false,Rx,0,8,00,03,00,00,00,00,06,05,
941213,00000400,false,Rx,0,8,00,0B,58,F0,00,01,02,A0,
941489,00000408,false,Rx,0,8,00,41,33,0A,FF,FF,02,7A,
941804,00000410,false,Rx,0,8,43,00,00,00,00,FF,02,BE,
942066,00000411,false,Rx,0,8,32,60,00,00,00,00,00,00,
942390,00000022,false,Rx,0,8,FF,FF,FF,FF,00,00,02,02,
942613,00000517,false,Rx,0,8,01,00,00,00,00,00,00,00,
946032,00000102,false,Rx,0,8,00,00,19,54,56,CD,04,D2,
946267,00000103,false,Rx,0,8,02,00,02,00,00,00,04,04,
946516,00000122,false,Rx,0,8,D3,23,00,CA,1C,E2,06,C2,
950757,00000010,false,Rx,0,8,00,FF,61,30,00,00,04,AA,
950978,00000012,false,Rx,0,8,99,99,32,00,00,00,0A,38,
951841,00000231,false,Rx,0,8,00,03,00,00,00,00,06,05,
952116,00000517,false,Rx,0,8,01,00,00,00,00,00,00,00,
956063,00000102,false,Rx,0,8,00,00,19,54,56,CD,05,D3,
956290,00000103,false,Rx,0,8,02,00,02,00,00,00,05,05,
956515,00000122,false,Rx,0,8,D3,23,00,CA,1C,E2,07,C3,
956741,00000110,false,Rx,0,8,00,00,00,7B,01,05,0B,74,
956991,00000300,false,Rx,0,8,00,00,0D,8C,00,66,00,00,
957242,00000308,false,Rx,0,8,00,12,00,00,00,00,82,00,
957490,00000316,false,Rx,0,8,13,AD,01,2B,53,00,00,00,
957716,00000320,false,Rx,0,8,20,00,00,00,F0,00,82,00,
957967,00000342,false,Rx,0,8,03,C2,99,99,7C,00,03,90,
958218,00000516,false,Rx,0,8,00,00,00,00,00,00,00,00,
961733,00000010,false,Rx,0,8,00,FF,61,30,00,00,05,AB,
961941,00000400,false,Rx,0,8,00,0B,58,F0,00,01,03,A1,
962216,00000408,false,Rx,0,8,00,41,33,0A,FF,FF,03,7B,
962490,00000410,false,Rx,0,8,43,00,00,00,00,FF,03,BF,
962791,00000411,false,Rx,0,8,32,60,00,00,00,00,00,00,
963067,00000022,false,Rx,0,8,FF,FF,FF,FF,00,00,03,03,
963389,00000231,false,Rx,0,8,00,03,00,00,00,00,08,0B,
963614,00000517,false,Rx,0,8,00,00,00,00,00,00,00,00,
966053,00000102,false,Rx,0,8,00,00,19,54,56,CD,06,D0,
966291,00000103,false,Rx,0,8,02,00,02,00,00,00,06,06,
966529,00000122,false,Rx,0,8,D3,23,00,CA,1C,E2,08,CC,
972735,00000010,false,Rx,0,8,00,FF,61,30,00,00,06,A8,
972966,00000012,false,Rx,0,8,99,99,32,00,01,00,0B,38,
973238,00000013,false,Rx,0,8,FF,01,09,00,00,00,00,00,
973841,00000231,false,Rx,0,8,00,03,00,00,00,00,09,0A,
974091,00000517,false,Rx,0,8,01,00,00,00,00,00,00,00,
976047,00000102,false,Rx,0,8,00,00,19,54,56,CD,07,D1,
976291,00000103,false,Rx,0,8,02,00,02,00,00,00,07,07,
976514,00000122,false,Rx,0,8,D3,23,00,CA,1C,E2,09,CD,
976967,00000110,false,Rx,0,8,00,00,00,7B,01,05,0C,73,
977217,00000308,false,Rx,0,8,00,12,00,00,00,00,82,00,
977465,00000300,false,Rx,0,8,00,00,0D,8C,00,66,00,00,
977688,00000316,false,Rx,0,8,13,AD,01,2B,53,00,00,00,
977941,00000320,false,Rx,0,8,20,00,00,00,F0,00,82,00,
978168,00000342,false,Rx,0,8,03,C2,99,99,7C,00,03,90,
978441,00000516,false,Rx,0,8,00,00,00,00,00,00,00,00,
982862,00000400,false,Rx,0,8,00,0B,58,F0,00,01,04,A6,
983142,00000408,false,Rx,0,8,00,41,33,0A,FF,FF,04,7C,
983390,00000410,false,Rx,0,8,43,00,00,00,00,FF,04,B8,
983666,00000411,false,Rx,0,8,32,60,00,00,00,00,00,00,
983916,00000010,false,Rx,0,8,00,FF,61,30,00,00,07,A9,
984168,00000022,false,Rx,0,8,FF,FF,FF,FF,00,00,04,04,
984840,00000231,false,Rx,0,8,00,03,00,00,00,00,0A,09,
985091,00000517,false,Rx,0,8,01,00,00,00,00,00,00,00,
986043,00000102,false,Rx,0,8,00,00,19,54,56,CD,08,DE,
986266,00000103,false,Rx,0,8,02,00,02,00,00,00,08,08,
986493,00000122,false,Rx,0,8,D3,23,00,CA,1C,E2,0A,CE,
994735,00000010,false,Rx,0,8,00,FF,61,30,00,00,08,A6,
994941,00000012,false,Rx,0,8,99,99,32,00,00,00,0C,3E,
995842,00000231,false,Rx,0,8,00,03,00,00,00,00,0B,08,
996066,00000102,false,Rx,0,8,00,00,19,54,56,CD,09,DF,
996292,00000103,false,Rx,0,8,02,00,02,00,00,00,09,09,
996540,00000122,false,Rx,0,8,D3,23,00,CA,1C,E2,0B,CF,
996791,00000110,false,Rx,0,8,00,00,00,7B,01,05,0D,72,
997017,00000300,false,Rx,0,8,00,00,0D,8C,00,66,00,00,
997269,00000308,false,Rx,0,8,00,12,00,00,00,00,82,00,
997490,00000316,false,Rx,0,8,13,AD,01,2B,53,00,00,00,
997741,00000320,false,Rx,0,8,20,00,00,00,F0,00,82,00,
997993,00000342,false,Rx,0,8,03,C2,99,99,7C,00,03,90,
998243,00000516,false,Rx,0,8,00,00,00,00,00,00,00,00,
998491,00000517,false,Rx,0,8,00,00,00,00,00,00,00,00,
1003882,00000400,false,Rx,0,8,00,0B,58,F0,00,01,05,A7,
1004143,00000408,false,Rx,0,8,00,41,33,0A,FF,FF,05,7D,
1004427,00000410,false,Rx,0,8,43,00,00,00,00,FF,05,B9,
1004726,00000411,false,Rx,0,8,32,60,00,00,00,00,00,00,
1004976,00000022,false,Rx,0,8,FF,FF,FF,FF,00,00,05,05,
1005700,00000010,false,Rx,0,8,00,FF,61,30,00,00,09,A7,
1006017,00000102,false,Rx,0,8,00,00,19,54,56,CD,0A,DC,
1006308,00000103,false,Rx,0,8,02,00,02,00,00,00,0A,0A,
1006530,00000122,false,Rx,0,8,D3,23,00,CA,1C,E2,0C,C8,
1006824,00000231,false,Rx,0,8,00,03,00,00,00,00,0C,0F,
1007099,00000517,false,Rx,0,8,00,00,00,00,00,00,00,00,
1010972,00000332,false,Rx,0,8,01,00,00,00,00,00,00,01,
1011107,00000530,false,Rx,0,8,FF,FF,70,4C,64,04,49,00,
1016029,00000102,false,Rx,0,8,00,00,19,54,56,CD,0B,DD,
1016268,00000103,false,Rx,0,8,02,00,02,00,00,00,0B,0B,
1016488,00000122,false,Rx,0,8,D3,23,00,CA,1C,E2,0D,C9,
1016741,00000010,false,Rx,0,8,00,FF,61,30,00,00,0A,A4,
1016993,00000110,false,Rx,0,8,00,00,00,7B,01,05,0E,71,
1017219,00000012,false,Rx,0,8,99,99,32,00,01,00,0D,3E,
1017441,00000300,false,Rx,0,8,00,00,0D,8C,00,66,00,00,
1017692,00000308,false,Rx,0,8,00,12,00,00,00,00,82,00,
1017942,00000231,false,Rx,0,8,00,03,00,00,00,00,0D,0E,
1018195,00000316,false,Rx,0,8,13,AD,01,2B,53,00,00,00,
1018487,00000320,false,Rx,0,8,20,00,00,00,F0,00,82,00,
1018672,00000342,false,Rx,0,8,03,C2,99,99,7C,00,03,90,
1018923,00000516,false,Rx,0,8,00,00,00,00,00,00,00,00,
1019202,00000517,false,Rx,0,8,01,00,00,00,00,00,00,00,
1024939,00000400,false,Rx,0,8,00,0B,58,F0,00,01,06,A4,
1025116,00000408,false,Rx,0,8,00,41,33,0A,FF,FF,06,7E,
1025481,00000410,false,Rx,0,8,43,00,00,00,00,FF,06,BA,
1025667,00000411,false,Rx,0,8,32,60,00,00,00,00,00,00,
1025977,00000022,false,Rx,0,8,FF,FF,FF,FF,00,00,06,06,
1026216,00000102,false,Rx,0,8,00,00,19,54,56,CD,0C,DA,
1026416,00000103,false,Rx,0,8,02,00,02,00,00,00,0C,0C,
1026639,00000122,false,Rx,0,8,D3,23,00,CA,1C,E2,0E,CA,
1027642,00000010,false,Rx,0,8,00,FF,61,30,00,00,0B,A5,
1027893,00000013,false,Rx,0,8,FF,01,09,00,00,00,00,00,
1028845,00000231,false,Rx,0,8,00,03,00,00,00,00,0E,0D,
1029117,00000517,false,Rx,0,8,01,00,00,00,00,00,00,00,
1036023,00000102,false,Rx,0,8,00,00,19,54,56,CD,0D,DB,
1036267,00000103,false,Rx,0,8,02,00,02,00,00,00,0D,0D,
1036489,00000122,false,Rx,0,8,D3,23,00,CA,1C,E2,0F,CB,
1036741,00000110,false,Rx,0,8,00,00,00,7B,01,05,0F,70,
1036993,00000300,false,Rx,0,8,00,00,0D,8C,00,66,00,00,
1037244,00000308,false,Rx,0,8,00,12,00,00,00,00,82,00,
1037466,00000316,false,Rx,0,8,13,AD,01,2B,53,00,00,00,
1037716,00000320,false,Rx,0,8,20,00,00,00,F0,00,82,00,
1037943,00000342,false,Rx,0,8,03,C2,99,99,7C,00,03,90,
1038195,00000516,false,Rx,0,8,00,00,00,00,00,00,00,00,
1038641,00000010,false,Rx,0,8,00,FF,61,30,00,00,0C,A2,
1038867,00000012,false,Rx,0,8,99,99,32,00,00,00,0E,3C,
1039843,00000231,false,Rx,0,8,00,03,00,00,00,00,0F,0C,
1040092,00000517,false,Rx,0,8,00,00,00,00,00,00,00,00,
1045879,00000400,false,Rx,0,8,00,0B,58,F0,00,01,07,A5,
1046089,00000102,false,Rx,0,8,00,00,19,54,56,CD,0E,D8,
1046391,00000103,false,Rx,0,8,02,00,02,00,00,00,0E,0E,
1046567,00000122,false,Rx,0,8,D3,23,00,CA,1C,E2,00,C4,
1046816,00000408,false,Rx,0,8,00,41,33,0A,FF,FF,07,7F,
1047092,00000410,false,Rx,0,8,43,00,00,00,00,FF,07,BB,
1047388,00000411,false,Rx,0,8,32,60,00,00,00,00,00,00,
1047640,00000022,false,Rx,0,8,FF,FF,FF,FF,00,00,07,07,
1049629,00000010,false,Rx,0,8,00,FF,61,30,00,00,0D,A3,
1050845,00000231,false,Rx,0,8,00,03,00,00,00,00,00,03,
1051119,00000517,false,Rx,0,8,00,00,00,00,00,00,00,00,
1056036,00000102,false,Rx,0,8,00,00,19,54,56,CD,0F,D9,
1056268,00000103,false,Rx,0,8,02,00,02,00,00,00,0F,0F,
1056492,00000122,false,Rx,0,8,D3,23,00,CA,1C,E2,01,C5,
1056968,00000110,false,Rx,0,8,00,00,00,7B,01,05,00,7F,
1057219,00000300,false,Rx,0,8,00,00,0D,8C,00,66,00,00,
1057466,00000308,false,Rx,0,8,00,12,00,00,00,00,82,00,
1057718,00000316,false,Rx,0,8,13,AD,01,2B,53,00,00,00,
1057944,00000320,false,Rx,0,8,20,00,00,00,F0,00,82,00,
1058193,00000342,false,Rx,0,8,03,C2,99,99,7C,00,03,90,
1058442,00000516,false,Rx,0,8,00,00,00,00,00,00,00,00,
1060646,00000010,false,Rx,0,8,00,FF,61,30,00,00,0E,A0,
1060874,00000012,false,Rx,0,8,99,99,32,00,01,00,0F,3C,
1061843,00000231,false,Rx,0,8,00,03,00,00,00,00,02,01,
1062092,00000517,false,Rx,0,8,01,00,00,00,00,00,00,00,
1066035,00000102,false,Rx,0,8,00,00,19,54,56,CD,00,D6,
1066284,00000103,false,Rx,0,8,02,00,02,00,00,00,00,00,
1066496,00000122,false,Rx,0,8,D3,23,00,CA,1C,E2,02,C6,
1066869,00000400,false,Rx,0,8,00,0B,58,F0,00,01,08,AA,
1067123,00000408,false,Rx,0,8,00,41,33,0A,FF,FF,08,70,
1067392,00000410,false,Rx,0,8,43,00,00,00,00,FF,08,B4,
1067668,00000411,false,Rx,0,8,32,60,00,00,00,00,00,00,
1067944,00000022,false,Rx,0,8,FF,FF,FF,FF,00,00,08,08,
1071607,00000010,false,Rx,0,8,00,FF,61,30,00,00,0F,A1,
1072823,00000231,false,Rx,0,8,00,03,00,00,00,00,03,00,
1073115,00000517,false,Rx,0,8,00,00,00,00,00,00,00,00,
1076025,00000102,false,Rx,0,8,00,00,19,54,56,CD,01,D7,
1076268,00000103,false,Rx,0,8,02,00,02,00,00,00,01,01,
1076492,00000122,false,Rx,0,8,D3,23,00,CA,1C,E2,03,C7,
1076743,00000110,false,Rx,0,8,00,00,00,7B,01,05,01,7E,
1076992,00000300,false,Rx,0,8,00,00,0D,8C,00,66,00,00,
1077217,00000308,false,Rx,0,8,00,12,00,00,00,00,82,00,
1077464,00000316,false,Rx,0,8,13,AD,01,2B,53,00,00,00,
1077716,00000320,false,Rx,0,8,20,00,00,00,F0,00,82,00,
1077942,00000342,false,Rx,0,8,03,C2,99,99,7C,00,03,90,
1078192,00000516,false,Rx,0,8,00,00,00,00,00,00,00,00,
1082606,00000010,false,Rx,0,8,00,FF,61,30,00,00,00,AE,
1082843,00000012,false,Rx,0,8,99,99,32,00,00,00,00,32,
1083095,00000013,false,Rx,0,8,FF,01,09,00,00,00,00,00,
1083842,00000231,false,Rx,0,8,00,03,00,00,00,00,04,07,
1084092,00000517,false,Rx,0,8,00,00,00,00,00,00,00,00,
1086021,00000102,false,Rx,0,8,00,00,19,54,56,CD,02,D4,
1086268,00000103,false,Rx,0,8,02,00,02,00,00,00,02,02,
1086492,00000122,false,Rx,0,8,D3,23,00,CA,1C,E2,04,C0,
1087868,00000400,false,Rx,0,8,00,0B,58,F0,00,01,09,AB,
1088119,00000408,false,Rx,0,8,00,41,33,0A,FF,FF,09,71,
1088396,00000410,false,Rx,0,8,43,00,00,00,00,FF,09,B5,
1088670,00000411,false,Rx,0,8,32,60,00,00,00,00,00,00,
1088968,00000022,false,Rx,0,8,FF,FF,FF,FF,00,00,09,09,
1093583,00000010,false,Rx,0,8,00,FF,61,30,00,00,01,AF,
1094823,00000231,false,Rx,0,8,00,03,00,00,00,00,05,06,
1095093,00000517,false,Rx,0,8,01,00,00,00,00,00,00,00,
1096016,00000102,false,Rx,0,8,00,00,19,54,56,CD,03,D5,
1096270,00000103,false,Rx,0,8,02,00,02,00,00,00,03,03,
1096492,00000122,false,Rx,0,8,D3,23,00,CA,1C,E2,05,C1,
1096968,00000110,false,Rx,0,8,00,00,00,7B,01,05,02,7D,
1097219,00000308,false,Rx,0,8,00,12,00,00,00,00,82,00,
1097469,00000300,false,Rx,0,8,00,00,0D,8C,00,66,00,00,
1097694,00000316,false,Rx,0,8,13,AD,01,2B,53,00,00,00,
1097944,00000320,false,Rx,0,8,20,00,00,00,F0,00,82,00,
1098195,00000342,false,Rx,0,8,03,C2,99,99,7C,00,03,90,
1098442,00000516,false,Rx,0,8,00,00,00,00,00,00,00,00,
1104607,00000010,false,Rx,0,8,00,FF,61,30,00,00,02,AC,
1104820,00000012,false,Rx,0,8,99,99,32,00,01,00,01,32,
1105822,00000231,false,Rx,0,8,00,03,00,00,00,00,06,05,
1106068,00000102,false,Rx,0,8,00,00,19,54,56,CD,04,D2,
1106320,00000103,false,Rx,0,8,02,00,02,00,00,00,04,04,
1106539,00000122,false,Rx,0,8,D3,23,00,CA,1C,E2,06,C2,
1106793,00000517,false,Rx,0,8,01,00,00,00,00,00,00,00,
1108847,00000400,false,Rx,0,8,00,0B,58,F0,00,01,0A,A8,
1109144,00000408,false,Rx,0,8,00,41,33,0A,FF,FF,0A,72,
1109416,00000410,false,Rx,0,8,43,00,00,00,00,FF,0A,B6,
