(0000000000.001145) vcan0 400#000B5EF0000105A1
(0000000000.001369) vcan0 408#0041330AFFFF057D
(0000000000.001644) vcan0 410#3700AA4000FF0527
(0000000000.001945) vcan0 411#3260000000000000
(0000000000.002217) vcan0 022#FFFFFFFF00000505
(0000000000.007088) vcan0 231#0002000000000D0F
(0000000000.007343) vcan0 517#0100000000000000
(0000000000.011080) vcan0 332#0100000000000706
(0000000000.011319) vcan0 530#FFFF79832711D200
(0000000000.018135) vcan0 231#0002000000000E0C
(0000000000.018371) vcan0 517#0100000000000000
(0000000000.022120) vcan0 400#000B5EF0000107A3
(0000000000.022370) vcan0 408#0041330AFFFF077F
(0000000000.022643) vcan0 410#3700AA4100FF0625
(0000000000.022920) vcan0 411#3260000000000000
(0000000000.023194) vcan0 022#FFFFFFFF00000606
(0000000000.029179) vcan0 231#0002000000000F0D
(0000000000.029381) vcan0 517#0000000000000000
(0000000000.040126) vcan0 231#0002000000000002
(0000000000.040382) vcan0 517#0000000000000000
(0000000000.043139) vcan0 400#000B5EF0000107A3
(0000000000.043370) vcan0 408#0041330AFFFF077F
(0000000000.043645) vcan0 410#3700AA4100FF0724
(0000000000.043922) vcan0 411#3260000000000000
(0000000000.044196) vcan0 022#FFFFFFFF00000707
(0000000000.051166) vcan0 231#0002000000000200
(0000000000.051393) vcan0 517#0100000000000000
(0000000000.062129) vcan0 231#0002000000000200
(0000000000.062391) vcan0 517#0100000000000000
(0000000000.064375) vcan0 400#000B5EF0000109AD
(0000000000.064388) vcan0 408#0041330AFFFF0971
(0000000000.064670) vcan0 410#3700AA4100FF082B
(0000000000.065095) vcan0 411#3260000000000000
(0000000000.065170) vcan0 022#FFFFFFFF00000808
(0000000000.073442) vcan0 231#0002000000000406
(0000000000.073457) vcan0 517#0000000000000000
(0000000000.084330) vcan0 231#0002000000000507
(0000000000.084375) vcan0 517#0100000000000000
(0000000000.085344) vcan0 400#000B5EF000010AAE
(0000000000.085385) vcan0 408#0041330AFFFF0A72
(0000000000.085711) vcan0 410#3B00AA4100FF0926
(0000000000.086011) vcan0 411#3260000000000000
(0000000000.086204) vcan0 022#FFFFFFFF00000909
(0000000000.095329) vcan0 231#0001000000000607
(0000000000.095398) vcan0 517#0100000000000000
(0000000000.106235) vcan0 231#0001000000000706
(0000000000.106447) vcan0 400#000B5EF000010BAF
(0000000000.106896) vcan0 408#0041330AFFFF0B73
(0000000000.106934) vcan0 410#3B00AA5000FF0A34
(0000000000.107321) vcan0 411#3260000000000000
(0000000000.107506) vcan0 022#FFFFFFFF00000A0A
(0000000000.107960) vcan0 517#0000000000000000
(0000000000.112329) vcan0 332#0100000000000809
(0000000000.112377) vcan0 530#FFFF79832711D200
(0000000000.117380) vcan0 231#0001000000000809
(0000000000.117396) vcan0 517#0000000000000000
(0000000000.127376) vcan0 400#000B5EF000010CA8
(0000000000.127429) vcan0 408#0041330AFFFF0C74
(0000000000.127672) vcan0 410#3B00AA5000FF0B35
(0000000000.128094) vcan0 411#3260000000000000
(0000000000.128246) vcan0 022#FFFFFFFF00000B0B
(0000000000.128692) vcan0 231#0001000000000908
(0000000000.128834) vcan0 517#0100000000000000
(0000000000.139360) vcan0 231#0001000000000A0B
(0000000000.139397) vcan0 517#0100000000000000
(0000000000.148375) vcan0 400#000B5EF000010DA9
(0000000000.148429) vcan0 408#0041330AFFFF0D75
(0000000000.148697) vcan0 410#3B00AA5000FF0C32
(0000000000.148976) vcan0 411#3260000000000000
(0000000000.149231) vcan0 022#FFFFFFFF00000C0C
(0000000000.150378) vcan0 231#0001000000000B0A
(0000000000.150396) vcan0 517#0000000000000000
(0000000000.161332) vcan0 231#0001000000000C0D
(0000000000.161375) vcan0 517#0000000000000000
(0000000000.169391) vcan0 400#000B5EF000010EAA
(0000000000.169428) vcan0 408#0041330AFFFF0E76
(0000000000.169691) vcan0 410#3B00AA5000FF0D33
(0000000000.170335) vcan0 411#3260000000000000
(0000000000.170349) vcan0 022#FFFFFFFF00000D0D
(0000000000.172373) vcan0 231#0001000000000E0F
(0000000000.172419) vcan0 517#0100000000000000
(0000000000.183314) vcan0 231#0001000000000F0E
(0000000000.183361) vcan0 517#0000000000000000
(0000000000.190370) vcan0 400#000B5EF000010FAB
(0000000000.190418) vcan0 408#0041330AFFFF0F77
(0000000000.190669) vcan0 410#3700AA5100FF0F3C
(0000000000.190948) vcan0 411#3260000000000000
(0000000000.191232) vcan0 022#FFFFFFFF00000F0F
(0000000000.194209) vcan0 231#0001000000000001
(0000000000.194352) vcan0 517#0000000000000000
(0000000000.205106) vcan0 231#0001000000000100
(0000000000.205377) vcan0 517#0100000000000000
(0000000000.211149) vcan0 400#000B5EF0000100A4
(0000000000.211377) vcan0 408#0041330AFFFF0078
(0000000000.211652) vcan0 410#3700AA5100FF0033
(0000000000.211928) vcan0 411#3260000000000000
(0000000000.212177) vcan0 022#FFFFFFFF00000000
(0000000000.213139) vcan0 332#0100000000000908
(0000000000.213353) vcan0 530#FFFF79832711D200
(0000000000.216077) vcan0 231#0001000000000203
(0000000000.216352) vcan0 517#0100000000000000
(0000000000.227077) vcan0 231#0001000000000302
(0000000000.227352) vcan0 517#0000000000000000
(0000000000.232160) vcan0 400#000B5EF0000101A5
(0000000000.232407) vcan0 408#0041330AFFFF0179
(0000000000.232682) vcan0 410#3700AA5100FF0132
(0000000000.232959) vcan0 411#3260000000000000
(0000000000.233230) vcan0 022#FFFFFFFF00000101
(0000000000.238128) vcan0 231#0001000000000405
(0000000000.238379) vcan0 517#0000000000000000
(0000000000.249108) vcan0 231#0001000000000504
(0000000000.249383) vcan0 517#0100000000000000
(0000000000.253153) vcan0 400#000B5EF0000102A6
(0000000000.253405) vcan0 408#0041330AFFFF027A
(0000000000.253655) vcan0 410#3700046100FF02AF
(0000000000.253957) vcan0 411#3260000000000000
(0000000000.254206) vcan0 022#FFFFFFFF00000202
(0000000000.260101) vcan0 231#0001000000000607
(0000000000.260376) vcan0 517#0100000000000000
(0000000000.271112) vcan0 231#0001000000000809
(0000000000.271356) vcan0 517#0000000000000000
(0000000000.274132) vcan0 400#000B5EF0000103A7
(0000000000.274377) vcan0 408#0041330AFFFF037B
(0000000000.274654) vcan0 410#3700046100FF03AE
(0000000000.274938) vcan0 411#3260000000000000
(0000000000.275202) vcan0 022#FFFFFFFF00000303
(0000000000.282077) vcan0 231#0001000000000908
(0000000000.282351) vcan0 517#0100000000000000
(0000000000.293077) vcan0 231#0001000000000A0B
(0000000000.293350) vcan0 517#0100000000000000
(0000000000.295125) vcan0 400#000B5EF0000104A0
(0000000000.295377) vcan0 408#0041330AFFFF047C
(0000000000.295652) vcan0 410#3700046100FF04A9
(0000000000.295928) vcan0 411#3260000000000000
(0000000000.296200) vcan0 022#FFFFFFFF00000404
(0000000000.304119) vcan0 231#0001000000000B0A
(0000000000.304377) vcan0 517#0000000000000000
(0000000000.314089) vcan0 332#0100000000000A0B
(0000000000.314326) vcan0 530#FFFF79832711D200
(0000000000.315127) vcan0 231#0001000000000C0D
(0000000000.315351) vcan0 517#0000000000000000
(0000000000.316126) vcan0 400#000B5EF0000105A1
(0000000000.316377) vcan0 408#0041330AFFFF057D
(0000000000.316653) vcan0 410#3700046100FF05A8
(0000000000.316903) vcan0 411#3260000000000000
(0000000000.317213) vcan0 022#FFFFFFFF00000505
(0000000000.326079) vcan0 231#0001000000000D0C
(0000000000.326351) vcan0 517#0100000000000000
(0000000000.337482) vcan0 231#0001000000000E0F
(0000000000.337499) vcan0 400#000B5EF0000106A2
(0000000000.337788) vcan0 408#0041330AFFFF067E
(0000000000.337971) vcan0 410#3700062900FF06E1
(0000000000.338469) vcan0 411#3260000000000000
(0000000000.338508) vcan0 022#FFFFFFFF00000606
(0000000000.338815) vcan0 517#0100000000000000
(0000000000.348100) vcan0 231#0001000000000F0E
(0000000000.348384) vcan0 517#0000000000000000
(0000000000.358414) vcan0 400#000B5EF0000107A3
(0000000000.358428) vcan0 408#0041330AFFFF077F
(0000000000.358740) vcan0 410#3700062900FF07E0
(0000000000.358999) vcan0 411#3260000000000000
(0000000000.359253) vcan0 022#FFFFFFFF00000707
(0000000000.359742) vcan0 231#0001000000000001
(0000000000.359784) vcan0 517#0000000000000000
(0000000000.370382) vcan0 231#0001000000000203
(0000000000.370396) vcan0 517#0100000000000000
(0000000000.379387) vcan0 400#000B5EF0000108AC
(0000000000.379425) vcan0 408#0041330AFFFF0870
(0000000000.379691) vcan0 410#3B00062900FF08E3
(0000000000.380189) vcan0 411#3260000000000000
(0000000000.380234) vcan0 022#FFFFFFFF00000808
(0000000000.381393) vcan0 231#0001000000000203
(0000000000.381407) vcan0 517#0100000000000000
(0000000000.392331) vcan0 231#0001000000000405
(0000000000.392379) vcan0 517#0000000000000000
(0000000000.400378) vcan0 400#000B5EF0000109AD
(0000000000.400423) vcan0 408#0041330AFFFF0971
(0000000000.400668) vcan0 410#3B00062900FF09E2
(0000000000.401022) vcan0 411#3260000000000000
(0000000000.401228) vcan0 022#FFFFFFFF00000909
(0000000000.403327) vcan0 231#0001000000000504
(0000000000.403372) vcan0 517#0100000000000000
(0000000000.414382) vcan0 231#0001000000000607
(0000000000.414396) vcan0 517#0100000000000000
(0000000000.415376) vcan0 332#0100000000000B0A
(0000000000.415389) vcan0 530#FFFF79842711D200
(0000000000.421389) vcan0 400#000B5EF000010AAE
(0000000000.421402) vcan0 408#0041330AFFFF0A72
(0000000000.421670) vcan0 410#3B00AA2000FF0A44
(0000000000.422300) vcan0 411#3260000000000000
(0000000000.422313) vcan0 022#FFFFFFFF00000A0A
(0000000000.425337) vcan0 231#0001000000000706
(0000000000.425383) vcan0 517#0000000000000000
(0000000000.436326) vcan0 231#0001000000000809
(0000000000.436378) vcan0 517#0000000000000000
(0000000000.442384) vcan0 400#000B5EF000010BAF
(0000000000.442400) vcan0 408#0041330AFFFF0B73
(0000000000.442676) vcan0 410#3B00AA2000FF0B45
(0000000000.442955) vcan0 411#3260000000000000
(0000000000.443240) vcan0 022#FFFFFFFF00000B0B
(0000000000.447107) vcan0 231#0001000000000908
(0000000000.447358) vcan0 517#0100000000000000
(0000000000.458107) vcan0 231#0001000000000A0B
(0000000000.458359) vcan0 517#0100000000000000
(0000000000.463133) vcan0 400#000B5EF000010DA9
(0000000000.463384) vcan0 408#0041330AFFFF0D75
(0000000000.463635) vcan0 410#3B00AA2000FF0C42
(0000000000.463910) vcan0 411#3260000000000000
(0000000000.464209) vcan0 022#FFFFFFFF00000C0C
(0000000000.469084) vcan0 231#0001000000000B0A
(0000000000.469358) vcan0 517#0000000000000000
(0000000000.480086) vcan0 231#0001000000000C0D
(0000000000.480382) vcan0 517#0000000000000000
(0000000000.484142) vcan0 400#000B5EF000010EAA
(0000000000.484383) vcan0 408#0041330AFFFF0E76
(0000000000.484633) vcan0 410#3700AA2000FF0D4F
(0000000000.484909) vcan0 411#3260000000000000
(0000000000.485181) vcan0 022#FFFFFFFF00000D0D
(0000000000.491082) vcan0 231#0001000000000E0F
(0000000000.491357) vcan0 517#0100000000000000
(0000000000.502080) vcan0 231#0001000000000F0E
(0000000000.502354) vcan0 517#0000000000000000
(0000000000.505137) vcan0 400#000B5EF000010FAB
(0000000000.505381) vcan0 408#0041330AFFFF0F77
(0000000000.505656) vcan0 410#3700AA2100FF0E4D
(0000000000.505907) vcan0 411#3260000000000000
(0000000000.506204) vcan0 022#FFFFFFFF00000E0E
(0000000000.513162) vcan0 231#0001000000000001
(0000000000.513355) vcan0 517#0000000000000000
(0000000000.516091) vcan0 332#0100000000000C0D
(0000000000.516353) vcan0 530#FFFF79842711D200
(0000000000.524090) vcan0 231#0001000000000100
(0000000000.524355) vcan0 517#0100000000000000
(0000000000.526128) vcan0 400#000B5EF0000100A4
(0000000000.526378) vcan0 408#0041330AFFFF0078
(0000000000.526630) vcan0 410#3700AA2100FF0F4C
(0000000000.526930) vcan0 411#3260000000000000
(0000000000.527203) vcan0 022#FFFFFFFF00000F0F
(0000000000.535079) vcan0 231#0001000000000203
(0000000000.535353) vcan0 517#0100000000000000
(0000000000.546111) vcan0 231#0001000000000302
(0000000000.546356) vcan0 517#0000000000000000
(0000000000.547149) vcan0 400#000B5EF0000101A5
(0000000000.547402) vcan0 408#0041330AFFFF0179
(0000000000.547650) vcan0 410#3700AA2100FF0043
(0000000000.547950) vcan0 411#3260000000000000
(0000000000.548224) vcan0 022#FFFFFFFF00000000
(0000000000.557100) vcan0 231#0001000000000405
(0000000000.557351) vcan0 517#0000000000000000
(0000000000.568193) vcan0 231#0001000000000504
(0000000000.568453) vcan0 400#000B5EF0000102A6
(0000000000.568904) vcan0 408#0041330AFFFF027A
(0000000000.568975) vcan0 410#3700AA2100FF0142
(0000000000.569338) vcan0 411#3260000000000000
(0000000000.569600) vcan0 022#FFFFFFFF00000101
(0000000000.569860) vcan0 517#0100000000000000
(0000000000.579161) vcan0 231#0001000000000607
(0000000000.579368) vcan0 517#0100000000000000
(0000000000.589410) vcan0 400#000B5EF0000103A7
(0000000000.589424) vcan0 408#0041330AFFFF037B
(0000000000.589647) vcan0 410#3700AA3000FF0250
(0000000000.590097) vcan0 411#3260000000000000
(0000000000.590254) vcan0 022#FFFFFFFF00000202
(0000000000.590749) vcan0 231#0001000000000809
(0000000000.590822) vcan0 517#0000000000000000
(0000000000.601338) vcan0 231#0001000000000809
(0000000000.601406) vcan0 517#0000000000000000
(0000000000.610389) vcan0 400#000B5EF0000104A0
(0000000000.610445) vcan0 408#0041330AFFFF047C
(0000000000.610650) vcan0 410#3700AA3000FF0456
(0000000000.611290) vcan0 411#3260000000000000
(0000000000.611304) vcan0 022#FFFFFFFF00000404
(0000000000.612385) vcan0 231#0001000000000A0B
(0000000000.612397) vcan0 517#0100000000000000
(0000000000.617341) vcan0 332#0100000000000D0C
(0000000000.617354) vcan0 530#FFFF79842711D200
(0000000000.623333) vcan0 231#0001000000000B0A
(0000000000.623394) vcan0 517#0000000000000000
(0000000000.631380) vcan0 400#000B5EF0000105A1
(0000000000.631393) vcan0 408#0041330AFFFF057D
(0000000000.631648) vcan0 410#3700AA3000FF0557
(0000000000.632027) vcan0 411#3260000000000000
(0000000000.632208) vcan0 022#FFFFFFFF00000505
(0000000000.634323) vcan0 231#0001000000000C0D
(0000000000.634401) vcan0 517#0000000000000000
(0000000000.645397) vcan0 231#0001000000000D0C
(0000000000.645410) vcan0 517#0100000000000000
(0000000000.652373) vcan0 400#000B5EF0000106A2
(0000000000.652420) vcan0 408#0041330AFFFF067E
(0000000000.652681) vcan0 410#3700AA3100FF0655
(0000000000.652957) vcan0 411#3260000000000000
(0000000000.653243) vcan0 022#FFFFFFFF00000606
(0000000000.656339) vcan0 231#0001000000000E0F
(0000000000.656392) vcan0 517#0100000000000000
(0000000000.667389) vcan0 231#0001000000000F0E
(0000000000.667404) vcan0 517#0000000000000000
(0000000000.673396) vcan0 400#000B5EF0000107A3
(0000000000.673440) vcan0 408#0041330AFFFF077F
(0000000000.673703) vcan0 410#3700AA3100FF0754
(0000000000.673956) vcan0 411#3260000000000000
(0000000000.674244) vcan0 022#FFFFFFFF00000707
(0000000000.678332) vcan0 231#0001000000000001
(0000000000.678385) vcan0 517#0000000000000000
(0000000000.689376) vcan0 231#0001000000000100
(0000000000.689391) vcan0 517#0100000000000000
(0000000000.694379) vcan0 400#000B5EF0000108AC
(0000000000.694437) vcan0 408#0041330AFFFF0870
(0000000000.694650) vcan0 410#3700AA3100FF085B
(0000000000.694943) vcan0 411#3260000000000000
(0000000000.695244) vcan0 022#FFFFFFFF00000808
(0000000000.700148) vcan0 231#0001000000000203
(0000000000.700389) vcan0 517#0100000000000000
(0000000000.711138) vcan0 231#0001000000000405
(0000000000.711366) vcan0 517#0000000000000000
(0000000000.715164) vcan0 400#000B5EF0000109AD
(0000000000.715414) vcan0 408#0041330AFFFF0971
(0000000000.715666) vcan0 410#3700AA3100FF095A
(0000000000.715966) vcan0 411#3260000000000000
(0000000000.716214) vcan0 022#FFFFFFFF00000909
(0000000000.718166) vcan0 332#0100000000000E0F
(0000000000.718419) vcan0 530#FFFF79842711D200
(0000000000.722116) vcan0 231#0001000000000504
(0000000000.722392) vcan0 517#0100000000000000
(0000000000.733092) vcan0 231#0001000000000607
(0000000000.733363) vcan0 517#0100000000000000
(0000000000.736148) vcan0 400#000B5EF000010AAE
(0000000000.736366) vcan0 408#0041330AFFFF0A72
(0000000000.736640) vcan0 410#3700AA4000FF0A28
(0000000000.736916) vcan0 411#3260000000000000
(0000000000.737188) vcan0 022#FFFFFFFF00000A0A
(0000000000.744089) vcan0 231#0001000000000706
(0000000000.744363) vcan0 517#0000000000000000
(0000000000.755086) vcan0 231#0001000000000809
(0000000000.755362) vcan0 517#0000000000000000
(0000000000.757144) vcan0 400#000B5EF000010BAF
(0000000000.757389) vcan0 408#0041330AFFFF0B73
(0000000000.757640) vcan0 410#3700AA4000FF0B29
(0000000000.757917) vcan0 411#3260000000000000
(0000000000.758275) vcan0 022#FFFFFFFF00000B0B
(0000000000.766084) vcan0 231#0001000000000908
(0000000000.766359) vcan0 517#0100000000000000
(0000000000.777094) vcan0 231#0001000000000A0B
(0000000000.777357) vcan0 517#0100000000000000
(0000000000.778131) vcan0 400#000B5EF000010CA8
(0000000000.778383) vcan0 408#0041330AFFFF0C74
(0000000000.778654) vcan0 410#3700AA4000FF0C2E
(0000000000.778959) vcan0 411#3260000000000000
(0000000000.779228) vcan0 022#FFFFFFFF00000C0C
(0000000000.788100) vcan0 231#0001000000000B0A
(0000000000.788476) vcan0 517#0000000000000000
(0000000000.799161) vcan0 231#0001000000000C0D
(0000000000.799434) vcan0 400#000B5EF000010DA9
(0000000000.799709) vcan0 408#0041330AFFFF0D75
(0000000000.799985) vcan0 410#3700AA4000FF0D2F
(0000000000.800256) vcan0 411#3260000000000000
(0000000000.800532) vcan0 022#FFFFFFFF00000D0D
(0000000000.800807) vcan0 517#0000000000000000
(0000000000.810099) vcan0 231#0001000000000E0F
(0000000000.810360) vcan0 517#0100000000000000
(0000000000.819333) vcan0 332#0100000000000F0E
(0000000000.819378) vcan0 530#FFFF79842711D200
(0000000000.820395) vcan0 400#000B5EF000010EAA
(0000000000.820434) vcan0 408#0041330AFFFF0E76
(0000000000.820698) vcan0 410#3700AA4100FF0E2D
(0000000000.821021) vcan0 411#3260000000000000
(0000000000.821232) vcan0 022#FFFFFFFF00000E0E
(0000000000.821839) vcan0 231#0001000000000E0F
(0000000000.821853) vcan0 517#0100000000000000
(0000000000.832333) vcan0 231#0001000000000001
(0000000000.832378) vcan0 517#0000000000000000
(0000000000.841426) vcan0 400#000B5EF000010FAB
(0000000000.841441) vcan0 408#0041330AFFFF0F77
(0000000000.841654) vcan0 410#3700AA4100FF0F2C
(0000000000.841945) vcan0 411#3260000000000000
(0000000000.842303) vcan0 022#FFFFFFFF00000F0F
(0000000000.843385) vcan0 231#0001000000000001
(0000000000.843399) vcan0 517#0000000000000000
(0000000000.854339) vcan0 231#0001000000000203
(0000000000.854385) vcan0 517#0100000000000000
(0000000000.862385) vcan0 400#000B5EF0000100A4
(0000000000.862431) vcan0 408#0041330AFFFF0078
(0000000000.862698) vcan0 410#3700AA4100FF0023
(0000000000.863052) vcan0 411#3260000000000000
(0000000000.863257) vcan0 022#FFFFFFFF00000000
(0000000000.865388) vcan0 231#0001000000000302
(0000000000.865402) vcan0 517#0000000000000000
(0000000000.876339) vcan0 231#0001000000000405
(0000000000.876387) vcan0 517#0000000000000000
(0000000000.883384) vcan0 400#000B5EF0000102A6
(0000000000.883430) vcan0 408#0041330AFFFF027A
(0000000000.883674) vcan0 410#3700AA4100FF0122
(0000000000.884285) vcan0 411#3260000000000000
(0000000000.884297) vcan0 022#FFFFFFFF00000101
(0000000000.887336) vcan0 231#0001000000000504
(0000000000.887382) vcan0 517#0100000000000000
(0000000000.898330) vcan0 231#0001000000000607
(0000000000.898383) vcan0 517#0100000000000000
(0000000000.904382) vcan0 400#000B5EF0000103A7
(0000000000.904436) vcan0 408#0041330AFFFF037B
(0000000000.904683) vcan0 410#3700AA5000FF0230
(0000000000.904962) vcan0 411#3260000000000000
(0000000000.905245) vcan0 022#FFFFFFFF00000202
(0000000000.909339) vcan0 231#0001000000000706
(0000000000.909390) vcan0 517#0000000000000000
(0000000000.920397) vcan0 231#0001000000000809
(0000000000.920443) vcan0 332#0100000000000001
(0000000000.920707) vcan0 517#0000000000000000
(0000000000.920961) vcan0 530#FFFF79842711D200
(0000000000.925203) vcan0 400#000B5EF0000104A0
(0000000000.925420) vcan0 408#0041330AFFFF047C
(0000000000.925702) vcan0 410#3700AA5000FF0331
(0000000000.925973) vcan0 411#3260000000000000
(0000000000.926246) vcan0 022#FFFFFFFF00000303
(0000000000.931334) vcan0 231#0001000000000A0B
(0000000000.931386) vcan0 517#0100000000000000
(0000000000.942341) vcan0 231#0001000000000A0B
(0000000000.942397) vcan0 517#0100000000000000
(0000000000.946206) vcan0 400#000B5EF0000105A1
(0000000000.946392) vcan0 408#0041330AFFFF057D
(0000000000.946695) vcan0 410#3700AA5000FF0436
(0000000000.946944) vcan0 411#3260000000000000
(0000000000.947243) vcan0 022#FFFFFFFF00000404
(0000000000.953161) vcan0 231#0001000000000C0D
(0000000000.953367) vcan0 517#0000000000000000
(0000000000.964134) vcan0 231#0001000000000D0C
(0000000000.964403) vcan0 517#0100000000000000
(0000000000.967167) vcan0 400#000B5EF0000106A2
(0000000000.967418) vcan0 408#0041330AFFFF067E
(0000000000.967694) vcan0 410#3700AA5000FF0537
(0000000000.967970) vcan0 411#3260000000000000
(0000000000.968243) vcan0 022#FFFFFFFF00000505
(0000000000.975118) vcan0 231#0001000000000E0F
(0000000000.975417) vcan0 517#0100000000000000
(0000000000.986109) vcan0 231#0001000000000F0E
(0000000000.986367) vcan0 517#0000000000000000
(0000000000.988141) vcan0 400#000B5EF0000107A3
(0000000000.988392) vcan0 408#0041330AFFFF077F
(0000000000.988668) vcan0 410#3700AA5100FF0635
(0000000000.988944) vcan0 411#3260000000000000
(0000000000.989217) vcan0 022#FFFFFFFF00000606
(0000000000.997091) vcan0 231#0001000000000001
(0000000000.997391) vcan0 517#0000000000000000
(0000000001.008091) vcan0 231#0001000000000100
(0000000001.008391) vcan0 517#0100000000000000
(0000000001.009166) vcan0 400#000B5EF0000108AC
(0000000001.009389) vcan0 408#0041330AFFFF0870
(0000000001.009665) vcan0 410#3700AA5100FF0734
(0000000001.009940) vcan0 411#3260000000000000
(0000000001.010239) vcan0 022#FFFFFFFF00000707
(0000000001.019088) vcan0 231#0001000000000203
(0000000001.019363) vcan0 517#0100000000000000
(0000000001.021092) vcan0 332#0100000000000100
(0000000001.021335) vcan0 530#FFFF79842711D200
(0000000001.030180) vcan0 231#0001000000000405
(0000000001.030412) vcan0 400#000B5EF0000109AD
(0000000001.030688) vcan0 408#0041330AFFFF0971
(0000000001.030964) vcan0 410#3700AA5100FF093A
(0000000001.031236) vcan0 411#3260000000000000
(0000000001.031487) vcan0 022#FFFFFFFF00000909
(0000000001.031787) vcan0 517#0000000000000000
(0000000001.041085) vcan0 231#0001000000000405
(0000000001.041361) vcan0 517#0000000000000000
(0000000001.051141) vcan0 400#000B5EF000010AAE
(0000000001.051386) vcan0 408#0041330AFFFF0A72
(0000000001.051638) vcan0 410#3700046100FF0AA7
(0000000001.051938) vcan0 411#3260000000000000
(0000000001.052210) vcan0 022#FFFFFFFF00000A0A
(0000000001.052490) vcan0 231#0001000000000607
(0000000001.052751) vcan0 517#0100000000000000
(0000000001.063335) vcan0 231#0001000000000706
(0000000001.063415) vcan0 517#0000000000000000
(0000000001.072269) vcan0 400#000B5EF000010BAF
(0000000001.072393) vcan0 408#0041330AFFFF0B73
(0000000001.072725) vcan0 410#3300046100FF0BA2
(0000000001.072927) vcan0 411#3260000000000000
(0000000001.073282) vcan0 022#FFFFFFFF00000B0B
(0000000001.074390) vcan0 231#0001000000000809
(0000000001.074405) vcan0 517#0000000000000000
(0000000001.085374) vcan0 231#0001000000000908
(0000000001.085387) vcan0 517#0100000000000000
(0000000001.093392) vcan0 400#000B5EF000010CA8
(0000000001.093406) vcan0 408#0041330AFFFF0C74
(0000000001.093670) vcan0 410#3300046100FF0CA5
(0000000001.094144) vcan0 411#3260000000000000
(0000000001.094186) vcan0 022#FFFFFFFF00000C0C
(0000000001.096333) vcan0 231#0001000000000A0B
(0000000001.096377) vcan0 517#0100000000000000
(0000000001.107343) vcan0 231#0001000000000B0A
(0000000001.107391) vcan0 517#0000000000000000
(0000000001.114387) vcan0 400#000B5EF000010DA9
(0000000001.114401) vcan0 408#0041330AFFFF0D75
(0000000001.114707) vcan0 410#3300046100FF0DA4
(0000000001.114956) vcan0 411#3260000000000000
(0000000001.115214) vcan0 022#FFFFFFFF00000D0D
(0000000001.118334) vcan0 231#0001000000000C0D
(0000000001.118379) vcan0 517#0000000000000000
(0000000001.122347) vcan0 332#0100000000000203
(0000000001.122362) vcan0 530#FFFF79842711D200
(0000000001.129343) vcan0 231#0001000000000D0C
(0000000001.129387) vcan0 517#0100000000000000
(0000000001.135406) vcan0 400#000B5EF000010EAA
(0000000001.135424) vcan0 408#0041330AFFFF0E76
(0000000001.135691) vcan0 410#3300062900FF0EED
(0000000001.135965) vcan0 411#3260000000000000
(0000000001.136223) vcan0 022#FFFFFFFF00000E0E
(0000000001.140341) vcan0 231#0001000000000E0F
(0000000001.140399) vcan0 517#0100000000000000
(0000000001.151332) vcan0 231#0001000000000001
(0000000001.151381) vcan0 517#0000000000000000
(0000000001.156386) vcan0 400#000B5EF000010FAB
(0000000001.156436) vcan0 408#0041330AFFFF0F77
(0000000001.156709) vcan0 410#3300062900FF0FEC
(0000000001.156987) vcan0 411#3260000000000000
(0000000001.157274) vcan0 022#FFFFFFFF00000F0F
(0000000001.162340) vcan0 231#0001000000000001
(0000000001.162389) vcan0 517#0000000000000000
(0000000001.173442) vcan0 231#0001000000000203
(0000000001.173457) vcan0 517#0100000000000000
(0000000001.177418) vcan0 400#000B5EF0000100A4
(0000000001.177434) vcan0 408#0041330AFFFF0078
(0000000001.177676) vcan0 410#3700062900FF00E7
(0000000001.177992) vcan0 411#3260000000000000
(0000000001.178244) vcan0 022#FFFFFFFF00000000
(0000000001.184332) vcan0 231#0001000000000302
(0000000001.184384) vcan0 517#0000000000000000
(0000000001.195121) vcan0 231#0001000000000405
(0000000001.195367) vcan0 517#0000000000000000
(0000000001.198153) vcan0 400#000B5EF0000101A5
(0000000001.198418) vcan0 408#0041330AFFFF0179
(0000000001.198694) vcan0 410#3700062900FF01E6
(0000000001.198971) vcan0 411#3260000000000000
(0000000001.199242) vcan0 022#FFFFFFFF00000101
(0000000001.206115) vcan0 231#0001000000000504
(0000000001.206368) vcan0 517#0100000000000000
(0000000001.217142) vcan0 231#0001000000000607
(0000000001.217367) vcan0 517#0100000000000000
(0000000001.219142) vcan0 400#000B5EF0000102A6
(0000000001.219393) vcan0 408#0041330AFFFF027A
(0000000001.219669) vcan0 410#3700AA2000FF0240
(0000000001.219945) vcan0 411#3260000000000000
(0000000001.220217) vcan0 022#FFFFFFFF00000202
(0000000001.223092) vcan0 332#0100000000000302
(0000000001.223367) vcan0 530#FFFF79842811D800
(0000000001.228127) vcan0 231#0001000000000706
(0000000001.228422) vcan0 517#0000000000000000
(0000000001.239133) vcan0 231#0001000000000809
(0000000001.239397) vcan0 517#0000000000000000
(0000000001.240172) vcan0 400#000B5EF0000103A7
(0000000001.240424) vcan0 408#0041330AFFFF037B
(0000000001.240700) vcan0 410#3700AA2000FF0341
(0000000001.240976) vcan0 411#3260000000000000
(0000000001.241248) vcan0 022#FFFFFFFF00000303
(0000000001.250120) vcan0 231#0001000000000A0B
(0000000001.250394) vcan0 517#0100000000000000
(0000000001.261220) vcan0 231#0001000000000A0B
(0000000001.261443) vcan0 400#000B5EF0000104A0
(0000000001.261719) vcan0 408#0041330AFFFF047C
(0000000001.261997) vcan0 410#3700AA2000FF0446
(0000000001.262265) vcan0 411#3260000000000000
(0000000001.262546) vcan0 022#FFFFFFFF00000404
(0000000001.262843) vcan0 517#0100000000000000
(0000000001.272111) vcan0 231#0001000000000C0D
(0000000001.272369) vcan0 517#0000000000000000
(0000000001.282175) vcan0 400#000B5EF0000106A2
(0000000001.282414) vcan0 408#0041330AFFFF067E
(0000000001.282690) vcan0 410#3700AA2000FF0547
(0000000001.282966) vcan0 411#3260000000000000
(0000000001.283239) vcan0 022#FFFFFFFF00000505
(0000000001.283514) vcan0 231#0001000000000D0C
(0000000001.283790) vcan0 517#0100000000000000
(0000000001.294164) vcan0 231#0001000000000E0F
(0000000001.294391) vcan0 517#0100000000000000
(0000000001.303160) vcan0 400#000B5EF0000107A3
(0000000001.303392) vcan0 408#0041330AFFFF077F
(0000000001.303665) vcan0 410#3700AA2100FF0645
(0000000001.303944) vcan0 411#3260000000000000
(0000000001.304215) vcan0 022#FFFFFFFF00000606
(0000000001.305144) vcan0 231#0001000000000F0E
(0000000001.305405) vcan0 517#0000000000000000
(0000000001.316341) vcan0 231#0001000000000001
(0000000001.316386) vcan0 517#0000000000000000
(0000000001.324390) vcan0 400#000B5EF0000108AC
(0000000001.324435) vcan0 408#0041330AFFFF0870
(0000000001.324731) vcan0 410#3700AA2100FF0744
(0000000001.324951) vcan0 411#3260000000000000
(0000000001.325239) vcan0 332#0100000000000405
(0000000001.325892) vcan0 022#FFFFFFFF00000707
(0000000001.325906) vcan0 530#FFFF79842811D800
(0000000001.327338) vcan0 231#0001000000000100
(0000000001.327417) vcan0 517#0100000000000000
(0000000001.338345) vcan0 231#0001000000000203
(0000000001.338451) vcan0 517#0100000000000000
(0000000001.345396) vcan0 400#000B5EF0000109AD
(0000000001.345465) vcan0 408#0041330AFFFF0971
(0000000001.345644) vcan0 410#3700AA2100FF084B
(0000000001.346275) vcan0 411#3260000000000000
(0000000001.346288) vcan0 022#FFFFFFFF00000808
(0000000001.349387) vcan0 231#0001000000000302
(0000000001.349400) vcan0 517#0000000000000000
(0000000001.360339) vcan0 231#0001000000000405
(0000000001.360418) vcan0 517#0000000000000000
(0000000001.366248) vcan0 400#000B5EF000010AAE
(0000000001.366396) vcan0 408#0041330AFFFF0A72
(0000000001.366678) vcan0 410#3700AA2100FF094A
(0000000001.366952) vcan0 411#3260000000000000
(0000000001.367225) vcan0 022#FFFFFFFF00000909
(0000000001.371343) vcan0 231#0001000000000607
(0000000001.371409) vcan0 517#0100000000000000
(0000000001.382342) vcan0 231#0001000000000706
(0000000001.382411) vcan0 517#0000000000000000
(0000000001.387398) vcan0 400#000B5EF000010BAF
(0000000001.387414) vcan0 408#0041330AFFFF0B73
(0000000001.387636) vcan0 410#3300AA3000FF0A5C
(0000000001.387970) vcan0 411#3260000000000000
(0000000001.388254) vcan0 022#FFFFFFFF00000A0A
(0000000001.393345) vcan0 231#0001000000000809
(0000000001.393419) vcan0 517#0000000000000000
(0000000001.404339) vcan0 231#0001000000000908
(0000000001.404434) vcan0 517#0100000000000000
(0000000001.408478) vcan0 400#000B5EF000010CA8
(0000000001.408494) vcan0 408#0041330AFFFF0C74
(0000000001.408674) vcan0 410#3300AA3000FF0B5D
(0000000001.409006) vcan0 411#3260000000000000
(0000000001.409303) vcan0 022#FFFFFFFF00000B0B
(0000000001.415346) vcan0 231#0001000000000A0B
(0000000001.415421) vcan0 517#0100000000000000
(0000000001.425354) vcan0 332#0100000000000504
(0000000001.425371) vcan0 530#FFFF79852811D800
(0000000001.426433) vcan0 231#0001000000000B0A
(0000000001.426449) vcan0 517#0000000000000000
(0000000001.429399) vcan0 400#000B5EF000010DA9
(0000000001.429415) vcan0 408#0041330AFFFF0D75
(0000000001.429663) vcan0 410#3300AA3000FF0C5A
(0000000001.429976) vcan0 411#3260000000000000
(0000000001.430253) vcan0 022#FFFFFFFF00000C0C
(0000000001.437348) vcan0 231#0001000000000C0D
(0000000001.437421) vcan0 517#0000000000000000
(0000000001.448159) vcan0 231#0001000000000D0C
(0000000001.448402) vcan0 517#0100000000000000
(0000000001.450212) vcan0 400#000B5EF000010EAA
(0000000001.450482) vcan0 408#0041330AFFFF0E76
(0000000001.450727) vcan0 410#3300AA3100FF0E59
(0000000001.451007) vcan0 411#3260000000000000
(0000000001.451275) vcan0 022#FFFFFFFF00000E0E
(0000000001.459148) vcan0 231#0001000000000E0F
(0000000001.459374) vcan0 517#0100000000000000
(0000000001.470124) vcan0 231#0001000000000001
(0000000001.470424) vcan0 517#0000000000000000
(0000000001.471178) vcan0 400#000B5EF000010FAB
(0000000001.471425) vcan0 408#0041330AFFFF0F77
(0000000001.471683) vcan0 410#3300AA3100FF0F58
(0000000001.471952) vcan0 411#3260000000000000
(0000000001.472250) vcan0 022#FFFFFFFF00000F0F
(0000000001.481103) vcan0 231#0001000000000001
(0000000001.481374) vcan0 517#0000000000000000
(0000000001.492163) vcan0 231#0001000000000203
(0000000001.492426) vcan0 400#000B5EF0000100A4
(0000000001.492700) vcan0 408#0041330AFFFF0078
(0000000001.492951) vcan0 410#3300AA3100FF0057
(0000000001.493249) vcan0 411#3260000000000000
(0000000001.493525) vcan0 022#FFFFFFFF00000000
(0000000001.493775) vcan0 517#0100000000000000
(0000000001.503100) vcan0 231#0001000000000302
(0000000001.503374) vcan0 517#0000000000000000
(0000000001.513146) vcan0 400#000B5EF0000101A5
(0000000001.513398) vcan0 408#0041330AFFFF0179
(0000000001.513648) vcan0 410#3300AA3100FF0156
(0000000001.513949) vcan0 411#3260000000000000
(0000000001.514221) vcan0 022#FFFFFFFF00000101
(0000000001.514472) vcan0 231#0001000000000405
(0000000001.514771) vcan0 517#0000000000000000
(0000000001.525156) vcan0 231#0001000000000504
(0000000001.525435) vcan0 517#0100000000000000
(0000000001.526136) vcan0 332#0100000000000607
(0000000001.526396) vcan0 530#FFFF79852811D800
(0000000001.534151) vcan0 400#000B5EF0000102A6
(0000000001.534394) vcan0 408#0041330AFFFF027A
(0000000001.534645) vcan0 410#3300AA4000FF0224
(0000000001.534921) vcan0 411#3260000000000000
(0000000001.535194) vcan0 022#FFFFFFFF00000202
(0000000001.536146) vcan0 231#0001000000000607
(0000000001.536393) vcan0 517#0100000000000000
(0000000001.547109) vcan0 231#0001000000000706
(0000000001.547371) vcan0 517#0000000000000000
(0000000001.555145) vcan0 400#000B5EF0000103A7
(0000000001.555395) vcan0 408#0041330AFFFF037B
(0000000001.555671) vcan0 410#3300AA4000FF0325
(0000000001.555947) vcan0 411#3260000000000000
(0000000001.556221) vcan0 022#FFFFFFFF00000303
(0000000001.558170) vcan0 231#0001000000000809
(0000000001.558370) vcan0 517#0000000000000000
(0000000001.569140) vcan0 231#0001000000000908
(0000000001.569394) vcan0 517#0100000000000000
(0000000001.576198) vcan0 400#000B5EF0000104A0
(0000000001.576418) vcan0 408#0041330AFFFF047C
(0000000001.576732) vcan0 410#3300AA4000FF0422
(0000000001.576918) vcan0 411#3260000000000000
(0000000001.577244) vcan0 022#FFFFFFFF00000404
(0000000001.580347) vcan0 231#0001000000000A0B
(0000000001.580392) vcan0 517#0100000000000000
(0000000001.591633) vcan0 231#0001000000000C0D
(0000000001.591645) vcan0 517#0000000000000000
(0000000001.597418) vcan0 400#000B5EF0000105A1
(0000000001.597434) vcan0 408#0041330AFFFF057D
(0000000001.597695) vcan0 410#3300AA4000FF0523
(0000000001.597974) vcan0 411#3260000000000000
(0000000001.598245) vcan0 022#FFFFFFFF00000505
(0000000001.602345) vcan0 231#0001000000000D0C
(0000000001.602390) vcan0 517#0100000000000000
(0000000001.613511) vcan0 231#0001000000000E0F
(0000000001.613525) vcan0 517#0100000000000000
(0000000001.618395) vcan0 400#000B5EF0000106A2
(0000000001.618441) vcan0 408#0041330AFFFF067E
(0000000001.618736) vcan0 410#3300AA4100FF0621
(0000000001.618998) vcan0 411#3260000000000000
(0000000001.619295) vcan0 022#FFFFFFFF00000606
(0000000001.624346) vcan0 231#0001000000000F0E
(0000000001.624391) vcan0 517#0000000000000000
(0000000001.627398) vcan0 332#0100000000000706
(0000000001.627412) vcan0 530#FFFF79852811D800
(0000000001.635381) vcan0 231#0001000000000001
(0000000001.635397) vcan0 517#0000000000000000
(0000000001.639391) vcan0 400#000B5EF0000107A3
(0000000001.639442) vcan0 408#0041330AFFFF077F
(0000000001.639691) vcan0 410#3300AA4100FF0720
(0000000001.639994) vcan0 411#3260000000000000
(0000000001.640278) vcan0 022#FFFFFFFF00000707
(0000000001.646339) vcan0 231#0001000000000100
(0000000001.646388) vcan0 517#0100000000000000
(0000000001.657443) vcan0 231#0001000000000203
(0000000001.657459) vcan0 517#0100000000000000
(0000000001.660397) vcan0 400#000B5EF0000108AC
(0000000001.660412) vcan0 408#0041330AFFFF0870
(0000000001.660714) vcan0 410#3300AA4100FF082F
(0000000001.660994) vcan0 411#3260000000000000
(0000000001.661254) vcan0 022#FFFFFFFF00000808
(0000000001.668339) vcan0 231#0001000000000302
(0000000001.668422) vcan0 517#0000000000000000
(0000000001.679343) vcan0 231#0001000000000405
(0000000001.679396) vcan0 517#0000000000000000
(0000000001.681590) vcan0 400#000B5EF0000109AD
(0000000001.681607) vcan0 408#0041330AFFFF0971
(0000000001.681685) vcan0 410#3300AA4100FF092E
(0000000001.682008) vcan0 411#3260000000000000
(0000000001.682281) vcan0 022#FFFFFFFF00000909
(0000000001.690181) vcan0 231#0001000000000607
(0000000001.690380) vcan0 517#0100000000000000
(0000000001.701161) vcan0 231#0001000000000607
(0000000001.701377) vcan0 517#0100000000000000
(0000000001.702153) vcan0 400#000B5EF000010BAF
(0000000001.702401) vcan0 408#0041330AFFFF0B73
(0000000001.702676) vcan0 410#3300AA5000FF0A3C
(0000000001.702952) vcan0 411#3260000000000000
(0000000001.703227) vcan0 022#FFFFFFFF00000A0A
(0000000001.712116) vcan0 231#0001000000000809
(0000000001.712375) vcan0 517#0000000000000000
(0000000001.723176) vcan0 231#0001000000000908
(0000000001.723451) vcan0 400#000B5EF000010CA8
(0000000001.723702) vcan0 408#0041330AFFFF0C74
(0000000001.723978) vcan0 410#3300AA5000FF0B3D
(0000000001.724251) vcan0 411#3260000000000000
(0000000001.724527) vcan0 022#FFFFFFFF00000B0B
(0000000001.724853) vcan0 517#0100000000000000
(0000000001.728100) vcan0 332#0100000000000809
(0000000001.728377) vcan0 530#FFFF79852811D800
(0000000001.734149) vcan0 231#0001000000000A0B
(0000000001.734417) vcan0 517#0100000000000000
(0000000001.744179) vcan0 400#000B5EF000010DA9
(0000000001.744431) vcan0 408#0041330AFFFF0D75
(0000000001.744682) vcan0 410#3300AA5000FF0C3A
(0000000001.744963) vcan0 411#3260000000000000
(0000000001.745254) vcan0 022#FFFFFFFF00000C0C
(0000000001.745504) vcan0 231#0001000000000B0A
(0000000001.745754) vcan0 517#0000000000000000
(0000000001.756126) vcan0 231#0001000000000C0D
(0000000001.756403) vcan0 517#0000000000000000
(0000000001.765220) vcan0 400#000B5EF000010EAA
(0000000001.765427) vcan0 408#0041330AFFFF0E76
(0000000001.765674) vcan0 410#3300AA5000FF0D3B
(0000000001.765950) vcan0 411#3260000000000000
(0000000001.766223) vcan0 022#FFFFFFFF00000D0D
(0000000001.767177) vcan0 231#0001000000000D0C
(0000000001.767398) vcan0 517#0100000000000000
(0000000001.778112) vcan0 231#0001000000000E0F
(0000000001.778398) vcan0 517#0100000000000000
(0000000001.786153) vcan0 400#000B5EF000010FAB
(0000000001.786392) vcan0 408#0041330AFFFF0F77
(0000000001.786646) vcan0 410#3300AA5100FF0E39
(0000000001.786945) vcan0 411#3260000000000000
(0000000001.787192) vcan0 022#FFFFFFFF00000E0E
(0000000001.789091) vcan0 231#0001000000000F0E
(0000000001.789370) vcan0 517#0000000000000000
(0000000001.800125) vcan0 231#0001000000000001
(0000000001.800395) vcan0 517#0000000000000000
(0000000001.807159) vcan0 400#000B5EF0000100A4
(0000000001.807392) vcan0 408#0041330AFFFF0078
(0000000001.807644) vcan0 410#3300AA5100FF0F38
(0000000001.807944) vcan0 411#3260000000000000
(0000000001.808191) vcan0 022#FFFFFFFF00000F0F
(0000000001.811109) vcan0 231#0001000000000203
(0000000001.811374) vcan0 517#0100000000000000
(0000000001.822478) vcan0 231#0001000000000302
(0000000001.822491) vcan0 517#0000000000000000
(0000000001.828398) vcan0 400#000B5EF0000101A5
(0000000001.828442) vcan0 408#0041330AFFFF0179
(0000000001.828737) vcan0 410#3300AA5100FF0037
(0000000001.829012) vcan0 411#3260000000000000
(0000000001.829273) vcan0 022#FFFFFFFF00000000
(0000000001.829622) vcan0 332#0100000000000908
(0000000001.829799) vcan0 530#FFFF79852811D800
(0000000001.833354) vcan0 231#0001000000000405
(0000000001.833428) vcan0 517#0000000000000000
(0000000001.844350) vcan0 231#0001000000000504
(0000000001.844414) vcan0 517#0100000000000000
(0000000001.849405) vcan0 400#000B5EF0000102A6
(0000000001.849451) vcan0 408#0041330AFFFF027A
(0000000001.849700) vcan0 410#3300AA5100FF0136
(0000000001.850323) vcan0 411#3260000000000000
(0000000001.850337) vcan0 022#FFFFFFFF00000101
(0000000001.855344) vcan0 231#0001000000000607
(0000000001.855426) vcan0 517#0100000000000000
(0000000001.866351) vcan0 231#0001000000000706
(0000000001.866414) vcan0 517#0000000000000000
(0000000001.870205) vcan0 400#000B5EF0000103A7
(0000000001.870407) vcan0 408#0041330AFFFF037B
(0000000001.870726) vcan0 410#3300046100FF03AA
(0000000001.870979) vcan0 411#3260000000000000
(0000000001.871256) vcan0 022#FFFFFFFF00000303
(0000000001.877349) vcan0 231#0001000000000809
(0000000001.877418) vcan0 517#0000000000000000
(0000000001.888351) vcan0 231#0001000000000908
(0000000001.888420) vcan0 517#0100000000000000
(0000000001.891398) vcan0 400#000B5EF0000104A0
(0000000001.891563) vcan0 408#0041330AFFFF047C
(0000000001.891671) vcan0 410#3300046100FF04AD
(0000000001.892000) vcan0 411#3260000000000000
(0000000001.892260) vcan0 022#FFFFFFFF00000404
(0000000001.899348) vcan0 231#0001000000000A0B
(0000000001.899423) vcan0 517#0100000000000000
(0000000001.910158) vcan0 231#0001000000000C0D
(0000000001.910387) vcan0 517#0000000000000000
(0000000001.912398) vcan0 400#000B5EF0000105A1
(0000000001.912472) vcan0 408#0041330AFFFF057D
(0000000001.912668) vcan0 410#3300046100FF05AC
(0000000001.912977) vcan0 411#3260000000000000
(0000000001.913259) vcan0 022#FFFFFFFF00000505
(0000000001.921436) vcan0 231#0001000000000C0D
(0000000001.921452) vcan0 517#0000000000000000
(0000000001.930361) vcan0 332#0100000000000A0B
(0000000001.930428) vcan0 530#FFFF79852811D800
(0000000001.932350) vcan0 231#0001000000000E0F
(0000000001.932422) vcan0 517#0100000000000000
(0000000001.933437) vcan0 400#000B5EF0000106A2
(0000000001.933453) vcan0 408#0041330AFFFF067E
(0000000001.933679) vcan0 410#3300062900FF06E5
(0000000001.933984) vcan0 411#3260000000000000
(0000000001.934259) vcan0 022#FFFFFFFF00000606
(0000000001.943368) vcan0 231#0001000000000E0F
(0000000001.943460) vcan0 517#0100000000000000
(0000000001.954208) vcan0 231#0001000000000001
(0000000001.954441) vcan0 400#000B5EF0000107A3
(0000000001.954735) vcan0 408#0041330AFFFF077F
(0000000001.955008) vcan0 410#3300062900FF07E4
(0000000001.955283) vcan0 411#3260000000000000
(0000000001.955558) vcan0 022#FFFFFFFF00000707
(0000000001.955833) vcan0 517#0000000000000000
(0000000001.965136) vcan0 231#0001000000000100
(0000000001.965407) vcan0 517#0100000000000000
(0000000001.975183) vcan0 400#000B5EF0000108AC
(0000000001.975434) vcan0 408#0041330AFFFF0870
(0000000001.975684) vcan0 410#3300062900FF08EB
(0000000001.975984) vcan0 411#3260000000000000
(0000000001.976232) vcan0 022#FFFFFFFF00000808
(0000000001.976532) vcan0 231#0001000000000203
(0000000001.976781) vcan0 517#0100000000000000
(0000000001.987127) vcan0 231#0001000000000302
(0000000001.987381) vcan0 517#0000000000000000
(0000000001.996158) vcan0 400#000B5EF0000109AD
(0000000001.996408) vcan0 408#0041330AFFFF0971
(0000000001.996658) vcan0 410#3300062900FF09EA
(0000000001.996934) vcan0 411#3260000000000000
(0000000001.997205) vcan0 022#FFFFFFFF00000909
(0000000001.998156) vcan0 231#0001000000000405
(0000000001.998381) vcan0 517#0000000000000000
(0000000002.009105) vcan0 231#0001000000000504
(0000000002.009378) vcan0 517#0100000000000000
(0000000002.017165) vcan0 400#000B5EF000010AAE
(0000000002.017402) vcan0 408#0041330AFFFF0A72
(0000000002.017653) vcan0 410#3300AA2000FF0A4C
(0000000002.017928) vcan0 411#3260000000000000
(0000000002.018226) vcan0 022#FFFFFFFF00000A0A
(0000000002.020105) vcan0 231#0001000000000607
(0000000002.020377) vcan0 517#0100000000000000
(0000000002.031192) vcan0 231#0001000000000809
(0000000002.031401) vcan0 332#0100000000000B0A
(0000000002.031678) vcan0 517#0000000000000000
(0000000002.031928) vcan0 530#FFFF79852811D800
(0000000002.038151) vcan0 400#000B5EF000010BAF
(0000000002.038402) vcan0 408#0041330AFFFF0B73
(0000000002.038678) vcan0 410#3300AA2000FF0B4D
(0000000002.038929) vcan0 411#3260000000000000
(0000000002.039226) vcan0 022#FFFFFFFF00000B0B
(0000000002.042102) vcan0 231#0001000000000809
(0000000002.042376) vcan0 517#0000000000000000
(0000000002.053103) vcan0 231#0001000000000A0B
(0000000002.053376) vcan0 517#0100000000000000
(0000000002.059197) vcan0 400#000B5EF000010CA8
(0000000002.059417) vcan0 408#0041330AFFFF0C74
(0000000002.059662) vcan0 410#3300AA2000FF0C4A
(0000000002.059950) vcan0 411#3260000000000000
(0000000002.060227) vcan0 022#FFFFFFFF00000C0C
(0000000002.064179) vcan0 231#0001000000000B0A
(0000000002.064397) vcan0 517#0000000000000000
(0000000002.075124) vcan0 231#0001000000000C0D
(0000000002.075378) vcan0 517#0000000000000000
(0000000002.080405) vcan0 400#000B5EF000010DA9
(0000000002.080419) vcan0 408#0041330AFFFF0D75
(0000000002.080719) vcan0 410#2F00AA2000FF0D57
(0000000002.081042) vcan0 411#3260000000000000
(0000000002.081224) vcan0 022#FFFFFFFF00000D0D
(0000000002.086352) vcan0 231#0001000000000D0C
(0000000002.086395) vcan0 517#0100000000000000
(0000000002.097470) vcan0 231#0001000000000E0F
(0000000002.097482) vcan0 517#0100000000000000
(0000000002.101209) vcan0 400#000B5EF000010EAA
(0000000002.101451) vcan0 408#0041330AFFFF0E76
(0000000002.101689) vcan0 410#2F00AA2100FF0E55
(0000000002.101992) vcan0 411#3260000000000000
(0000000002.102251) vcan0 022#FFFFFFFF00000E0E
(0000000002.108416) vcan0 231#0001000000000F0E
(0000000002.108430) vcan0 517#0000000000000000
(0000000002.119351) vcan0 231#0001000000000001
(0000000002.119396) vcan0 517#0000000000000000
(0000000002.122408) vcan0 400#000B5EF0000100A4
(0000000002.122422) vcan0 408#0041330AFFFF0078
(0000000002.122720) vcan0 410#2F00AA2100FF0F54
(0000000002.123002) vcan0 411#3260000000000000
(0000000002.123249) vcan0 022#FFFFFFFF00000F0F
(0000000002.130355) vcan0 231#0001000000000203
(0000000002.130398) vcan0 517#0100000000000000
(0000000002.132357) vcan0 332#0100000000000C0D
(0000000002.132396) vcan0 530#FFFF79852811D800
(0000000002.141391) vcan0 231#0001000000000203
(0000000002.141459) vcan0 517#0100000000000000
(0000000002.143217) vcan0 400#000B5EF0000100A4
(0000000002.143435) vcan0 408#0041330AFFFF0078
(0000000002.143718) vcan0 410#2F00AA2100FF005B
(0000000002.143990) vcan0 411#3260000000000000
(0000000002.144263) vcan0 022#FFFFFFFF00000000
(0000000002.152358) vcan0 231#0001000000000405
(0000000002.152409) vcan0 517#0000000000000000
(0000000002.163352) vcan0 231#0001000000000504
(0000000002.163406) vcan0 517#0100000000000000
(0000000002.164412) vcan0 400#000B5EF0000102A6
(0000000002.164429) vcan0 408#0041330AFFFF027A
(0000000002.164700) vcan0 410#2F00AA2100FF015A
(0000000002.164978) vcan0 411#3260000000000000
(0000000002.165242) vcan0 022#FFFFFFFF00000101
(0000000002.174353) vcan0 231#0001000000000607
(0000000002.174406) vcan0 517#0100000000000000
(0000000002.185440) vcan0 231#0001000000000706
(0000000002.185457) vcan0 400#000B5EF0000103A7
(0000000002.185714) vcan0 408#0041330AFFFF037B
(0000000002.186015) vcan0 410#2F00AA3000FF0248
(0000000002.186288) vcan0 411#3260000000000000
(0000000002.186562) vcan0 022#FFFFFFFF00000202
(0000000002.186838) vcan0 517#0000000000000000
(0000000002.196139) vcan0 231#0001000000000809
(0000000002.196385) vcan0 517#0000000000000000
(0000000002.206183) vcan0 400#000B5EF0000104A0
(0000000002.206409) vcan0 408#0041330AFFFF047C
(0000000002.206685) vcan0 410#2F00AA3000FF0349
(0000000002.206961) vcan0 411#3260000000000000
(0000000002.207248) vcan0 022#FFFFFFFF00000303
(0000000002.207509) vcan0 231#0001000000000908
(0000000002.207784) vcan0 517#0100000000000000
(0000000002.218108) vcan0 231#0001000000000A0B
(0000000002.218407) vcan0 517#0100000000000000
(0000000002.227158) vcan0 400#000B5EF0000105A1
(0000000002.227409) vcan0 408#0041330AFFFF057D
(0000000002.227660) vcan0 410#2F00AA3000FF044E
(0000000002.227961) vcan0 411#3260000000000000
(0000000002.228233) vcan0 022#FFFFFFFF00000404
(0000000002.229157) vcan0 231#0001000000000B0A
(0000000002.229409) vcan0 517#0000000000000000
(0000000002.233144) vcan0 332#0100000000000D0C
(0000000002.233389) vcan0 530#FFFF79852811D800
(0000000002.240146) vcan0 231#0001000000000C0D
(0000000002.240412) vcan0 517#0000000000000000
(0000000002.248186) vcan0 400#000B5EF0000106A2
(0000000002.248437) vcan0 408#0041330AFFFF067E
(0000000002.248714) vcan0 410#2F00AA3000FF054F
(0000000002.248989) vcan0 411#3260000000000000
(0000000002.249287) vcan0 022#FFFFFFFF00000505
(0000000002.251136) vcan0 231#0001000000000E0F
(0000000002.251416) vcan0 517#0100000000000000
(0000000002.262132) vcan0 231#0001000000000E0F
(0000000002.262406) vcan0 517#0100000000000000
(0000000002.269173) vcan0 400#000B5EF0000107A3
(0000000002.269431) vcan0 408#0041330AFFFF077F
(0000000002.269681) vcan0 410#2F00AA3100FF064D
(0000000002.269982) vcan0 411#3260000000000000
(0000000002.270256) vcan0 022#FFFFFFFF00000606
(0000000002.273138) vcan0 231#0001000000000001
(0000000002.273384) vcan0 517#0000000000000000
(0000000002.284144) vcan0 231#0001000000000100
(0000000002.284403) vcan0 517#0100000000000000
(0000000002.290177) vcan0 400#000B5EF0000108AC
(0000000002.290430) vcan0 408#0041330AFFFF0870
(0000000002.290682) vcan0 410#3300AA3100FF085F
(0000000002.290982) vcan0 411#3260000000000000
(0000000002.291253) vcan0 022#FFFFFFFF00000808
(0000000002.295128) vcan0 231#0001000000000203
(0000000002.295381) vcan0 517#0100000000000000
(0000000002.306093) vcan0 231#0001000000000302
(0000000002.306383) vcan0 517#0000000000000000
(0000000002.311234) vcan0 400#000B5EF0000109AD
(0000000002.311409) vcan0 408#0041330AFFFF0971
(0000000002.311681) vcan0 410#3300AA3100FF095E
(0000000002.312013) vcan0 411#3260000000000000
(0000000002.312229) vcan0 022#FFFFFFFF00000909
(0000000002.317140) vcan0 231#0001000000000405
(0000000002.317406) vcan0 517#0000000000000000
(0000000002.328354) vcan0 231#0001000000000504
(0000000002.328398) vcan0 517#0100000000000000
(0000000002.332410) vcan0 400#000B5EF000010AAE
(0000000002.332425) vcan0 408#0041330AFFFF0A72
(0000000002.332693) vcan0 410#3300AA4000FF0A2C
(0000000002.333307) vcan0 411#3260000000000000
(0000000002.333322) vcan0 022#FFFFFFFF00000A0A
(0000000002.334406) vcan0 332#0100000000000E0F
(0000000002.334420) vcan0 530#FFFF79852711CC00
(0000000002.339357) vcan0 231#0001000000000607
(0000000002.339402) vcan0 517#0100000000000000
(0000000002.350178) vcan0 231#0001000000000809
(0000000002.350407) vcan0 517#0000000000000000
(0000000002.353425) vcan0 400#000B5EF000010BAF
(0000000002.353468) vcan0 408#0041330AFFFF0B73
(0000000002.353688) vcan0 410#3300AA4000FF0B2D
(0000000002.353992) vcan0 411#3260000000000000
(0000000002.354241) vcan0 022#FFFFFFFF00000B0B
(0000000002.361359) vcan0 231#0001000000000809
(0000000002.361409) vcan0 517#0000000000000000
(0000000002.372351) vcan0 231#0001000000000A0B
(0000000002.372400) vcan0 517#0100000000000000
(0000000002.374413) vcan0 400#000B5EF000010CA8
(0000000002.374430) vcan0 408#0041330AFFFF0C74
(0000000002.374792) vcan0 410#3300AA4000FF0C2A
(0000000002.374980) vcan0 411#3260000000000000
(0000000002.375268) vcan0 022#FFFFFFFF00000C0C
(0000000002.383368) vcan0 231#0001000000000B0A
(0000000002.383418) vcan0 517#0000000000000000
(0000000002.394355) vcan0 231#0001000000000C0D
(0000000002.394410) vcan0 517#0000000000000000
(0000000002.395413) vcan0 400#000B5EF000010DA9
(0000000002.395431) vcan0 408#0041330AFFFF0D75
(0000000002.395678) vcan0 410#3300AA4000FF0D2B
(0000000002.395982) vcan0 411#3260000000000000
(0000000002.396241) vcan0 022#FFFFFFFF00000D0D
(0000000002.405360) vcan0 231#0001000000000D0C
(0000000002.405412) vcan0 517#0100000000000000
(0000000002.416416) vcan0 231#0001000000000E0F
(0000000002.416460) vcan0 400#000B5EF000010EAA
(0000000002.416729) vcan0 408#0041330AFFFF0E76
(0000000002.417008) vcan0 410#3300AA4100FF0E29
(0000000002.417267) vcan0 411#3260000000000000
(0000000002.417566) vcan0 022#FFFFFFFF00000E0E
(0000000002.417817) vcan0 517#0100000000000000
(0000000002.427360) vcan0 231#0001000000000F0E
(0000000002.427413) vcan0 517#0000000000000000
(0000000002.435359) vcan0 332#0100000000000F0E
(0000000002.435412) vcan0 530#FFFF79862411B000
(0000000002.437413) vcan0 400#000B5EF000010FAB
(0000000002.437430) vcan0 408#0041330AFFFF0F77
(0000000002.437716) vcan0 410#3300AA4100FF0F28
(0000000002.437968) vcan0 411#3260000000000000
(0000000002.438266) vcan0 022#FFFFFFFF00000F0F
(0000000002.438541) vcan0 231#0002000000000002
(0000000002.438842) vcan0 517#0000000000000000
(0000000002.449236) vcan0 231#0002000000000103
(0000000002.449385) vcan0 517#0100000000000000
(0000000002.458214) vcan0 400#000B5EF0000100A4
(0000000002.458445) vcan0 408#0041330AFFFF0078
(0000000002.458740) vcan0 410#3300AA4100FF0027
(0000000002.459017) vcan0 411#3260000000000000
(0000000002.459288) vcan0 022#FFFFFFFF00000000
(0000000002.460188) vcan0 231#0002000000000200
(0000000002.460415) vcan0 517#0100000000000000
(0000000002.471138) vcan0 231#0002000000000406
(0000000002.471413) vcan0 517#0000000000000000
(0000000002.479190) vcan0 400#000B5EF0000101A5
(0000000002.479439) vcan0 408#0041330AFFFF0179
(0000000002.479715) vcan0 410#3700AA4100FF0122
(0000000002.479992) vcan0 411#3260000000000000
(0000000002.480266) vcan0 022#FFFFFFFF00000101
(0000000002.482116) vcan0 231#0002000000000507
(0000000002.482387) vcan0 517#0000000000000000
(0000000002.493138) vcan0 231#0001000000000607
(0000000002.493388) vcan0 517#0100000000000000
(0000000002.500162) vcan0 400#000B5EF0000102A6
(0000000002.500414) vcan0 408#0041330AFFFF027A
(0000000002.500689) vcan0 410#3700AA5000FF0230
(0000000002.500965) vcan0 411#3260000000000000
(0000000002.501236) vcan0 022#FFFFFFFF00000202
(0000000002.504113) vcan0 231#0001000000000706
(0000000002.504387) vcan0 517#0000000000000000
(0000000002.515110) vcan0 231#0001000000000809
(0000000002.515385) vcan0 517#0000000000000000
(0000000002.521194) vcan0 400#000B5EF0000103A7
(0000000002.521422) vcan0 408#0041330AFFFF037B
(0000000002.521688) vcan0 410#3700AA5000FF0331
(0000000002.522017) vcan0 411#3260000000000000
(0000000002.522295) vcan0 022#FFFFFFFF00000303
(0000000002.526158) vcan0 231#0001000000000908
(0000000002.526400) vcan0 517#0100000000000000
(0000000002.536117) vcan0 332#0100000000000001
(0000000002.536384) vcan0 530#FFFF798622119A00
(0000000002.537162) vcan0 231#0001000000000A0B
(0000000002.537384) vcan0 517#0100000000000000
(0000000002.542160) vcan0 400#000B5EF0000104A0
(0000000002.542410) vcan0 408#0041330AFFFF047C
(0000000002.542686) vcan0 410#3700AA5000FF0436
(0000000002.542961) vcan0 411#3260000000000000
(0000000002.543234) vcan0 022#FFFFFFFF00000404
(0000000002.548109) vcan0 231#0001000000000B0A
(0000000002.548409) vcan0 517#0000000000000000
(0000000002.559111) vcan0 231#0001000000000C0D
(0000000002.559384) vcan0 517#0000000000000000
(0000000002.563159) vcan0 400#000B5EF0000106A2
(0000000002.563412) vcan0 408#0041330AFFFF067E
(0000000002.563683) vcan0 410#3700AA5000FF0537
(0000000002.563960) vcan0 411#3260000000000000
(0000000002.564234) vcan0 022#FFFFFFFF00000505
(0000000002.570127) vcan0 231#0001000000000E0F
(0000000002.570387) vcan0 517#0100000000000000
(0000000002.581133) vcan0 231#0001000000000E0F
(0000000002.581383) vcan0 517#0100000000000000
(0000000002.584158) vcan0 400#000B5EF0000107A3
(0000000002.584408) vcan0 408#0041330AFFFF077F
(0000000002.584659) vcan0 410#3300AA5100FF0631
(0000000002.584959) vcan0 411#3260000000000000
(0000000002.585208) vcan0 022#FFFFFFFF00000606
(0000000002.592109) vcan0 231#0001000000000001
(0000000002.592384) vcan0 517#0000000000000000
(0000000002.603186) vcan0 231#0001000000000100
(0000000002.603405) vcan0 517#0100000000000000
(0000000002.605184) vcan0 400#000B5EF0000108AC
(0000000002.605430) vcan0 408#0041330AFFFF0870
(0000000002.605752) vcan0 410#3300AA5100FF0730
(0000000002.605958) vcan0 411#3260000000000000
(0000000002.606575) vcan0 022#FFFFFFFF00000707
(0000000002.614188) vcan0 231#0001000000000203
(0000000002.614405) vcan0 517#0100000000000000
(0000000002.625503) vcan0 231#0001000000000302
(0000000002.625516) vcan0 517#0000000000000000
(0000000002.626410) vcan0 400#000B5EF0000109AD
(0000000002.626425) vcan0 408#0041330AFFFF0971
(0000000002.626696) vcan0 410#3300AA5100FF083F
(0000000002.627049) vcan0 411#3260000000000000
(0000000002.627257) vcan0 022#FFFFFFFF00000808
(0000000002.636136) vcan0 231#0002000000000406
(0000000002.636389) vcan0 517#0000000000000000
(0000000002.637159) vcan0 332#0100000000000100
(0000000002.637388) vcan0 530#FFFF798620118400
(0000000002.647412) vcan0 231#0002000000000507
(0000000002.647514) vcan0 400#000B5EF000010AAE
(0000000002.647723) vcan0 408#0041330AFFFF0A72
(0000000002.648335) vcan0 410#3300AA5100FF093E
(0000000002.648348) vcan0 411#3260000000000000
(0000000002.648535) vcan0 022#FFFFFFFF00000909
(0000000002.649185) vcan0 517#0100000000000000
(0000000002.658363) vcan0 231#0002000000000604
(0000000002.658424) vcan0 517#0100000000000000
(0000000002.668413) vcan0 400#000B5EF000010BAF
(0000000002.668425) vcan0 408#0041330AFFFF0B73
(0000000002.668703) vcan0 410#3300046100FF0AA3
(0000000002.669320) vcan0 411#3260000000000000
(0000000002.669333) vcan0 022#FFFFFFFF00000A0A
(0000000002.669509) vcan0 231#0002000000000705
(0000000002.670148) vcan0 517#0000000000000000
(0000000002.680367) vcan0 231#000200000000080A
(0000000002.680429) vcan0 517#0000000000000000
(0000000002.689413) vcan0 400#000B5EF000010CA8
(0000000002.689427) vcan0 408#0041330AFFFF0C74
(0000000002.689694) vcan0 410#2B00046100FF0BBA
(0000000002.690301) vcan0 411#3260000000000000
(0000000002.690316) vcan0 022#FFFFFFFF00000B0B
(0000000002.691443) vcan0 231#0002000000000A08
(0000000002.691456) vcan0 517#0100000000000000
(0000000002.702123) vcan0 231#0002000000000B09
(0000000002.702382) vcan0 517#0000000000000000
(0000000002.710218) vcan0 400#000B5EF000010DA9
(0000000002.710410) vcan0 408#0041330AFFFF0D75
(0000000002.710690) vcan0 410#2B00046100FF0DBC
(0000000002.710970) vcan0 411#3260000000000000
(0000000002.711208) vcan0 022#FFFFFFFF00000D0D
(0000000002.713163) vcan0 231#0002000000000C0E
(0000000002.713378) vcan0 517#0000000000000000
(0000000002.724153) vcan0 231#0002000000000D0F
(0000000002.724416) vcan0 517#0100000000000000
(0000000002.731203) vcan0 400#000B5EF000010EAA
(0000000002.731409) vcan0 408#0041330AFFFF0E76
(0000000002.731720) vcan0 410#2B00062900FF0EF5
(0000000002.731972) vcan0 411#3260000000000000
(0000000002.732243) vcan0 022#FFFFFFFF00000E0E
(0000000002.735161) vcan0 231#0002000000000E0C
(0000000002.735418) vcan0 517#0100000000000000
(0000000002.738140) vcan0 332#0100000000000203
(0000000002.738415) vcan0 530#FFFF79861E117300
(0000000002.746136) vcan0 231#0002000000000F0D
(0000000002.746382) vcan0 517#0000000000000000
(0000000002.752238) vcan0 400#000B5EF000010FAB
(0000000002.752390) vcan0 408#0041330AFFFF0F77
(0000000002.752769) vcan0 410#2B00062900FF0FF4
(0000000002.752935) vcan0 411#3260000000000000
(0000000002.753260) vcan0 022#FFFFFFFF00000F0F
(0000000002.757703) vcan0 231#0002000000000002
(0000000002.757728) vcan0 517#0000000000000000
(0000000002.768362) vcan0 231#0002000000000103
(0000000002.768406) vcan0 517#0100000000000000
(0000000002.773498) vcan0 400#000B5EF0000100A4
(0000000002.773512) vcan0 408#0041330AFFFF0078
(0000000002.773780) vcan0 410#3300062900FF00E3
(0000000002.773959) vcan0 411#3260000000000000
(0000000002.774312) vcan0 022#FFFFFFFF00000000
(0000000002.779364) vcan0 231#0002000000000200
(0000000002.779410) vcan0 517#0100000000000000
(0000000002.790365) vcan0 231#0001000000000405
(0000000002.790409) vcan0 517#0000000000000000
(0000000002.794415) vcan0 400#000B5EF0000101A5
(0000000002.794427) vcan0 408#0041330AFFFF0179
(0000000002.794719) vcan0 410#3300062900FF01E2
(0000000002.795044) vcan0 411#3260000000000000
(0000000002.795255) vcan0 022#FFFFFFFF00000101
(0000000002.801417) vcan0 231#0001000000000405
(0000000002.801431) vcan0 517#0000000000000000
(0000000002.812360) vcan0 231#0001000000000607
(0000000002.812405) vcan0 517#0100000000000000
(0000000002.815411) vcan0 400#000B5EF0000102A6
(0000000002.815456) vcan0 408#0041330AFFFF027A
(0000000002.815721) vcan0 410#3300AA2000FF0244
(0000000002.816213) vcan0 411#3260000000000000
(0000000002.816250) vcan0 022#FFFFFFFF00000202
(0000000002.823161) vcan0 231#0001000000000706
(0000000002.823419) vcan0 517#0000000000000000
(0000000002.834364) vcan0 231#0001000000000809
(0000000002.834408) vcan0 517#0000000000000000
(0000000002.836416) vcan0 400#000B5EF0000103A7
(0000000002.836431) vcan0 408#0041330AFFFF037B
(0000000002.836729) vcan0 410#3300AA2000FF0345
(0000000002.837010) vcan0 411#3260000000000000
(0000000002.837239) vcan0 022#FFFFFFFF00000303
(0000000002.839360) vcan0 332#0100000000000302
(0000000002.839403) vcan0 530#FFFF79861D116100
(0000000002.845423) vcan0 231#0001000000000908
(0000000002.845438) vcan0 517#0100000000000000
(0000000002.856364) vcan0 231#0001000000000A0B
(0000000002.856412) vcan0 517#0100000000000000
(0000000002.857431) vcan0 400#000B5EF0000104A0
(0000000002.857461) vcan0 408#0041330AFFFF047C
(0000000002.857713) vcan0 410#3300AA2000FF0442
(0000000002.857969) vcan0 411#3260000000000000
(0000000002.858269) vcan0 022#FFFFFFFF00000404
(0000000002.867359) vcan0 231#0001000000000B0A
(0000000002.867403) vcan0 517#0000000000000000
(0000000002.878416) vcan0 231#0001000000000C0D
(0000000002.878472) vcan0 400#000B5EF0000105A1
(0000000002.878762) vcan0 408#0041330AFFFF057D
(0000000002.879089) vcan0 410#2F00AA2000FF055F
(0000000002.879356) vcan0 411#3260000000000000
(0000000002.879655) vcan0 022#FFFFFFFF00000505
(0000000002.879932) vcan0 517#0000000000000000
(0000000002.889375) vcan0 231#0001000000000D0C
(0000000002.889449) vcan0 517#0100000000000000
(0000000002.899411) vcan0 400#000B5EF0000106A2
(0000000002.899463) vcan0 408#0041330AFFFF067E
(0000000002.899736) vcan0 410#2F00AA2100FF065D
(0000000002.899989) vcan0 411#3260000000000000
(0000000002.900299) vcan0 022#FFFFFFFF00000606
(0000000002.900549) vcan0 231#0001000000000E0F
(0000000002.900824) vcan0 517#0100000000000000
(0000000002.911361) vcan0 231#0001000000000001
(0000000002.911414) vcan0 517#0000000000000000
(0000000002.920425) vcan0 400#000B5EF0000107A3
(0000000002.920470) vcan0 408#0041330AFFFF077F
(0000000002.920711) vcan0 410#2F00AA2100FF075C
(0000000002.920989) vcan0 411#3260000000000000
(0000000002.921273) vcan0 022#FFFFFFFF00000707
(0000000002.922421) vcan0 231#0001000000000100
(0000000002.922438) vcan0 517#0000000000000000
(0000000002.933424) vcan0 231#0001000000000203
(0000000002.933440) vcan0 517#0100000000000000
(0000000002.940364) vcan0 332#0100000000000405
(0000000002.940418) vcan0 530#FFFF79861B114F00
(0000000002.941466) vcan0 400#000B5EF0000108AC
(0000000002.941483) vcan0 408#0041330AFFFF0870
(0000000002.941722) vcan0 410#2F00AA2100FF0853
(0000000002.942000) vcan0 411#3260000000000000
(0000000002.942278) vcan0 022#FFFFFFFF00000808
(0000000002.944147) vcan0 231#0001000000000302
(0000000002.944394) vcan0 517#0000000000000000
(0000000002.955151) vcan0 231#0001000000000405
(0000000002.955394) vcan0 517#0000000000000000
(0000000002.962168) vcan0 400#000B5EF0000109AD
(0000000002.962419) vcan0 408#0041330AFFFF0971
(0000000002.962694) vcan0 410#2F00AA2100FF0952
(0000000002.962970) vcan0 411#3260000000000000
(0000000002.963243) vcan0 022#FFFFFFFF00000909
(0000000002.966117) vcan0 231#0001000000000504
(0000000002.966393) vcan0 517#0100000000000000
(0000000002.977167) vcan0 231#0001000000000607
(0000000002.977393) vcan0 517#0100000000000000
(0000000002.983200) vcan0 400#000B5EF000010BAF
(0000000002.983453) vcan0 408#0041330AFFFF0B73
(0000000002.983703) vcan0 410#3300AA3000FF0A5C
(0000000002.983980) vcan0 411#3260000000000000
(0000000002.984246) vcan0 022#FFFFFFFF00000A0A
(0000000002.988146) vcan0 231#0001000000000706
(0000000002.988447) vcan0 517#0000000000000000
(0000000002.999147) vcan0 231#0001000000000809
(0000000002.999421) vcan0 517#0000000000000000
(0000000003.004200) vcan0 400#000B5EF000010CA8
(0000000003.004448) vcan0 408#0041330AFFFF0C74
(0000000003.004698) vcan0 410#3300AA3000FF0B5D
(0000000003.004948) vcan0 411#3260000000000000
(0000000003.005269) vcan0 022#FFFFFFFF00000B0B
(0000000003.010143) vcan0 231#0001000000000A0B
(0000000003.010419) vcan0 517#0100000000000000
(0000000003.021139) vcan0 231#0001000000000A0B
(0000000003.021387) vcan0 517#0100000000000000
(0000000003.025178) vcan0 400#000B5EF000010DA9
(0000000003.025416) vcan0 408#0041330AFFFF0D75
(0000000003.025693) vcan0 410#3300AA3000FF0C5A
(0000000003.025969) vcan0 411#3260000000000000
(0000000003.026267) vcan0 022#FFFFFFFF00000C0C
(0000000003.032120) vcan0 231#0001000000000C0D
(0000000003.032418) vcan0 517#0000000000000000
(0000000003.041463) vcan0 332#0100000000000504
(0000000003.041479) vcan0 530#FFFF798619113C00
(0000000003.043117) vcan0 231#0001000000000C0D
(0000000003.043389) vcan0 517#0000000000000000
(0000000003.046192) vcan0 400#000B5EF000010EAA
(0000000003.046462) vcan0 408#0041330AFFFF0E76
(0000000003.046702) vcan0 410#3300AA3000FF0D5B
(0000000003.046966) vcan0 411#3260000000000000
(0000000003.047241) vcan0 022#FFFFFFFF00000D0D
(0000000003.054139) vcan0 231#0001000000000E0F
(0000000003.054415) vcan0 517#0100000000000000
(0000000003.065160) vcan0 231#0001000000000F0E
(0000000003.065390) vcan0 517#0000000000000000
(0000000003.067247) vcan0 400#000B5EF000010FAB
(0000000003.067442) vcan0 408#0041330AFFFF0F77
(0000000003.067759) vcan0 410#3300AA3100FF0E59
(0000000003.067966) vcan0 411#3260000000000000
(0000000003.068247) vcan0 022#FFFFFFFF00000E0E
(0000000003.076367) vcan0 231#0001000000000001
(0000000003.076411) vcan0 517#0000000000000000
(0000000003.087366) vcan0 231#0001000000000100
(0000000003.087413) vcan0 517#0100000000000000
(0000000003.088426) vcan0 400#000B5EF0000100A4
(0000000003.088464) vcan0 408#0041330AFFFF0078
(0000000003.088729) vcan0 410#3300AA3100FF0F58
(0000000003.088987) vcan0 411#3260000000000000
(0000000003.089266) vcan0 022#FFFFFFFF00000F0F
(0000000003.098362) vcan0 231#0001000000000203
(0000000003.098406) vcan0 517#0100000000000000
(0000000003.109410) vcan0 231#0001000000000302
(0000000003.109492) vcan0 400#000B5EF0000101A5
(0000000003.109744) vcan0 408#0041330AFFFF0179
(0000000003.110386) vcan0 410#3300AA3100FF0057
(0000000003.110400) vcan0 411#3260000000000000
(0000000003.110650) vcan0 022#FFFFFFFF00000000
(0000000003.110928) vcan0 517#0000000000000000
(0000000003.120370) vcan0 231#0001000000000405
(0000000003.120424) vcan0 517#0000000000000000
(0000000003.130417) vcan0 400#000B5EF0000102A6
(0000000003.130466) vcan0 408#0041330AFFFF027A
(0000000003.130711) vcan0 410#3300AA4000FF0224
(0000000003.130991) vcan0 411#3260000000000000
(0000000003.131273) vcan0 022#FFFFFFFF00000202
(0000000003.131525) vcan0 231#0001000000000607
(0000000003.131824) vcan0 517#0100000000000000
(0000000003.142415) vcan0 231#0001000000000607
(0000000003.142457) vcan0 332#0100000000000607
(0000000003.142736) vcan0 517#0100000000000000
(0000000003.142989) vcan0 530#FFFF798617112A00
(0000000003.151417) vcan0 400#000B5EF0000103A7
(0000000003.151433) vcan0 408#0041330AFFFF037B
(0000000003.151714) vcan0 410#3300AA4000FF0325
(0000000003.151994) vcan0 411#3260000000000000
(0000000003.152277) vcan0 022#FFFFFFFF00000303
(0000000003.153407) vcan0 231#0001000000000809
(0000000003.153424) vcan0 517#0000000000000000
(0000000003.164367) vcan0 231#0001000000000908
(0000000003.164421) vcan0 517#0100000000000000
(0000000003.172427) vcan0 400#000B5EF0000104A0
(0000000003.172472) vcan0 408#0041330AFFFF047C
(0000000003.172715) vcan0 410#3300AA4000FF0422
(0000000003.172993) vcan0 411#3260000000000000
(0000000003.173276) vcan0 022#FFFFFFFF00000404
(0000000003.175370) vcan0 231#0001000000000A0B
(0000000003.175424) vcan0 517#0100000000000000
(0000000003.186174) vcan0 231#0001000000000B0A
(0000000003.186372) vcan0 517#0000000000000000
(0000000003.193421) vcan0 400#000B5EF0000105A1
(0000000003.193468) vcan0 408#0041330AFFFF057D
(0000000003.193724) vcan0 410#3300AA4000FF0523
(0000000003.194002) vcan0 411#3260000000000000
(0000000003.194277) vcan0 022#FFFFFFFF00000505
(0000000003.197193) vcan0 231#0001000000000C0D
(0000000003.197396) vcan0 517#0000000000000000
(0000000003.208171) vcan0 231#0001000000000D0C
(0000000003.208449) vcan0 517#0100000000000000
(0000000003.214200) vcan0 400#000B5EF0000106A2
(0000000003.214450) vcan0 408#0041330AFFFF067E
(0000000003.214701) vcan0 410#3300AA4100FF0621
(0000000003.214978) vcan0 411#3260000000000000
(0000000003.215250) vcan0 022#FFFFFFFF00000606
(0000000003.219149) vcan0 231#0001000000000E0F
(0000000003.219424) vcan0 517#0100000000000000
(0000000003.230124) vcan0 231#0001000000000001
(0000000003.230427) vcan0 517#0000000000000000
(0000000003.235212) vcan0 400#000B5EF0000107A3
(0000000003.235451) vcan0 408#0041330AFFFF077F
(0000000003.235727) vcan0 410#3300AA4100FF0720
(0000000003.236002) vcan0 411#3260000000000000
(0000000003.236275) vcan0 022#FFFFFFFF00000707
(0000000003.241151) vcan0 231#0001000000000001
(0000000003.241425) vcan0 517#0000000000000000
(0000000003.243155) vcan0 332#0100000000000706
(0000000003.243424) vcan0 530#FFFF798616111E00
(0000000003.252150) vcan0 231#0001000000000203
(0000000003.252425) vcan0 517#0100000000000000
(0000000003.256198) vcan0 400#000B5EF0000108AC
(0000000003.256449) vcan0 408#0041330AFFFF0870
(0000000003.256701) vcan0 410#3300AA4100FF082F
(0000000003.256977) vcan0 411#3260000000000000
(0000000003.257247) vcan0 022#FFFFFFFF00000808
(0000000003.263145) vcan0 231#0001000000000302
(0000000003.263420) vcan0 517#0000000000000000
(0000000003.274137) vcan0 231#0001000000000405
(0000000003.274406) vcan0 517#0000000000000000
(0000000003.277178) vcan0 400#000B5EF0000109AD
(0000000003.277443) vcan0 408#0041330AFFFF0971
(0000000003.277694) vcan0 410#3300AA4100FF092E
(0000000003.277995) vcan0 411#3260000000000000
(0000000003.278243) vcan0 022#FFFFFFFF00000909
(0000000003.285152) vcan0 231#0001000000000504
(0000000003.285394) vcan0 517#0100000000000000
(0000000003.296146) vcan0 231#0001000000000607
(0000000003.296417) vcan0 517#0100000000000000
(0000000003.298192) vcan0 400#000B5EF000010AAE
(0000000003.298446) vcan0 408#0041330AFFFF0A72
(0000000003.298719) vcan0 410#3300AA5000FF0A3C
(0000000003.299020) vcan0 411#3260000000000000
(0000000003.299268) vcan0 022#FFFFFFFF00000A0A
(0000000003.307143) vcan0 231#0001000000000706
(0000000003.307395) vcan0 517#0000000000000000
(0000000003.318161) vcan0 231#0001000000000809
(0000000003.318431) vcan0 517#0000000000000000
(0000000003.319246) vcan0 400#000B5EF000010BAF
(0000000003.319420) vcan0 408#0041330AFFFF0B73
(0000000003.319776) vcan0 410#3300AA5000FF0B3D
(0000000003.319943) vcan0 411#3260000000000000
(0000000003.320306) vcan0 022#FFFFFFFF00000B0B
(0000000003.329440) vcan0 231#0001000000000908
(0000000003.329472) vcan0 517#0100000000000000
(0000000003.340417) vcan0 231#0001000000000A0B
(0000000003.340461) vcan0 400#000B5EF000010CA8
(0000000003.340759) vcan0 408#0041330AFFFF0C74
(0000000003.341010) vcan0 410#3300AA5000FF0C3A
(0000000003.341390) vcan0 411#3260000000000000
(0000000003.341567) vcan0 022#FFFFFFFF00000C0C
(0000000003.342206) vcan0 517#0100000000000000
(0000000003.344374) vcan0 332#0100000000000809
(0000000003.344413) vcan0 530#FFFF798615111100
(0000000003.351370) vcan0 231#0001000000000C0D
(0000000003.351414) vcan0 517#0000000000000000
(0000000003.361435) vcan0 400#000B5EF000010DA9
(0000000003.361450) vcan0 408#0041330AFFFF0D75
(0000000003.361704) vcan0 410#3300AA5000FF0D3B
(0000000003.362007) vcan0 411#3260000000000000
(0000000003.362255) vcan0 022#FFFFFFFF00000D0D
(0000000003.362530) vcan0 231#0001000000000C0D
(0000000003.362805) vcan0 517#0000000000000000
(0000000003.373406) vcan0 231#0001000000000E0F
(0000000003.373455) vcan0 517#0100000000000000
(0000000003.382438) vcan0 400#000B5EF000010FAB
(0000000003.382480) vcan0 408#0041330AFFFF0F77
(0000000003.382742) vcan0 410#3300AA5100FF0E39
(0000000003.383021) vcan0 411#3260000000000000
(0000000003.383280) vcan0 022#FFFFFFFF00000E0E
(0000000003.384344) vcan0 231#0001000000000F0E
(0000000003.384399) vcan0 517#0000000000000000
(0000000003.395374) vcan0 231#0001000000000001
(0000000003.395428) vcan0 517#0000000000000000
(0000000003.403427) vcan0 400#000B5EF0000100A4
(0000000003.403444) vcan0 408#0041330AFFFF0078
(0000000003.403717) vcan0 410#3300AA5100FF0F38
(0000000003.403968) vcan0 411#3260000000000000
(0000000003.404254) vcan0 022#FFFFFFFF00000F0F
(0000000003.406338) vcan0 231#0001000000000100
(0000000003.406392) vcan0 517#0100000000000000
(0000000003.417432) vcan0 231#0001000000000203
(0000000003.417448) vcan0 517#0100000000000000
(0000000003.424423) vcan0 400#000B5EF0000101A5
(0000000003.424479) vcan0 408#0041330AFFFF0179
(0000000003.424720) vcan0 410#3300AA5100FF0037
(0000000003.424997) vcan0 411#3260000000000000
(0000000003.425280) vcan0 022#FFFFFFFF00000000
(0000000003.428370) vcan0 231#0001000000000302
(0000000003.428422) vcan0 517#0000000000000000
(0000000003.439371) vcan0 231#0001000000000405
(0000000003.439424) vcan0 517#0000000000000000
(0000000003.445231) vcan0 400#000B5EF0000102A6
(0000000003.445461) vcan0 408#0041330AFFFF027A
(0000000003.445759) vcan0 410#3300AA5100FF0136
(0000000003.446009) vcan0 411#3260000000000000
(0000000003.446302) vcan0 332#0100000000000908
(0000000003.446553) vcan0 022#FFFFFFFF00000101
(0000000003.446829) vcan0 530#FFFF798714110500
(0000000003.450186) vcan0 231#0001000000000607
(0000000003.450399) vcan0 517#0100000000000000
(0000000003.461176) vcan0 231#0001000000000607
(0000000003.461402) vcan0 517#0100000000000000
(0000000003.466203) vcan0 400#000B5EF0000103A7
(0000000003.466429) vcan0 408#0041330AFFFF037B
(0000000003.466729) vcan0 410#3300046100FF02AB
(0000000003.466980) vcan0 411#3260000000000000
(0000000003.467277) vcan0 022#FFFFFFFF00000202
(0000000003.472152) vcan0 231#0001000000000809
(0000000003.472428) vcan0 517#0000000000000000
(0000000003.483137) vcan0 231#0001000000000908
(0000000003.483400) vcan0 517#0100000000000000
(0000000003.487178) vcan0 400#000B5EF0000104A0
(0000000003.487428) vcan0 408#0041330AFFFF047C
(0000000003.487678) vcan0 410#3300046100FF03AA
(0000000003.487980) vcan0 411#3260000000000000
(0000000003.488252) vcan0 022#FFFFFFFF00000303
(0000000003.494127) vcan0 231#0001000000000A0B
(0000000003.494402) vcan0 517#0100000000000000
(0000000003.505166) vcan0 231#0001000000000B0A
(0000000003.505400) vcan0 517#0000000000000000
(0000000003.508175) vcan0 400#000B5EF0000105A1
(0000000003.508426) vcan0 408#0041330AFFFF057D
(0000000003.508703) vcan0 410#3300046100FF04AD
(0000000003.508977) vcan0 411#3260000000000000
(0000000003.509249) vcan0 022#FFFFFFFF00000404
(0000000003.516123) vcan0 231#0001000000000C0D
(0000000003.516399) vcan0 517#0000000000000000
(0000000003.527161) vcan0 231#0001000000000D0C
(0000000003.527430) vcan0 517#0100000000000000
(0000000003.529190) vcan0 400#000B5EF0000106A2
(0000000003.529424) vcan0 408#0041330AFFFF067E
(0000000003.529700) vcan0 410#3300046100FF05AC
(0000000003.529976) vcan0 411#3260000000000000
(0000000003.530250) vcan0 022#FFFFFFFF00000505
(0000000003.538154) vcan0 231#0001000000000E0F
(0000000003.538425) vcan0 517#0100000000000000
(0000000003.546129) vcan0 332#0100000000000A0B
(0000000003.546399) vcan0 530#FFFF79871310F900
(0000000003.549135) vcan0 231#0001000000000F0E
(0000000003.549398) vcan0 517#0000000000000000
(0000000003.550173) vcan0 400#000B5EF0000107A3
(0000000003.550474) vcan0 408#0041330AFFFF077F
(0000000003.550725) vcan0 410#3300062900FF07E4
(0000000003.551027) vcan0 411#3260000000000000
(0000000003.551274) vcan0 022#FFFFFFFF00000707
(0000000003.560125) vcan0 231#0001000000000001
(0000000003.560399) vcan0 517#0000000000000000
(0000000003.571215) vcan0 231#0001000000000203
(0000000003.571450) vcan0 400#000B5EF0000108AC
(0000000003.571727) vcan0 408#0041330AFFFF0870
(0000000003.572003) vcan0 410#3300062900FF08EB
(0000000003.572274) vcan0 411#3260000000000000
(0000000003.572550) vcan0 022#FFFFFFFF00000808
(0000000003.572827) vcan0 517#0100000000000000
(0000000003.582367) vcan0 231#0001000000000302
(0000000003.582448) vcan0 517#0000000000000000
(0000000003.592544) vcan0 400#000B5EF0000109AD
(0000000003.592557) vcan0 408#0041330AFFFF0971
(0000000003.592674) vcan0 410#3300062900FF09EA
(0000000003.592983) vcan0 411#3260000000000000
(0000000003.593250) vcan0 022#FFFFFFFF00000909
(0000000003.593595) vcan0 231#0001000000000405
(0000000003.593775) vcan0 517#0000000000000000
(0000000003.604379) vcan0 231#0001000000000504
(0000000003.604434) vcan0 517#0100000000000000
(0000000003.613207) vcan0 400#000B5EF000010AAE
(0000000003.613449) vcan0 408#0041330AFFFF0A72
(0000000003.613773) vcan0 410#3300AA2000FF0A4C
(0000000003.613951) vcan0 411#3260000000000000
(0000000003.614324) vcan0 022#FFFFFFFF00000A0A
(0000000003.615355) vcan0 231#0001000000000607
(0000000003.615449) vcan0 517#0100000000000000
(0000000003.626373) vcan0 231#0001000000000706
(0000000003.626446) vcan0 517#0000000000000000
(0000000003.634426) vcan0 400#000B5EF000010BAF
(0000000003.634439) vcan0 408#0041330AFFFF0B73
(0000000003.634696) vcan0 410#3300AA2000FF0B4D
(0000000003.635003) vcan0 411#3260000000000000
(0000000003.635257) vcan0 022#FFFFFFFF00000B0B
(0000000003.637152) vcan0 231#0001000000000809
(0000000003.637433) vcan0 517#0000000000000000
(0000000003.647381) vcan0 332#0100000000000B0A
(0000000003.647447) vcan0 530#FFFF79871110EC00
(0000000003.648424) vcan0 231#0001000000000908
(0000000003.648440) vcan0 517#0100000000000000
(0000000003.655429) vcan0 400#000B5EF000010CA8
(0000000003.655444) vcan0 408#0041330AFFFF0C74
(0000000003.655693) vcan0 410#3300AA2000FF0C4A
(0000000003.655999) vcan0 411#3260000000000000
(0000000003.656258) vcan0 022#FFFFFFFF00000C0C
(0000000003.659373) vcan0 231#0001000000000A0B
(0000000003.659447) vcan0 517#0100000000000000
(0000000003.670374) vcan0 231#0001000000000C0D
(0000000003.670449) vcan0 517#0000000000000000
(0000000003.676429) vcan0 400#000B5EF000010DA9
(0000000003.676446) vcan0 408#0041330AFFFF0D75
(0000000003.676669) vcan0 410#2F00AA2000FF0D57
(0000000003.676976) vcan0 411#3260000000000000
(0000000003.677256) vcan0 022#FFFFFFFF00000D0D
(0000000003.681417) vcan0 231#0001000000000C0D
(0000000003.681433) vcan0 517#0000000000000000
(0000000003.692373) vcan0 231#0001000000000E0F
(0000000003.692446) vcan0 517#0100000000000000
(0000000003.697219) vcan0 400#000B5EF000010EAA
(0000000003.697405) vcan0 408#0041330AFFFF0E76
(0000000003.697707) vcan0 410#2F00AA2100FF0E55
(0000000003.697986) vcan0 411#3260000000000000
(0000000003.698285) vcan0 022#FFFFFFFF00000E0E
(0000000003.703164) vcan0 231#0001000000000F0E
(0000000003.703407) vcan0 517#0000000000000000
(0000000003.714165) vcan0 231#0001000000000001
(0000000003.714432) vcan0 517#0000000000000000
(0000000003.718206) vcan0 400#000B5EF000010FAB
(0000000003.718457) vcan0 408#0041330AFFFF0F77
(0000000003.718708) vcan0 410#2F00AA2100FF0F54
(0000000003.719009) vcan0 411#3260000000000000
(0000000003.719281) vcan0 022#FFFFFFFF00000F0F
(0000000003.725193) vcan0 231#0001000000000100
(0000000003.725434) vcan0 517#0100000000000000
(0000000003.736199) vcan0 231#0001000000000203
(0000000003.736406) vcan0 517#0100000000000000
(0000000003.739180) vcan0 400#000B5EF0000100A4
(0000000003.739432) vcan0 408#0041330AFFFF0078
(0000000003.739683) vcan0 410#2F00AA2100FF005B
(0000000003.739986) vcan0 411#3260000000000000
(0000000003.740231) vcan0 022#FFFFFFFF00000000
(0000000003.747130) vcan0 231#0001000000000302
(0000000003.747404) vcan0 517#0000000000000000
(0000000003.748130) vcan0 332#0100000000000C0D
(0000000003.748379) vcan0 530#FFFF79871010E000
(0000000003.758127) vcan0 231#0001000000000405
(0000000003.758402) vcan0 517#0000000000000000
(0000000003.760177) vcan0 400#000B5EF0000101A5
(0000000003.760427) vcan0 408#0041330AFFFF0179
(0000000003.760703) vcan0 410#2F00AA2100FF015A
(0000000003.760979) vcan0 411#3260000000000000
(0000000003.761277) vcan0 022#FFFFFFFF00000101
(0000000003.769156) vcan0 231#0001000000000504
(0000000003.769425) vcan0 517#0100000000000000
(0000000003.780137) vcan0 231#0001000000000607
(0000000003.780426) vcan0 517#0100000000000000
(0000000003.781177) vcan0 400#000B5EF0000102A6
(0000000003.781422) vcan0 408#0041330AFFFF027A
(0000000003.781695) vcan0 410#3300AA3000FF0254
(0000000003.781993) vcan0 411#3260000000000000
(0000000003.782246) vcan0 022#FFFFFFFF00000202
(0000000003.791119) vcan0 231#0001000000000809
(0000000003.791408) vcan0 517#0000000000000000
(0000000003.802180) vcan0 231#0001000000000908
(0000000003.802452) vcan0 400#000B5EF0000104A0
(0000000003.802727) vcan0 408#0041330AFFFF047C
(0000000003.802978) vcan0 410#3300AA3000FF0355
(0000000003.803276) vcan0 411#3260000000000000
(0000000003.803527) vcan0 022#FFFFFFFF00000303
(0000000003.803803) vcan0 517#0100000000000000
(0000000003.813140) vcan0 231#0001000000000A0B
(0000000003.813400) vcan0 517#0100000000000000
(0000000003.823262) vcan0 400#000B5EF0000105A1
(0000000003.823454) vcan0 408#0041330AFFFF057D
(0000000003.823732) vcan0 410#3300AA3000FF0452
(0000000003.824006) vcan0 411#3260000000000000
(0000000003.824279) vcan0 022#FFFFFFFF00000404
(0000000003.824530) vcan0 231#0001000000000B0A
(0000000003.824783) vcan0 517#0000000000000000
(0000000003.835366) vcan0 231#0001000000000C0D
(0000000003.835415) vcan0 517#0000000000000000
(0000000003.844420) vcan0 400#000B5EF0000106A2
(0000000003.844461) vcan0 408#0041330AFFFF067E
(0000000003.844718) vcan0 410#3300AA3000FF0553
(0000000003.845077) vcan0 411#3260000000000000
(0000000003.845277) vcan0 022#FFFFFFFF00000505
(0000000003.846420) vcan0 231#0001000000000D0C
(0000000003.846459) vcan0 517#0100000000000000
(0000000003.849409) vcan0 332#0100000000000D0C
(0000000003.849424) vcan0 530#FFFF79871010DA00
(0000000003.857417) vcan0 231#0001000000000E0F
(0000000003.857433) vcan0 517#0100000000000000
(0000000003.865387) vcan0 400#000B5EF0000107A3
(0000000003.865431) vcan0 408#0041330AFFFF077F
(0000000003.865731) vcan0 410#3300AA3100FF0651
(0000000003.865982) vcan0 411#3260000000000000
(0000000003.866288) vcan0 022#FFFFFFFF00000606
(0000000003.868364) vcan0 231#0001000000000F0E
(0000000003.868409) vcan0 517#0000000000000000
(0000000003.879368) vcan0 231#0001000000000001
(0000000003.879414) vcan0 517#0000000000000000
(0000000003.886430) vcan0 400#000B5EF0000108AC
(0000000003.886445) vcan0 408#0041330AFFFF0870
(0000000003.886722) vcan0 410#3300AA3100FF0750
(0000000003.887000) vcan0 411#3260000000000000
(0000000003.887259) vcan0 022#FFFFFFFF00000707
(0000000003.890372) vcan0 231#0001000000000203
(0000000003.890425) vcan0 517#0100000000000000
(0000000003.901228) vcan0 231#0001000000000203
(0000000003.901409) vcan0 517#0100000000000000
(0000000003.907436) vcan0 400#000B5EF0000109AD
(0000000003.907452) vcan0 408#0041330AFFFF0971
(0000000003.907724) vcan0 410#3300AA3100FF085F
(0000000003.908003) vcan0 411#3260000000000000
(0000000003.908287) vcan0 022#FFFFFFFF00000808
(0000000003.912378) vcan0 231#0001000000000405
(0000000003.912429) vcan0 517#0000000000000000
(0000000003.923379) vcan0 231#0001000000000504
(0000000003.923434) vcan0 517#0100000000000000
(0000000003.928208) vcan0 400#000B5EF000010AAE
(0000000003.928433) vcan0 408#0041330AFFFF0A72
(0000000003.928711) vcan0 410#3300AA3100FF095E
(0000000003.928984) vcan0 411#3260000000000000
(0000000003.929258) vcan0 022#FFFFFFFF00000909
(0000000003.934375) vcan0 231#0001000000000607
(0000000003.934427) vcan0 517#0100000000000000
(0000000003.945211) vcan0 231#0001000000000706
(0000000003.945408) vcan0 517#0000000000000000
(0000000003.949203) vcan0 400#000B5EF000010BAF
(0000000003.949433) vcan0 408#0041330AFFFF0B73
(0000000003.949685) vcan0 410#3300AA4000FF0A2C
(0000000003.949983) vcan0 411#3260000000000000
(0000000003.950281) vcan0 022#FFFFFFFF00000A0A
(0000000003.950556) vcan0 332#0100000000000E0F
(0000000003.950831) vcan0 530#FFFF79870E10CE00
(0000000003.956160) vcan0 231#0001000000000809
(0000000003.956408) vcan0 517#0000000000000000
(0000000003.967132) vcan0 231#0001000000000908
(0000000003.967407) vcan0 517#0100000000000000
(0000000003.970182) vcan0 400#000B5EF000010CA8
(0000000003.970433) vcan0 408#0041330AFFFF0C74
(0000000003.970684) vcan0 410#3300AA4000FF0C2A
(0000000003.970960) vcan0 411#3260000000000000
(0000000003.971257) vcan0 022#FFFFFFFF00000C0C
(0000000003.978132) vcan0 231#0001000000000A0B
(0000000003.978407) vcan0 517#0100000000000000
(0000000003.989179) vcan0 231#0001000000000B0A
(0000000003.989444) vcan0 517#0000000000000000
(0000000003.991212) vcan0 400#000B5EF000010DA9
(0000000003.991411) vcan0 408#0041330AFFFF0D75
(0000000003.991713) vcan0 410#3300AA4000FF0D2B
(0000000003.991990) vcan0 411#3260000000000000
(0000000003.992261) vcan0 022#FFFFFFFF00000D0D
(0000000004.000210) vcan0 231#0001000000000C0D
(0000000004.000440) vcan0 517#0000000000000000
(0000000004.011160) vcan0 231#0001000000000E0F
(0000000004.011431) vcan0 517#0100000000000000
(0000000004.012205) vcan0 400#000B5EF000010EAA
(0000000004.012433) vcan0 408#0041330AFFFF0E76
(0000000004.012707) vcan0 410#3300AA4100FF0E29
(0000000004.012984) vcan0 411#3260000000000000
(0000000004.013293) vcan0 022#FFFFFFFF00000E0E
(0000000004.022146) vcan0 231#0001000000000F0E
(0000000004.022402) vcan0 517#0000000000000000
(0000000004.033245) vcan0 231#0001000000000001
(0000000004.033480) vcan0 400#000B5EF000010FAB
(0000000004.033756) vcan0 408#0041330AFFFF0F77
(0000000004.033992) vcan0 410#3300AA4100FF0F28
(0000000004.034280) vcan0 411#3260000000000000
(0000000004.034559) vcan0 022#FFFFFFFF00000F0F
(0000000004.034857) vcan0 517#0000000000000000
(0000000004.044146) vcan0 231#0001000000000100
(0000000004.044459) vcan0 517#0100000000000000
(0000000004.051155) vcan0 332#0100000000000F0E
(0000000004.051405) vcan0 530#FFFF79870E10C800
(0000000004.054206) vcan0 400#000B5EF0000100A4
(0000000004.054457) vcan0 408#0041330AFFFF0078
(0000000004.054732) vcan0 410#3300AA4100FF0027
(0000000004.055007) vcan0 411#3260000000000000
(0000000004.055257) vcan0 022#FFFFFFFF00000000
(0000000004.055567) vcan0 231#0001000000000203
(0000000004.055831) vcan0 517#0100000000000000
(0000000004.066154) vcan0 231#0001000000000302
(0000000004.066426) vcan0 517#0000000000000000
(0000000004.075259) vcan0 400#000B5EF0000101A5
(0000000004.075428) vcan0 408#0041330AFFFF0179
(0000000004.075715) vcan0 410#3300AA4100FF0126
(0000000004.076339) vcan0 411#3260000000000000
(0000000004.076354) vcan0 022#FFFFFFFF00000101
(0000000004.077415) vcan0 231#0001000000000405
(0000000004.077429) vcan0 517#0000000000000000
(0000000004.088400) vcan0 231#0001000000000504
(0000000004.088437) vcan0 517#0100000000000000
(0000000004.096434) vcan0 400#000B5EF0000102A6
(0000000004.096448) vcan0 408#0041330AFFFF027A
(0000000004.096746) vcan0 410#3300AA5000FF0234
(0000000004.097071) vcan0 411#3260000000000000
(0000000004.097281) vcan0 022#FFFFFFFF00000202
(0000000004.099433) vcan0 231#0001000000000607
(0000000004.099446) vcan0 517#0100000000000000
(0000000004.110205) vcan0 231#0001000000000809
(0000000004.110408) vcan0 517#0000000000000000
(0000000004.117435) vcan0 400#000B5EF0000103A7
(0000000004.117449) vcan0 408#0041330AFFFF037B
(0000000004.117716) vcan0 410#3300AA5000FF0335
(0000000004.118319) vcan0 411#3260000000000000
(0000000004.118332) vcan0 022#FFFFFFFF00000303
(0000000004.121385) vcan0 231#0001000000000809
(0000000004.121448) vcan0 517#0000000000000000
(0000000004.132374) vcan0 231#0001000000000A0B
(0000000004.132474) vcan0 517#0100000000000000
(0000000004.138442) vcan0 400#000B5EF0000104A0
(0000000004.138507) vcan0 408#0041330AFFFF047C
(0000000004.138701) vcan0 410#3300AA5000FF0432
(0000000004.139011) vcan0 411#3260000000000000
(0000000004.139291) vcan0 022#FFFFFFFF00000404
(0000000004.143379) vcan0 231#0001000000000A0B
(0000000004.143453) vcan0 517#0100000000000000
(0000000004.152388) vcan0 332#0100000000000001
(0000000004.152453) vcan0 530#FFFF79870D10C400
(0000000004.154379) vcan0 231#0001000000000C0D
(0000000004.154453) vcan0 517#0000000000000000
(0000000004.159442) vcan0 400#000B5EF0000105A1
(0000000004.159458) vcan0 408#0041330AFFFF057D
(0000000004.159702) vcan0 410#3300AA5000FF0533
(0000000004.160007) vcan0 411#3260000000000000
(0000000004.160291) vcan0 022#FFFFFFFF00000505
(0000000004.165386) vcan0 231#0001000000000D0C
(0000000004.165461) vcan0 517#0100000000000000
(0000000004.176412) vcan0 231#0001000000000E0F
(0000000004.176477) vcan0 517#0100000000000000
(0000000004.180441) vcan0 400#000B5EF0000106A2
(0000000004.180506) vcan0 408#0041330AFFFF067E
(0000000004.180702) vcan0 410#3300AA5100FF0631
(0000000004.181007) vcan0 411#3260000000000000
(0000000004.181290) vcan0 022#FFFFFFFF00000606
(0000000004.187202) vcan0 231#0001000000000F0E
(0000000004.187411) vcan0 517#0000000000000000
(0000000004.198188) vcan0 231#0001000000000001
(0000000004.198432) vcan0 517#0000000000000000
(0000000004.201215) vcan0 400#000B5EF0000107A3
(0000000004.201459) vcan0 408#0041330AFFFF077F
(0000000004.201715) vcan0 410#3300AA5100FF0730
(0000000004.202015) vcan0 411#3260000000000000
(0000000004.202288) vcan0 022#FFFFFFFF00000707
(0000000004.209183) vcan0 231#0001000000000100
(0000000004.209418) vcan0 517#0100000000000000
(0000000004.220163) vcan0 231#0001000000000203
(0000000004.220437) vcan0 517#0100000000000000
(0000000004.222213) vcan0 400#000B5EF0000109AD
(0000000004.222449) vcan0 408#0041330AFFFF0971
(0000000004.222715) vcan0 410#3300AA5100FF083F
(0000000004.222990) vcan0 411#3260000000000000
(0000000004.223288) vcan0 022#FFFFFFFF00000808
(0000000004.231141) vcan0 231#0001000000000405
(0000000004.231411) vcan0 517#0000000000000000
(0000000004.242147) vcan0 231#0001000000000405
(0000000004.242413) vcan0 517#0000000000000000
(0000000004.243188) vcan0 400#000B5EF0000109AD
(0000000004.243437) vcan0 408#0041330AFFFF0971
(0000000004.243712) vcan0 410#3300AA5100FF093E
(0000000004.243988) vcan0 411#3260000000000000
(0000000004.244262) vcan0 022#FFFFFFFF00000909
(0000000004.253146) vcan0 231#0001000000000607
(0000000004.253436) vcan0 332#0100000000000100
(0000000004.253687) vcan0 517#0100000000000000
(0000000004.253963) vcan0 530#FFFF79870D10C000
(0000000004.264185) vcan0 231#0001000000000706
(0000000004.264459) vcan0 400#000B5EF000010BAF
(0000000004.264735) vcan0 408#0041330AFFFF0B73
(0000000004.264986) vcan0 410#3300046100FF0AA3
(0000000004.265258) vcan0 411#3260000000000000
(0000000004.265535) vcan0 022#FFFFFFFF00000A0A
(0000000004.265811) vcan0 517#0000000000000000
(0000000004.275204) vcan0 231#0001000000000809
(0000000004.275414) vcan0 517#0000000000000000
(0000000004.285226) vcan0 400#000B5EF000010CA8
(0000000004.285458) vcan0 408#0041330AFFFF0C74
(0000000004.285709) vcan0 410#3300046100FF0BA2
(0000000004.285986) vcan0 411#3260000000000000
(0000000004.286258) vcan0 022#FFFFFFFF00000B0B
(0000000004.286532) vcan0 231#0001000000000908
(0000000004.286808) vcan0 517#0100000000000000
(0000000004.297180) vcan0 231#0001000000000A0B
(0000000004.297439) vcan0 517#0100000000000000
(0000000004.306208) vcan0 400#000B5EF000010DA9
(0000000004.306459) vcan0 408#0041330AFFFF0D75
(0000000004.306710) vcan0 410#3300046100FF0CA5
(0000000004.306988) vcan0 411#3260000000000000
(0000000004.307283) vcan0 022#FFFFFFFF00000C0C
(0000000004.308185) vcan0 231#0001000000000B0A
(0000000004.308433) vcan0 517#0000000000000000
(0000000004.319146) vcan0 231#0001000000000C0D
(0000000004.319408) vcan0 517#0000000000000000
(0000000004.327435) vcan0 400#000B5EF000010EAA
(0000000004.327450) vcan0 408#0041330AFFFF0E76
(0000000004.327721) vcan0 410#3300046100FF0DA4
(0000000004.328039) vcan0 411#3260000000000000
(0000000004.328256) vcan0 022#FFFFFFFF00000D0D
(0000000004.330388) vcan0 231#0001000000000E0F
(0000000004.330435) vcan0 517#0100000000000000
(0000000004.341421) vcan0 231#0001000000000E0F
(0000000004.341435) vcan0 517#0100000000000000
(0000000004.348440) vcan0 400#000B5EF000010FAB
(0000000004.348455) vcan0 408#0041330AFFFF0F77
(0000000004.348760) vcan0 410#3300062900FF0EED
(0000000004.349010) vcan0 411#3260000000000000
(0000000004.349294) vcan0 022#FFFFFFFF00000E0E
(0000000004.352409) vcan0 231#0001000000000001
(0000000004.352453) vcan0 517#0000000000000000
(0000000004.354389) vcan0 332#0100000000000203
(0000000004.354435) vcan0 530#FFFF79870D10BC00
(0000000004.363376) vcan0 231#0001000000000100
(0000000004.363422) vcan0 517#0100000000000000
(0000000004.369381) vcan0 400#000B5EF0000100A4
(0000000004.369432) vcan0 408#0041330AFFFF0078
(0000000004.369753) vcan0 410#3300062900FF0FEC
(0000000004.370046) vcan0 411#3260000000000000
(0000000004.370318) vcan0 022#FFFFFFFF00000F0F
(0000000004.374383) vcan0 231#0001000000000203
(0000000004.374436) vcan0 517#0100000000000000
(0000000004.385387) vcan0 231#0001000000000302
(0000000004.385438) vcan0 517#0000000000000000
(0000000004.390437) vcan0 400#000B5EF0000101A5
(0000000004.390454) vcan0 408#0041330AFFFF0179
(0000000004.390733) vcan0 410#3300062900FF01E2
(0000000004.391014) vcan0 411#3260000000000000
(0000000004.391294) vcan0 022#FFFFFFFF00000101
(0000000004.396387) vcan0 231#0001000000000405
(0000000004.396432) vcan0 517#0000000000000000
(0000000004.407382) vcan0 231#0001000000000504
(0000000004.407435) vcan0 517#0100000000000000
(0000000004.411441) vcan0 400#000B5EF0000102A6
(0000000004.411458) vcan0 408#0041330AFFFF027A
(0000000004.411731) vcan0 410#3300AA2000FF0244
(0000000004.412009) vcan0 411#3260000000000000
(0000000004.412270) vcan0 022#FFFFFFFF00000202
(0000000004.418381) vcan0 231#0001000000000607
(0000000004.418434) vcan0 517#0100000000000000
(0000000004.429445) vcan0 231#0001000000000706
(0000000004.429463) vcan0 517#0000000000000000
(0000000004.432443) vcan0 400#000B5EF0000103A7
(0000000004.432459) vcan0 408#0041330AFFFF037B
(0000000004.432732) vcan0 410#3300AA2000FF0345
(0000000004.433010) vcan0 411#3260000000000000
(0000000004.433300) vcan0 022#FFFFFFFF00000303
(0000000004.440385) vcan0 231#0001000000000809
(0000000004.440439) vcan0 517#0000000000000000
(0000000004.451201) vcan0 231#0001000000000A0B
(0000000004.451415) vcan0 517#0100000000000000
(0000000004.453220) vcan0 400#000B5EF0000104A0
(0000000004.453468) vcan0 408#0041330AFFFF047C
(0000000004.453743) vcan0 410#3300AA2000FF0442
(0000000004.453999) vcan0 411#3260000000000000
(0000000004.454297) vcan0 022#FFFFFFFF00000404
(0000000004.455217) vcan0 332#0100000000000302
(0000000004.455419) vcan0 530#FFFF79880D10B800
(0000000004.462168) vcan0 231#0001000000000A0B
(0000000004.462441) vcan0 517#0100000000000000
(0000000004.473166) vcan0 231#0001000000000C0D
(0000000004.473442) vcan0 517#0000000000000000
(0000000004.474217) vcan0 400#000B5EF0000105A1
(0000000004.474469) vcan0 408#0041330AFFFF057D
(0000000004.474743) vcan0 410#3300AA2000FF0543
(0000000004.474997) vcan0 411#3260000000000000
(0000000004.475291) vcan0 022#FFFFFFFF00000505
(0000000004.484158) vcan0 231#0001000000000D0C
(0000000004.484416) vcan0 517#0100000000000000
(0000000004.495191) vcan0 231#0001000000000E0F
(0000000004.495465) vcan0 400#000B5EF0000106A2
(0000000004.495740) vcan0 408#0041330AFFFF067E
(0000000004.496016) vcan0 410#3300AA2100FF0641
(0000000004.496265) vcan0 411#3260000000000000
(0000000004.496541) vcan0 022#FFFFFFFF00000606
(0000000004.496842) vcan0 517#0100000000000000
(0000000004.506139) vcan0 231#0001000000000F0E
(0000000004.506415) vcan0 517#0000000000000000
(0000000004.516189) vcan0 400#000B5EF0000107A3
(0000000004.516438) vcan0 408#0041330AFFFF077F
(0000000004.516714) vcan0 410#3300AA2100FF0740
(0000000004.516990) vcan0 411#3260000000000000
(0000000004.517262) vcan0 022#FFFFFFFF00000707
(0000000004.517537) vcan0 231#0001000000000001
(0000000004.517812) vcan0 517#0000000000000000
(0000000004.528151) vcan0 231#0001000000000100
(0000000004.528410) vcan0 517#0100000000000000
(0000000004.537194) vcan0 400#000B5EF0000108AC
(0000000004.537437) vcan0 408#0041330AFFFF0870
(0000000004.537688) vcan0 410#3300AA2100FF084F
(0000000004.537963) vcan0 411#3260000000000000
(0000000004.538261) vcan0 022#FFFFFFFF00000808
(0000000004.539186) vcan0 231#0001000000000203
(0000000004.539411) vcan0 517#0100000000000000
(0000000004.550138) vcan0 231#0001000000000405
(0000000004.550411) vcan0 517#0000000000000000
(0000000004.556167) vcan0 332#0100000000000405
(0000000004.556433) vcan0 530#FFFF79880C10B400
(0000000004.558208) vcan0 400#000B5EF0000109AD
(0000000004.558460) vcan0 408#0041330AFFFF0971
(0000000004.558740) vcan0 410#3300AA2100FF094E
(0000000004.558987) vcan0 411#3260000000000000
(0000000004.559284) vcan0 022#FFFFFFFF00000909
(0000000004.561123) vcan0 231#0001000000000405
(0000000004.561451) vcan0 517#0000000000000000
(0000000004.572384) vcan0 231#0001000000000607
(0000000004.572429) vcan0 517#0100000000000000
(0000000004.579439) vcan0 400#000B5EF000010AAE
(0000000004.579453) vcan0 408#0041330AFFFF0A72
(0000000004.579750) vcan0 410#3300AA3000FF0A5C
(0000000004.580032) vcan0 411#3260000000000000
(0000000004.580259) vcan0 022#FFFFFFFF00000A0A
(0000000004.583355) vcan0 231#0001000000000706
(0000000004.583430) vcan0 517#0000000000000000
(0000000004.594384) vcan0 231#0001000000000809
(0000000004.594429) vcan0 517#0000000000000000
(0000000004.600437) vcan0 400#000B5EF000010BAF
(0000000004.600451) vcan0 408#0041330AFFFF0B73
(0000000004.600709) vcan0 410#3300AA3000FF0B5D
(0000000004.601075) vcan0 411#3260000000000000
(0000000004.601283) vcan0 022#FFFFFFFF00000B0B
(0000000004.605434) vcan0 231#0001000000000908
(0000000004.605449) vcan0 517#0100000000000000
(0000000004.616360) vcan0 231#0001000000000A0B
(0000000004.616407) vcan0 517#0100000000000000
(0000000004.621213) vcan0 400#000B5EF000010CA8
(0000000004.621442) vcan0 408#0041330AFFFF0C74
(0000000004.621770) vcan0 410#3300AA3000FF0C5A
(0000000004.622010) vcan0 411#3260000000000000
(0000000004.622648) vcan0 022#FFFFFFFF00000C0C
(0000000004.627360) vcan0 231#0001000000000B0A
(0000000004.627406) vcan0 517#0000000000000000
(0000000004.638519) vcan0 231#0001000000000C0D
(0000000004.638536) vcan0 517#0000000000000000
(0000000004.642443) vcan0 400#000B5EF000010DA9
(0000000004.642460) vcan0 408#0041330AFFFF0D75
(0000000004.642733) vcan0 410#3300AA3000FF0D5B
(0000000004.643012) vcan0 411#3260000000000000
(0000000004.643296) vcan0 022#FFFFFFFF00000D0D
(0000000004.649413) vcan0 231#0001000000000D0C
(0000000004.649455) vcan0 517#0100000000000000
(0000000004.657419) vcan0 332#0100000000000504
(0000000004.657435) vcan0 530#FFFF79880C10B000
(0000000004.660496) vcan0 231#0001000000000E0F
(0000000004.660514) vcan0 517#0100000000000000
(0000000004.663444) vcan0 400#000B5EF000010FAB
(0000000004.663461) vcan0 408#0041330AFFFF0F77
(0000000004.663711) vcan0 410#3300AA3100FF0E59
(0000000004.664014) vcan0 411#3260000000000000
(0000000004.664272) vcan0 022#FFFFFFFF00000E0E
(0000000004.671397) vcan0 231#0001000000000001
(0000000004.671450) vcan0 517#0000000000000000
(0000000004.682502) vcan0 231#0001000000000100
(0000000004.682519) vcan0 517#0100000000000000
(0000000004.684445) vcan0 400#000B5EF0000100A4
(0000000004.684462) vcan0 408#0041330AFFFF0078
(0000000004.684736) vcan0 410#3700AA3100FF0F5C
(0000000004.684989) vcan0 411#3260000000000000
(0000000004.685273) vcan0 022#FFFFFFFF00000F0F
(0000000004.693424) vcan0 231#0001000000000203
(0000000004.693441) vcan0 517#0100000000000000
(0000000004.704174) vcan0 231#0001000000000302
(0000000004.704421) vcan0 517#0000000000000000
(0000000004.705194) vcan0 400#000B5EF0000101A5
(0000000004.705445) vcan0 408#0041330AFFFF0179
(0000000004.705720) vcan0 410#3700AA3100FF0053
(0000000004.706019) vcan0 411#3260000000000000
(0000000004.706268) vcan0 022#FFFFFFFF00000000
(0000000004.715143) vcan0 231#0001000000000405
(0000000004.715418) vcan0 517#0000000000000000
(0000000004.726193) vcan0 231#0001000000000504
(0000000004.726469) vcan0 400#000B5EF0000102A6
(0000000004.726745) vcan0 408#0041330AFFFF027A
(0000000004.726996) vcan0 410#3700AA3100FF0152
(0000000004.727268) vcan0 411#3260000000000000
(0000000004.727544) vcan0 022#FFFFFFFF00000101
(0000000004.727820) vcan0 517#0100000000000000
(0000000004.737237) vcan0 231#0001000000000607
(0000000004.737428) vcan0 517#0100000000000000
(0000000004.747222) vcan0 400#000B5EF0000103A7
(0000000004.747471) vcan0 408#0041330AFFFF037B
(0000000004.747724) vcan0 410#3700AA4000FF0220
(0000000004.748023) vcan0 411#3260000000000000
(0000000004.748275) vcan0 022#FFFFFFFF00000202
(0000000004.748572) vcan0 231#0001000000000706
(0000000004.748822) vcan0 517#0000000000000000
(0000000004.758191) vcan0 332#0100000000000607
(0000000004.758444) vcan0 530#FFFF79880B10AC00
(0000000004.759216) vcan0 231#0001000000000809
(0000000004.759417) vcan0 517#0000000000000000
(0000000004.768239) vcan0 400#000B5EF0000104A0
(0000000004.768466) vcan0 408#0041330AFFFF047C
(0000000004.768742) vcan0 410#3700AA4000FF0321
(0000000004.769027) vcan0 411#3260000000000000
(0000000004.769266) vcan0 022#FFFFFFFF00000303
(0000000004.770194) vcan0 231#0001000000000A0B
(0000000004.770446) vcan0 517#0100000000000000
(0000000004.781219) vcan0 231#0001000000000A0B
(0000000004.781416) vcan0 517#0100000000000000
(0000000004.789383) vcan0 400#000B5EF0000105A1
(0000000004.789434) vcan0 408#0041330AFFFF057D
(0000000004.789691) vcan0 410#3700AA4000FF0426
(0000000004.789992) vcan0 411#3260000000000000
(0000000004.790265) vcan0 022#FFFFFFFF00000404
(0000000004.792140) vcan0 231#0001000000000C0D
(0000000004.792420) vcan0 517#0000000000000000
(0000000004.803167) vcan0 231#0001000000000D0C
(0000000004.803437) vcan0 517#0100000000000000
(0000000004.810212) vcan0 400#000B5EF0000106A2
(0000000004.810465) vcan0 408#0041330AFFFF067E
(0000000004.810713) vcan0 410#3700AA4100FF0625
(0000000004.811014) vcan0 411#3260000000000000
(0000000004.811261) vcan0 022#FFFFFFFF00000606
(0000000004.814188) vcan0 231#0001000000000E0F
(0000000004.814461) vcan0 517#0100000000000000
(0000000004.825185) vcan0 231#0001000000000F0E
(0000000004.825413) vcan0 517#0000000000000000
(0000000004.831440) vcan0 400#000B5EF0000107A3
(0000000004.831454) vcan0 408#0041330AFFFF077F
(0000000004.831733) vcan0 410#3700AA4100FF0724
