Time Stamp,ID,Extended,Dir,Bus,LEN,D1,D2,D3,D4,D5,D6,D7,D8
1145,00000400,false,Rx,0,8,00,0B,5E,F0,00,01,05,A1,
1369,00000408,false,Rx,0,8,00,41,33,0A,FF,FF,05,7D,
1644,00000410,false,Rx,0,8,37,00,AA,40,00,FF,05,27,
1945,00000411,false,Rx,0,8,32,60,00,00,00,00,00,00,
2217,00000022,false,Rx,0,8,FF,FF,FF,FF,00,00,05,05,
7088,00000231,false,Rx,0,8,00,02,00,00,00,00,0D,0F,
7343,00000517,false,Rx,0,8,01,00,00,00,00,00,00,00,
11080,00000332,false,Rx,0,8,01,00,00,00,00,00,07,06,
11319,00000530,false,Rx,0,8,FF,FF,79,83,27,11,D2,00,
18135,00000231,false,Rx,0,8,00,02,00,00,00,00,0E,0C,
18371,00000517,false,Rx,0,8,01,00,00,00,00,00,00,00,
22120,00000400,false,Rx,0,8,00,0B,5E,F0,00,01,07,A3,
22370,00000408,false,Rx,0,8,00,41,33,0A,FF,FF,07,7F,
22643,00000410,false,Rx,0,8,37,00,AA,41,00,FF,06,25,
22920,00000411,false,Rx,0,8,32,60,00,00,00,00,00,00,
23194,00000022,false,Rx,0,8,FF,FF,FF,FF,00,00,06,06,
29179,00000231,false,Rx,0,8,00,02,00,00,00,00,0F,0D,
29381,00000517,false,Rx,0,8,00,00,00,00,00,00,00,00,
40126,00000231,false,Rx,0,8,00,02,00,00,00,00,00,02,
40382,00000517,false,Rx,0,8,00,00,00,00,00,00,00,00,
43139,00000400,false,Rx,0,8,00,0B,5E,F0,00,01,07,A3,
43370,00000408,false,Rx,0,8,00,41,33,0A,FF,FF,07,7F,
43645,00000410,false,Rx,0,8,37,00,AA,41,00,FF,07,24,
43922,00000411,false,Rx,0,8,32,60,00,00,00,00,00,00,
44196,00000022,false,Rx,0,8,FF,FF,FF,FF,00,00,07,07,
51166,00000231,false,Rx,0,8,00,02,00,00,00,00,02,00,
51393,00000517,false,Rx,0,8,01,00,00,00,00,00,00,00,
62129,00000231,false,Rx,0,8,00,02,00,00,00,00,02,00,
62391,00000517,false,Rx,0,8,01,00,00,00,00,00,00,00,
64375,00000400,false,Rx,0,8,00,0B,5E,F0,00,01,09,AD,
64388,00000408,false,Rx,0,8,00,41,33,0A,FF,FF,09,71,
64670,00000410,false,Rx,0,8,37,00,AA,41,00,FF,08,2B,
65095,00000411,false,Rx,0,8,32,60,00,00,00,00,00,00,
65170,00000022,false,Rx,0,8,FF,FF,FF,FF,00,00,08,08,
73442,00000231,false,Rx,0,8,00,02,00,00,00,00,04,06,
73457,00000517,false,Rx,0,8,00,00,00,00,00,00,00,00,
84330,00000231,false,Rx,0,8,00,02,00,00,00,00,05,07,
84375,00000517,false,Rx,0,8,01,00,00,00,00,00,00,00,
85344,00000400,false,Rx,0,8,00,0B,5E,F0,00,01,0A,AE,
85385,00000408,false,Rx,0,8,00,41,33,0A,FF,FF,0A,72,
85711,00000410,false,Rx,0,8,3B,00,AA,41,00,FF,09,26,
86011,00000411,false,Rx,0,8,32,60,00,00,00,00,00,00,
86204,00000022,false,Rx,0,8,FF,FF,FF,FF,00,00,09,09,
95329,00000231,false,Rx,0,8,00,01,00,00,00,00,06,07,
95398,00000517,false,Rx,0,8,01,00,00,00,00,00,00,00,
106235,00000231,false,Rx,0,8,00,01,00,00,00,00,07,06,
106447,00000400,false,Rx,0,8,00,0B,5E,F0,00,01,0B,AF,
106896,00000408,false,Rx,0,8,00,41,33,0A,FF,FF,0B,73,
106934,00000410,false,Rx,0,8,3B,00,AA,50,00,FF,0A,34,
107321,00000411,false,Rx,0,8,32,60,00,00,00,00,00,00,
107506,00000022,false,Rx,0,8,FF,FF,FF,FF,00,00,0A,0A,
107960,00000517,false,Rx,0,8,00,00,00,00,00,00,00,00,
112329,00000332,false,Rx,0,8,01,00,00,00,00,00,08,09,
112377,00000530,false,Rx,0,8,FF,FF,79,83,27,11,D2,00,
117380,00000231,false,Rx,0,8,00,01,00,00,00,00,08,09,
117396,00000517,false,Rx,0,8,00,00,00,00,00,00,00,00,
127376,00000400,false,Rx,0,8,00,0B,5E,F0,00,01,0C,A8,
127429,00000408,false,Rx,0,8,00,41,33,0A,FF,FF,0C,74,
127672,00000410,false,Rx,0,8,3B,00,AA,50,00,FF,0B,35,
128094,00000411,false,Rx,0,8,32,60,00,00,00,00,00,00,
128246,00000022,false,Rx,0,8,FF,FF,FF,FF,00,00,0B,0B,
128692,00000231,false,Rx,0,8,00,01,00,00,00,00,09,08,
128834,00000517,false,Rx,0,8,01,00,00,00,00,00,00,00,
139360,00000231,false,Rx,0,8,00,01,00,00,00,00,0A,0B,
139397,00000517,false,Rx,0,8,01,00,00,00,00,00,00,00,
148375,00000400,false,Rx,0,8,00,0B,5E,F0,00,01,0D,A9,
148429,00000408,false,Rx,0,8,00,41,33,0A,FF,FF,0D,75,
148697,00000410,false,Rx,0,8,3B,00,AA,50,00,FF,0C,32,
148976,00000411,false,Rx,0,8,32,60,00,00,00,00,00,00,
149231,00000022,false,Rx,0,8,FF,FF,FF,FF,00,00,0C,0C,
150378,00000231,false,Rx,0,8,00,01,00,00,00,00,0B,0A,
150396,00000517,false,Rx,0,8,00,00,00,00,00,00,00,00,
161332,00000231,false,Rx,0,8,00,01,00,00,00,00,0C,0D,
161375,00000517,false,Rx,0,8,00,00,00,00,00,00,00,00,
169391,00000400,false,Rx,0,8,00,0B,5E,F0,00,01,0E,AA,
169428,00000408,false,Rx,0,8,00,41,33,0A,FF,FF,0E,76,
169691,00000410,false,Rx,0,8,3B,00,AA,50,00,FF,0D,33,
170335,00000411,false,Rx,0,8,32,60,00,00,00,00,00,00,
170349,00000022,false,Rx,0,8,FF,FF,FF,FF,00,00,0D,0D,
172373,00000231,false,Rx,0,8,00,01,00,00,00,00,0E,0F,
172419,00000517,false,Rx,0,8,01,00,00,00,00,00,00,00,
183314,00000231,false,Rx,0,8,00,01,00,00,00,00,0F,0E,
183361,00000517,false,Rx,0,8,00,00,00,00,00,00,00,00,
190370,00000400,false,Rx,0,8,00,0B,5E,F0,00,01,0F,AB,
190418,00000408,false,Rx,0,8,00,41,33,0A,FF,FF,0F,77,
190669,00000410,false,Rx,0,8,37,00,AA,51,00,FF,0F,3C,
190948,00000411,false,Rx,0,8,32,60,00,00,00,00,00,00,
191232,00000022,false,Rx,0,8,FF,FF,FF,FF,00,00,0F,0F,
194209,00000231,false,Rx,0,8,00,01,00,00,00,00,00,01,
194352,00000517,false,Rx,0,8,00,00,00,00,00,00,00,00,
205106,00000231,false,Rx,0,8,00,01,00,00,00,00,01,00,
205377,00000517,false,Rx,0,8,01,00,00,00,00,00,00,00,
211149,00000400,false,Rx,0,8,00,0B,5E,F0,00,01,00,A4,
211377,00000408,false,Rx,0,8,00,41,33,0A,FF,FF,00,78,
211652,00000410,false,Rx,0,8,37,00,AA,51,00,FF,00,33,
211928,00000411,false,Rx,0,8,32,60,00,00,00,00,00,00,
212177,00000022,false,Rx,0,8,FF,FF,FF,FF,00,00,00,00,
213139,00000332,false,Rx,0,8,01,00,00,00,00,00,09,08,
213353,00000530,false,Rx,0,8,FF,FF,79,83,27,11,D2,00,
216077,00000231,false,Rx,0,8,00,01,00,00,00,00,02,03,
216352,00000517,false,Rx,0,8,01,00,00,00,00,00,00,00,
227077,00000231,false,Rx,0,8,00,01,00,00,00,00,03,02,
227352,00000517,false,Rx,0,8,00,00,00,00,00,00,00,00,
232160,00000400,false,Rx,0,8,00,0B,5E,F0,00,01,01,A5,
232407,00000408,false,Rx,0,8,00,41,33,0A,FF,FF,01,79,
232682,00000410,false,Rx,0,8,37,00,AA,51,00,FF,01,32,
232959,00000411,false,Rx,0,8,32,60,00,00,00,00,00,00,
233230,00000022,false,Rx,0,8,FF,FF,FF,FF,00,00,01,01,
238128,00000231,false,Rx,0,8,00,01,00,00,00,00,04,05,
238379,00000517,false,Rx,0,8,00,00,00,00,00,00,00,00,
249108,00000231,false,Rx,0,8,00,01,00,00,00,00,05,04,
249383,00000517,false,Rx,0,8,01,00,00,00,00,00,00,00,
253153,00000400,false,Rx,0,8,00,0B,5E,F0,00,01,02,A6,
253405,00000408,false,Rx,0,8,00,41,33,0A,FF,FF,02,7A,
253655,00000410,false,Rx,0,8,37,00,04,61,00,FF,02,AF,
253957,00000411,false,Rx,0,8,32,60,00,00,00,00,00,00,
254206,00000022,false,Rx,0,8,FF,FF,FF,FF,00,00,02,02,
260101,00000231,false,Rx,0,8,00,01,00,00,00,00,06,07,
260376,00000517,false,Rx,0,8,01,00,00,00,00,00,00,00,
271112,00000231,false,Rx,0,8,00,01,00,00,00,00,08,09,
271356,00000517,false,Rx,0,8,00,00,00,00,00,00,00,00,
274132,00000400,false,Rx,0,8,00,0B,5E,F0,00,01,03,A7,
274377,00000408,false,Rx,0,8,00,41,33,0A,FF,FF,03,7B,
274654,00000410,false,Rx,0,8,37,00,04,61,00,FF,03,AE,
274938,00000411,false,Rx,0,8,32,60,00,00,00,00,00,00,
275202,00000022,false,Rx,0,8,FF,FF,FF,FF,00,00,03,03,
282077,00000231,false,Rx,0,8,00,01,00,00,00,00,09,08,
282351,00000517,false,Rx,0,8,01,00,00,00,00,00,00,00,
293077,00000231,false,Rx,0,8,00,01,00,00,00,00,0A,0B,
293350,00000517,false,Rx,0,8,01,00,00,00,00,00,00,00,
295125,00000400,false,Rx,0,8,00,0B,5E,F0,00,01,04,A0,
295377,00000408,false,Rx,0,8,00,41,33,0A,FF,FF,04,7C,
295652,00000410,false,Rx,0,8,37,00,04,61,00,FF,04,A9,
295928,00000411,false,Rx,0,8,32,60,00,00,00,00,00,00,
296200,00000022,false,Rx,0,8,FF,FF,FF,FF,00,00,04,04,
304119,00000231,false,Rx,0,8,00,01,00,00,00,00,0B,0A,
304377,00000517,false,Rx,0,8,00,00,00,00,00,00,00,00,
314089,00000332,false,Rx,0,8,01,00,00,00,00,00,0A,0B,
314326,00000530,false,Rx,0,8,FF,FF,79,83,27,11,D2,00,
315127,00000231,false,Rx,0,8,00,01,00,00,00,00,0C,0D,
315351,00000517,false,Rx,0,8,00,00,00,00,00,00,00,00,
316126,00000400,false,Rx,0,8,00,0B,5E,F0,00,01,05,A1,
316377,00000408,false,Rx,0,8,00,41,33,0A,FF,FF,05,7D,
316653,00000410,false,Rx,0,8,37,00,04,61,00,FF,05,A8,
316903,00000411,false,Rx,0,8,32,60,00,00,00,00,00,00,
317213,00000022,false,Rx,0,8,FF,FF,FF,FF,00,00,05,05,
326079,00000231,false,Rx,0,8,00,01,00,00,00,00,0D,0C,
326351,00000517,false,Rx,0,8,01,00,00,00,00,00,00,00,
337482,00000231,false,Rx,0,8,00,01,00,00,00,00,0E,0F,
337499,00000400,false,Rx,0,8,00,0B,5E,F0,00,01,06,A2,
337788,00000408,false,Rx,0,8,00,41,33,0A,FF,FF,06,7E,
337971,00000410,false,Rx,0,8,37,00,06,29,00,FF,06,E1,
338469,00000411,false,Rx,0,8,32,60,00,00,00,00,00,00,
338508,00000022,false,Rx,0,8,FF,FF,FF,FF,00,00,06,06,
338815,00000517,false,Rx,0,8,01,00,00,00,00,00,00,00,
348100,00000231,false,Rx,0,8,00,01,00,00,00,00,0F,0E,
348384,00000517,false,Rx,0,8,00,00,00,00,00,00,00,00,
358414,00000400,false,Rx,0,8,00,0B,5E,F0,00,01,07,A3,
358428,00000408,false,Rx,0,8,00,41,33,0A,FF,FF,07,7F,
358740,00000410,false,Rx,0,8,37,00,06,29,00,FF,07,E0,
358999,00000411,false,Rx,0,8,32,60,00,00,00,00,00,00,
359253,00000022,false,Rx,0,8,FF,FF,FF,FF,00,00,07,07,
359742,00000231,false,Rx,0,8,00,01,00,00,00,00,00,01,
359784,00000517,false,Rx,0,8,00,00,00,00,00,00,00,00,
370382,00000231,false,Rx,0,8,00,01,00,00,00,00,02,03,
370396,00000517,false,Rx,0,8,01,00,00,00,00,00,00,00,
379387,00000400,false,Rx,0,8,00,0B,5E,F0,00,01,08,AC,
379425,00000408,false,Rx,0,8,00,41,33,0A,FF,FF,08,70,
379691,00000410,false,Rx,0,8,3B,00,06,29,00,FF,08,E3,
380189,00000411,false,Rx,0,8,32,60,00,00,00,00,00,00,
380234,00000022,false,Rx,0,8,FF,FF,FF,FF,00,00,08,08,
381393,00000231,false,Rx,0,8,00,01,00,00,00,00,02,03,
381407,00000517,false,Rx,0,8,01,00,00,00,00,00,00,00,
392331,00000231,false,Rx,0,8,00,01,00,00,00,00,04,05,
392379,00000517,false,Rx,0,8,00,00,00,00,00,00,00,00,
400378,00000400,false,Rx,0,8,00,0B,5E,F0,00,01,09,AD,
400423,00000408,false,Rx,0,8,00,41,33,0A,FF,FF,09,71,
400668,00000410,false,Rx,0,8,3B,00,06,29,00,FF,09,E2,
401022,00000411,false,Rx,0,8,32,60,00,00,00,00,00,00,
401228,00000022,false,Rx,0,8,FF,FF,FF,FF,00,00,09,09,
403327,00000231,false,Rx,0,8,00,01,00,00,00,00,05,04,
403372,00000517,false,Rx,0,8,01,00,00,00,00,00,00,00,
414382,00000231,false,Rx,0,8,00,01,00,00,00,00,06,07,
414396,00000517,false,Rx,0,8,01,00,00,00,00,00,00,00,
415376,00000332,false,Rx,0,8,01,00,00,00,00,00,0B,0A,
415389,00000530,false,Rx,0,8,FF,FF,79,84,27,11,D2,00,
421389,00000400,false,Rx,0,8,00,0B,5E,F0,00,01,0A,AE,
421402,00000408,false,Rx,0,8,00,41,33,0A,FF,FF,0A,72,
421670,00000410,false,Rx,0,8,3B,00,AA,20,00,FF,0A,44,
422300,00000411,false,Rx,0,8,32,60,00,00,00,00,00,00,
422313,00000022,false,Rx,0,8,FF,FF,FF,FF,00,00,0A,0A,
425337,00000231,false,Rx,0,8,00,01,00,00,00,00,07,06,
425383,00000517,false,Rx,0,8,00,00,00,00,00,00,00,00,
436326,00000231,false,Rx,0,8,00,01,00,00,00,00,08,09,
436378,00000517,false,Rx,0,8,00,00,00,00,00,00,00,00,
442384,00000400,false,Rx,0,8,00,0B,5E,F0,00,01,0B,AF,
442400,00000408,false,Rx,0,8,00,41,33,0A,FF,FF,0B,73,
442676,00000410,false,Rx,0,8,3B,00,AA,20,00,FF,0B,45,
442955,00000411,false,Rx,0,8,32,60,00,00,00,00,00,00,
443240,00000022,false,Rx,0,8,FF,FF,FF,FF,00,00,0B,0B,
447107,00000231,false,Rx,0,8,00,01,00,00,00,00,09,08,
447358,00000517,false,Rx,0,8,01,00,00,00,00,00,00,00,
458107,00000231,false,Rx,0,8,00,01,00,00,00,00,0A,0B,
458359,00000517,false,Rx,0,8,01,00,00,00,00,00,00,00,
463133,00000400,false,Rx,0,8,00,0B,5E,F0,00,01,0D,A9,
463384,00000408,false,Rx,0,8,00,41,33,0A,FF,FF,0D,75,
463635,00000410,false,Rx,0,8,3B,00,AA,20,00,FF,0C,42,
463910,00000411,false,Rx,0,8,32,60,00,00,00,00,00,00,
464209,00000022,false,Rx,0,8,FF,FF,FF,FF,00,00,0C,0C,
469084,00000231,false,Rx,0,8,00,01,00,00,00,00,0B,0A,
469358,00000517,false,Rx,0,8,00,00,00,00,00,00,00,00,
480086,00000231,false,Rx,0,8,00,01,00,00,00,00,0C,0D,
480382,00000517,false,Rx,0,8,00,00,00,00,00,00,00,00,
484142,00000400,false,Rx,0,8,00,0B,5E,F0,00,01,0E,AA,
484383,00000408,false,Rx,0,8,00,41,33,0A,FF,FF,0E,76,
484633,00000410,false,Rx,0,8,37,00,AA,20,00,FF,0D,4F,
484909,00000411,false,Rx,0,8,32,60,00,00,00,00,00,00,
485181,00000022,false,Rx,0,8,FF,FF,FF,FF,00,00,0D,0D,
491082,00000231,false,Rx,0,8,00,01,00,00,00,00,0E,0F,
491357,00000517,false,Rx,0,8,01,00,00,00,00,00,00,00,
502080,00000231,false,Rx,0,8,00,01,00,00,00,00,0F,0E,
502354,00000517,false,Rx,0,8,00,00,00,00,00,00,00,00,
505137,00000400,false,Rx,0,8,00,0B,5E,F0,00,01,0F,AB,
505381,00000408,false,Rx,0,8,00,41,33,0A,FF,FF,0F,77,
505656,00000410,false,Rx,0,8,37,00,AA,21,00,FF,0E,4D,
505907,00000411,false,Rx,0,8,32,60,00,00,00,00,00,00,
506204,00000022,false,Rx,0,8,FF,FF,FF,FF,00,00,0E,0E,
513162,00000231,false,Rx,0,8,00,01,00,00,00,00,00,01,
513355,00000517,false,Rx,0,8,00,00,00,00,00,00,00,00,
516091,00000332,false,Rx,0,8,01,00,00,00,00,00,0C,0D,
516353,00000530,false,Rx,0,8,FF,FF,79,84,27,11,D2,00,
524090,00000231,false,Rx,0,8,00,01,00,00,00,00,01,00,
524355,00000517,false,Rx,0,8,01,00,00,00,00,00,00,00,
526128,00000400,false,Rx,0,8,00,0B,5E,F0,00,01,00,A4,
526378,00000408,false,Rx,0,8,00,41,33,0A,FF,FF,00,78,
526630,00000410,false,Rx,0,8,37,00,AA,21,00,FF,0F,4C,
526930,00000411,false,Rx,0,8,32,60,00,00,00,00,00,00,
527203,00000022,false,Rx,0,8,FF,FF,FF,FF,00,00,0F,0F,
535079,00000231,false,Rx,0,8,00,01,00,00,00,00,02,03,
535353,00000517,false,Rx,0,8,01,00,00,00,00,00,00,00,
546111,00000231,false,Rx,0,8,00,01,00,00,00,00,03,02,
546356,00000517,false,Rx,0,8,00,00,00,00,00,00,00,00,
547149,00000400,false,Rx,0,8,00,0B,5E,F0,00,01,01,A5,
547402,00000408,false,Rx,0,8,00,41,33,0A,FF,FF,01,79,
547650,00000410,false,Rx,0,8,37,00,AA,21,00,FF,00,43,
547950,00000411,false,Rx,0,8,32,60,00,00,00,00,00,00,
548224,00000022,false,Rx,0,8,FF,FF,FF,FF,00,00,00,00,
557100,00000231,false,Rx,0,8,00,01,00,00,00,00,04,05,
557351,00000517,false,Rx,0,8,00,00,00,00,00,00,00,00,
568193,00000231,false,Rx,0,8,00,01,00,00,00,00,05,04,
568453,00000400,false,Rx,0,8,00,0B,5E,F0,00,01,02,A6,
568904,00000408,false,Rx,0,8,00,41,33,0A,FF,FF,02,7A,
568975,00000410,false,Rx,0,8,37,00,AA,21,00,FF,01,42,
569338,00000411,false,Rx,0,8,32,60,00,00,00,00,00,00,
569600,00000022,false,Rx,0,8,FF,FF,FF,FF,00,00,01,01,
569860,00000517,false,Rx,0,8,01,00,00,00,00,00,00,00,
579161,00000231,false,Rx,0,8,00,01,00,00,00,00,06,07,
579368,00000517,false,Rx,0,8,01,00,00,00,00,00,00,00,
589410,00000400,false,Rx,0,8,00,0B,5E,F0,00,01,03,A7,
589424,00000408,false,Rx,0,8,00,41,33,0A,FF,FF,03,7B,
589647,00000410,false,Rx,0,8,37,00,AA,30,00,FF,02,50,
590097,00000411,false,Rx,0,8,32,60,00,00,00,00,00,00,
590254,00000022,false,Rx,0,8,FF,FF,FF,FF,00,00,02,02,
590749,00000231,false,Rx,0,8,00,01,00,00,00,00,08,09,
590822,00000517,false,Rx,0,8,00,00,00,00,00,00,00,00,
601338,00000231,false,Rx,0,8,00,01,00,00,00,00,08,09,
601406,00000517,false,Rx,0,8,00,00,00,00,00,00,00,00,
610389,00000400,false,Rx,0,8,00,0B,5E,F0,00,01,04,A0,
610445,00000408,false,Rx,0,8,00,41,33,0A,FF,FF,04,7C,
610650,00000410,false,Rx,0,8,37,00,AA,30,00,FF,04,56,
611290,00000411,false,Rx,0,8,32,60,00,00,00,00,00,00,
611304,00000022,false,Rx,0,8,FF,FF,FF,FF,00,00,04,04,
612385,00000231,false,Rx,0,8,00,01,00,00,00,00,0A,0B,
612397,00000517,false,Rx,0,8,01,00,00,00,00,00,00,00,
617341,00000332,false,Rx,0,8,01,00,00,00,00,00,0D,0C,
617354,00000530,false,Rx,0,8,FF,FF,79,84,27,11,D2,00,
623333,00000231,false,Rx,0,8,00,01,00,00,00,00,0B,0A,
623394,00000517,false,Rx,0,8,00,00,00,00,00,00,00,00,
631380,00000400,false,Rx,0,8,00,0B,5E,F0,00,01,05,A1,
631393,00000408,false,Rx,0,8,00,41,33,0A,FF,FF,05,7D,
631648,00000410,false,Rx,0,8,37,00,AA,30,00,FF,05,57,
632027,00000411,false,Rx,0,8,32,60,00,00,00,00,00,00,
632208,00000022,false,Rx,0,8,FF,FF,FF,FF,00,00,05,05,
634323,00000231,false,Rx,0,8,00,01,00,00,00,00,0C,0D,
634401,00000517,false,Rx,0,8,00,00,00,00,00,00,00,00,
645397,00000231,false,Rx,0,8,00,01,00,00,00,00,0D,0C,
645410,00000517,false,Rx,0,8,01,00,00,00,00,00,00,00,
652373,00000400,false,Rx,0,8,00,0B,5E,F0,00,01,06,A2,
652420,00000408,false,Rx,0,8,00,41,33,0A,FF,FF,06,7E,
652681,00000410,false,Rx,0,8,37,00,AA,31,00,FF,06,55,
652957,00000411,false,Rx,0,8,32,60,00,00,00,00,00,00,
653243,00000022,false,Rx,0,8,FF,FF,FF,FF,00,00,06,06,
656339,00000231,false,Rx,0,8,00,01,00,00,00,00,0E,0F,
656392,00000517,false,Rx,0,8,01,00,00,00,00,00,00,00,
667389,00000231,false,Rx,0,8,00,01,00,00,00,00,0F,0E,
667404,00000517,false,Rx,0,8,00,00,00,00,00,00,00,00,
673396,00000400,false,Rx,0,8,00,0B,5E,F0,00,01,07,A3,
673440,00000408,false,Rx,0,8,00,41,33,0A,FF,FF,07,7F,
673703,00000410,false,Rx,0,8,37,00,AA,31,00,FF,07,54,
673956,00000411,false,Rx,0,8,32,60,00,00,00,00,00,00,
674244,00000022,false,Rx,0,8,FF,FF,FF,FF,00,00,07,07,
678332,00000231,false,Rx,0,8,00,01,00,00,00,00,00,01,
678385,00000517,false,Rx,0,8,00,00,00,00,00,00,00,00,
689376,00000231,false,Rx,0,8,00,01,00,00,00,00,01,00,
689391,00000517,false,Rx,0,8,01,00,00,00,00,00,00,00,
694379,00000400,false,Rx,0,8,00,0B,5E,F0,00,01,08,AC,
694437,00000408,false,Rx,0,8,00,41,33,0A,FF,FF,08,70,
694650,00000410,false,Rx,0,8,37,00,AA,31,00,FF,08,5B,
694943,00000411,false,Rx,0,8,32,60,00,00,00,00,00,00,
695244,00000022,false,Rx,0,8,FF,FF,FF,FF,00,00,08,08,
700148,00000231,false,Rx,0,8,00,01,00,00,00,00,02,03,
700389,00000517,false,Rx,0,8,01,00,00,00,00,00,00,00,
711138,00000231,false,Rx,0,8,00,01,00,00,00,00,04,05,
711366,00000517,false,Rx,0,8,00,00,00,00,00,00,00,00,
715164,00000400,false,Rx,0,8,00,0B,5E,F0,00,01,09,AD,
715414,00000408,false,Rx,0,8,00,41,33,0A,FF,FF,09,71,
715666,00000410,false,Rx,0,8,37,00,AA,31,00,FF,09,5A,
715966,00000411,false,Rx,0,8,32,60,00,00,00,00,00,00,
716214,00000022,false,Rx,0,8,FF,FF,FF,FF,00,00,09,09,
718166,00000332,false,Rx,0,8,01,00,00,00,00,00,0E,0F,
718419,00000530,false,Rx,0,8,FF,FF,79,84,27,11,D2,00,
722116,00000231,false,Rx,0,8,00,01,00,00,00,00,05,04,
722392,00000517,false,Rx,0,8,01,00,00,00,00,00,00,00,
733092,00000231,false,Rx,0,8,00,01,00,00,00,00,06,07,
733363,00000517,false,Rx,0,8,01,00,00,00,00,00,00,00,
736148,00000400,false,Rx,0,8,00,0B,5E,F0,00,01,0A,AE,
736366,00000408,false,Rx,0,8,00,41,33,0A,FF,FF,0A,72,
736640,00000410,false,Rx,0,8,37,00,AA,40,00,FF,0A,28,
736916,00000411,false,Rx,0,8,32,60,00,00,00,00,00,00,
737188,00000022,false,Rx,0,8,FF,FF,FF,FF,00,00,0A,0A,
744089,00000231,false,Rx,0,8,00,01,00,00,00,00,07,06,
744363,00000517,false,Rx,0,8,00,00,00,00,00,00,00,00,
755086,00000231,false,Rx,0,8,00,01,00,00,00,00,08,09,
755362,00000517,false,Rx,0,8,00,00,00,00,00,00,00,00,
757144,00000400,false,Rx,0,8,00,0B,5E,F0,00,01,0B,AF,
757389,00000408,false,Rx,0,8,00,41,33,0A,FF,FF,0B,73,
757640,00000410,false,Rx,0,8,37,00,AA,40,00,FF,0B,29,
757917,00000411,false,Rx,0,8,32,60,00,00,00,00,00,00,
758275,00000022,false,Rx,0,8,FF,FF,FF,FF,00,00,0B,0B,
766084,00000231,false,Rx,0,8,00,01,00,00,00,00,09,08,
766359,00000517,false,Rx,0,8,01,00,00,00,00,00,00,00,
777094,00000231,false,Rx,0,8,00,01,00,00,00,00,0A,0B,
777357,00000517,false,Rx,0,8,01,00,00,00,00,00,00,00,
778131,00000400,false,Rx,0,8,00,0B,5E,F0,00,01,0C,A8,
778383,00000408,false,Rx,0,8,00,41,33,0A,FF,FF,0C,74,
778654,00000410,false,Rx,0,8,37,00,AA,40,00,FF,0C,2E,
778959,00000411,false,Rx,0,8,32,60,00,00,00,00,00,00,
779228,00000022,false,Rx,0,8,FF,FF,FF,FF,00,00,0C,0C,
788100,00000231,false,Rx,0,8,00,01,00,00,00,00,0B,0A,
788476,00000517,false,Rx,0,8,00,00,00,00,00,00,00,00,
799161,00000231,false,Rx,0,8,00,01,00,00,00,00,0C,0D,
799434,00000400,false,Rx,0,8,00,0B,5E,F0,00,01,0D,A9,
799709,00000408,false,Rx,0,8,00,41,33,0A,FF,FF,0D,75,
799985,00000410,false,Rx,0,8,37,00,AA,40,00,FF,0D,2F,
800256,00000411,false,Rx,0,8,32,60,00,00,00,00,00,00,
800532,00000022,false,Rx,0,8,FF,FF,FF,FF,00,00,0D,0D,
800807,00000517,false,Rx,0,8,00,00,00,00,00,00,00,00,
810099,00000231,false,Rx,0,8,00,01,00,00,00,00,0E,0F,
810360,00000517,false,Rx,0,8,01,00,00,00,00,00,00,00,
819333,00000332,false,Rx,0,8,01,00,00,00,00,00,0F,0E,
819378,00000530,false,Rx,0,8,FF,FF,79,84,27,11,D2,00,
820395,00000400,false,Rx,0,8,00,0B,5E,F0,00,01,0E,AA,
820434,00000408,false,Rx,0,8,00,41,33,0A,FF,FF,0E,76,
820698,00000410,false,Rx,0,8,37,00,AA,41,00,FF,0E,2D,
821021,00000411,false,Rx,0,8,32,60,00,00,00,00,00,00,
821232,00000022,false,Rx,0,8,FF,FF,FF,FF,00,00,0E,0E,
821839,00000231,false,Rx,0,8,00,01,00,00,00,00,0E,0F,
821853,00000517,false,Rx,0,8,01,00,00,00,00,00,00,00,
832333,00000231,false,Rx,0,8,00,01,00,00,00,00,00,01,
832378,00000517,false,Rx,0,8,00,00,00,00,00,00,00,00,
841426,00000400,false,Rx,0,8,00,0B,5E,F0,00,01,0F,AB,
841441,00000408,false,Rx,0,8,00,41,33,0A,FF,FF,0F,77,
841654,00000410,false,Rx,0,8,37,00,AA,41,00,FF,0F,2C,
841945,00000411,false,Rx,0,8,32,60,00,00,00,00,00,00,
842303,00000022,false,Rx,0,8,FF,FF,FF,FF,00,00,0F,0F,
843385,00000231,false,Rx,0,8,00,01,00,00,00,00,00,01,
843399,00000517,false,Rx,0,8,00,00,00,00,00,00,00,00,
854339,00000231,false,Rx,0,8,00,01,00,00,00,00,02,03,
854385,00000517,false,Rx,0,8,01,00,00,00,00,00,00,00,
862385,00000400,false,Rx,0,8,00,0B,5E,F0,00,01,00,A4,
862431,00000408,false,Rx,0,8,00,41,33,0A,FF,FF,00,78,
862698,00000410,false,Rx,0,8,37,00,AA,41,00,FF,00,23,
863052,00000411,false,Rx,0,8,32,60,00,00,00,00,00,00,
863257,00000022,false,Rx,0,8,FF,FF,FF,FF,00,00,00,00,
865388,00000231,false,Rx,0,8,00,01,00,00,00,00,03,02,
865402,00000517,false,Rx,0,8,00,00,00,00,00,00,00,00,
876339,00000231,false,Rx,0,8,00,01,00,00,00,00,04,05,
876387,00000517,false,Rx,0,8,00,00,00,00,00,00,00,00,
883384,00000400,false,Rx,0,8,00,0B,5E,F0,00,01,02,A6,
883430,00000408,false,Rx,0,8,00,41,33,0A,FF,FF,02,7A,
883674,00000410,false,Rx,0,8,37,00,AA,41,00,FF,01,22,
884285,00000411,false,Rx,0,8,32,60,00,00,00,00,00,00,
884297,00000022,false,Rx,0,8,FF,FF,FF,FF,00,00,01,01,
887336,00000231,false,Rx,0,8,00,01,00,00,00,00,05,04,
887382,00000517,false,Rx,0,8,01,00,00,00,00,00,00,00,
898330,00000231,false,Rx,0,8,00,01,00,00,00,00,06,07,
898383,00000517,false,Rx,0,8,01,00,00,00,00,00,00,00,
904382,00000400,false,Rx,0,8,00,0B,5E,F0,00,01,03,A7,
904436,00000408,false,Rx,0,8,00,41,33,0A,FF,FF,03,7B,
904683,00000410,false,Rx,0,8,37,00,AA,50,00,FF,02,30,
904962,00000411,false,Rx,0,8,32,60,00,00,00,00,00,00,
905245,00000022,false,Rx,0,8,FF,FF,FF,FF,00,00,02,02,
909339,00000231,false,Rx,0,8,00,01,00,00,00,00,07,06,
909390,00000517,false,Rx,0,8,00,00,00,00,00,00,00,00,
920397,00000231,false,Rx,0,8,00,01,00,00,00,00,08,09,
920443,00000332,false,Rx,0,8,01,00,00,00,00,00,00,01,
920707,00000517,false,Rx,0,8,00,00,00,00,00,00,00,00,
920961,00000530,false,Rx,0,8,FF,FF,79,84,27,11,D2,00,
925203,00000400,false,Rx,0,8,00,0B,5E,F0,00,01,04,A0,
925420,00000408,false,Rx,0,8,00,41,33,0A,FF,FF,04,7C,
925702,00000410,false,Rx,0,8,37,00,AA,50,00,FF,03,31,
925973,00000411,false,Rx,0,8,32,60,00,00,00,00,00,00,
926246,00000022,false,Rx,0,8,FF,FF,FF,FF,00,00,03,03,
931334,00000231,false,Rx,0,8,00,01,00,00,00,00,0A,0B,
931386,00000517,false,Rx,0,8,01,00,00,00,00,00,00,00,
942341,00000231,false,Rx,0,8,00,01,00,00,00,00,0A,0B,
942397,00000517,false,Rx,0,8,01,00,00,00,00,00,00,00,
946206,00000400,false,Rx,0,8,00,0B,5E,F0,00,01,05,A1,
946392,00000408,false,Rx,0,8,00,41,33,0A,FF,FF,05,7D,
946695,00000410,false,Rx,0,8,37,00,AA,50,00,FF,04,36,
946944,00000411,false,Rx,0,8,32,60,00,00,00,00,00,00,
947243,00000022,false,Rx,0,8,FF,FF,FF,FF,00,00,04,04,
953161,00000231,false,Rx,0,8,00,01,00,00,00,00,0C,0D,
953367,00000517,false,Rx,0,8,00,00,00,00,00,00,00,00,
964134,00000231,false,Rx,0,8,00,01,00,00,00,00,0D,0C,
964403,00000517,false,Rx,0,8,01,00,00,00,00,00,00,00,
967167,00000400,false,Rx,0,8,00,0B,5E,F0,00,01,06,A2,
967418,00000408,false,Rx,0,8,00,41,33,0A,FF,FF,06,7E,
967694,00000410,false,Rx,0,8,37,00,AA,50,00,FF,05,37,
967970,00000411,false,Rx,0,8,32,60,00,00,00,00,00,00,
968243,00000022,false,Rx,0,8,FF,FF,FF,FF,00,00,05,05,
975118,00000231,false,Rx,0,8,00,01,00,00,00,00,0E,0F,
975417,00000517,false,Rx,0,8,01,00,00,00,00,00,00,00,
986109,00000231,false,Rx,0,8,00,01,00,00,00,00,0F,0E,
986367,00000517,false,Rx,0,8,00,00,00,00,00,00,00,00,
988141,00000400,false,Rx,0,8,00,0B,5E,F0,00,01,07,A3,
988392,00000408,false,Rx,0,8,00,41,33,0A,FF,FF,07,7F,
988668,00000410,false,Rx,0,8,37,00,AA,51,00,FF,06,35,
988944,00000411,false,Rx,0,8,32,60,00,00,00,00,00,00,
989217,00000022,false,Rx,0,8,FF,FF,FF,FF,00,00,06,06,
997091,00000231,false,Rx,0,8,00,01,00,00,00,00,00,01,
997391,00000517,false,Rx,0,8,00,00,00,00,00,00,00,00,
1008091,00000231,false,Rx,0,8,00,01,00,00,00,00,01,00,
1008391,00000517,false,Rx,0,8,01,00,00,00,00,00,00,00,
1009166,00000400,false,Rx,0,8,00,0B,5E,F0,00,01,08,AC,
1009389,00000408,false,Rx,0,8,00,41,33,0A,FF,FF,08,70,
1009665,00000410,false,Rx,0,8,37,00,AA,51,00,FF,07,34,
1009940,00000411,false,Rx,0,8,32,60,00,00,00,00,00,00,
1010239,00000022,false,Rx,0,8,FF,FF,FF,FF,00,00,07,07,
1019088,00000231,false,Rx,0,8,00,01,00,00,00,00,02,03,
1019363,00000517,false,Rx,0,8,01,00,00,00,00,00,00,00,
1021092,00000332,false,Rx,0,8,01,00,00,00,00,00,01,00,
1021335,00000530,false,Rx,0,8,FF,FF,79,84,27,11,D2,00,
1030180,00000231,false,Rx,0,8,00,01,00,00,00,00,04,05,
1030412,00000400,false,Rx,0,8,00,0B,5E,F0,00,01,09,AD,
1030688,00000408,false,Rx,0,8,00,41,33,0A,FF,FF,09,71,
1030964,00000410,false,Rx,0,8,37,00,AA,51,00,FF,09,3A,
1031236,00000411,false,Rx,0,8,32,60,00,00,00,00,00,00,
1031487,00000022,false,Rx,0,8,FF,FF,FF,FF,00,00,09,09,
1031787,00000517,false,Rx,0,8,00,00,00,00,00,00,00,00,
1041085,00000231,false,Rx,0,8,00,01,00,00,00,00,04,05,
1041361,00000517,false,Rx,0,8,00,00,00,00,00,00,00,00,
1051141,00000400,false,Rx,0,8,00,0B,5E,F0,00,01,0A,AE,
1051386,00000408,false,Rx,0,8,00,41,33,0A,FF,FF,0A,72,
1051638,00000410,false,Rx,0,8,37,00,04,61,00,FF,0A,A7,
1051938,00000411,false,Rx,0,8,32,60,00,00,00,00,00,00,
1052210,00000022,false,Rx,0,8,FF,FF,FF,FF,00,00,0A,0A,
1052490,00000231,false,Rx,0,8,00,01,00,00,00,00,06,07,
1052751,00000517,false,Rx,0,8,01,00,00,00,00,00,00,00,
1063335,00000231,false,Rx,0,8,00,01,00,00,00,00,07,06,
1063415,00000517,false,Rx,0,8,00,00,00,00,00,00,00,00,
1072269,00000400,false,Rx,0,8,00,0B,5E,F0,00,01,0B,AF,
1072393,00000408,false,Rx,0,8,00,41,33,0A,FF,FF,0B,73,
1072725,00000410,false,Rx,0,8,33,00,04,61,00,FF,0B,A2,
1072927,00000411,false,Rx,0,8,32,60,00,00,00,00,00,00,
1073282,00000022,false,Rx,0,8,FF,FF,FF,FF,00,00,0B,0B,
1074390,00000231,false,Rx,0,8,00,01,00,00,00,00,08,09,
1074405,00000517,false,Rx,0,8,00,00,00,00,00,00,00,00,
1085374,00000231,false,Rx,0,8,00,01,00,00,00,00,09,08,
1085387,00000517,false,Rx,0,8,01,00,00,00,00,00,00,00,
1093392,00000400,false,Rx,0,8,00,0B,5E,F0,00,01,0C,A8,
1093406,00000408,false,Rx,0,8,00,41,33,0A,FF,FF,0C,74,
1093670,00000410,false,Rx,0,8,33,00,04,61,00,FF,0C,A5,
1094144,00000411,false,Rx,0,8,32,60,00,00,00,00,00,00,
1094186,00000022,false,Rx,0,8,FF,FF,FF,FF,00,00,0C,0C,
1096333,00000231,false,Rx,0,8,00,01,00,00,00,00,0A,0B,
1096377,00000517,false,Rx,0,8,01,00,00,00,00,00,00,00,
1107343,00000231,false,Rx,0,8,00,01,00,00,00,00,0B,0A,
1107391,00000517,false,Rx,0,8,00,00,00,00,00,00,00,00,
1114387,00000400,false,Rx,0,8,00,0B,5E,F0,00,01,0D,A9,
1114401,00000408,false,Rx,0,8,00,41,33,0A,FF,FF,0D,75,
1114707,00000410,false,Rx,0,8,33,00,04,61,00,FF,0D,A4,
1114956,00000411,false,Rx,0,8,32,60,00,00,00,00,00,00,
1115214,00000022,false,Rx,0,8,FF,FF,FF,FF,00,00,0D,0D,
1118334,00000231,false,Rx,0,8,00,01,00,00,00,00,0C,0D,
1118379,00000517,false,Rx,0,8,00,00,00,00,00,00,00,00,
1122347,00000332,false,Rx,0,8,01,00,00,00,00,00,02,03,
1122362,00000530,false,Rx,0,8,FF,FF,79,84,27,11,D2,00,
1129343,00000231,false,Rx,0,8,00,01,00,00,00,00,0D,0C,
1129387,00000517,false,Rx,0,8,01,00,00,00,00,00,00,00,
1135406,00000400,false,Rx,0,8,00,0B,5E,F0,00,01,0E,AA,
1135424,00000408,false,Rx,0,8,00,41,33,0A,FF,FF,0E,76,
1135691,00000410,false,Rx,0,8,33,00,06,29,00,FF,0E,ED,
1135965,00000411,false,Rx,0,8,32,60,00,00,00,00,00,00,
1136223,00000022,false,Rx,0,8,FF,FF,FF,FF,00,00,0E,0E,
1140341,00000231,false,Rx,0,8,00,01,00,00,00,00,0E,0F,
1140399,00000517,false,Rx,0,8,01,00,00,00,00,00,00,00,
1151332,00000231,false,Rx,0,8,00,01,00,00,00,00,00,01,
1151381,00000517,false,Rx,0,8,00,00,00,00,00,00,00,00,
1156386,00000400,false,Rx,0,8,00,0B,5E,F0,00,01,0F,AB,
1156436,00000408,false,Rx,0,8,00,41,33,0A,FF,FF,0F,77,
1156709,00000410,false,Rx,0,8,33,00,06,29,00,FF,0F,EC,
1156987,00000411,false,Rx,0,8,32,60,00,00,00,00,00,00,
1157274,00000022,false,Rx,0,8,FF,FF,FF,FF,00,00,0F,0F,
1162340,00000231,false,Rx,0,8,00,01,00,00,00,00,00,01,
1162389,00000517,false,Rx,0,8,00,00,00,00,00,00,00,00,
1173442,00000231,false,Rx,0,8,00,01,00,00,00,00,02,03,
1173457,00000517,false,Rx,0,8,01,00,00,00,00,00,00,00,
1177418,00000400,false,Rx,0,8,00,0B,5E,F0,00,01,00,A4,
1177434,00000408,false,Rx,0,8,00,41,33,0A,FF,FF,00,78,
1177676,00000410,false,Rx,0,8,37,00,06,29,00,FF,00,E7,
1177992,00000411,false,Rx,0,8,32,60,00,00,00,00,00,00,
1178244,00000022,false,Rx,0,8,FF,FF,FF,FF,00,00,00,00,
1184332,00000231,false,Rx,0,8,00,01,00,00,00,00,03,02,
1184384,00000517,false,Rx,0,8,00,00,00,00,00,00,00,00,
1195121,00000231,false,Rx,0,8,00,01,00,00,00,00,04,05,
1195367,00000517,false,Rx,0,8,00,00,00,00,00,00,00,00,
1198153,00000400,false,Rx,0,8,00,0B,5E,F0,00,01,01,A5,
1198418,00000408,false,Rx,0,8,00,41,33,0A,FF,FF,01,79,
1198694,00000410,false,Rx,0,8,37,00,06,29,00,FF,01,E6,
1198971,00000411,false,Rx,0,8,32,60,00,00,00,00,00,00,
1199242,00000022,false,Rx,0,8,FF,FF,FF,FF,00,00,01,01,
1206115,00000231,false,Rx,0,8,00,01,00,00,00,00,05,04,
1206368,00000517,false,Rx,0,8,01,00,00,00,00,00,00,00,
1217142,00000231,false,Rx,0,8,00,01,00,00,00,00,06,07,
1217367,00000517,false,Rx,0,8,01,00,00,00,00,00,00,00,
1219142,00000400,false,Rx,0,8,00,0B,5E,F0,00,01,02,A6,
1219393,00000408,false,Rx,0,8,00,41,33,0A,FF,FF,02,7A,
1219669,00000410,false,Rx,0,8,37,00,AA,20,00,FF,02,40,
1219945,00000411,false,Rx,0,8,32,60,00,00,00,00,00,00,
1220217,00000022,false,Rx,0,8,FF,FF,FF,FF,00,00,02,02,
1223092,00000332,false,Rx,0,8,01,00,00,00,00,00,03,02,
1223367,00000530,false,Rx,0,8,FF,FF,79,84,28,11,D8,00,
1228127,00000231,false,Rx,0,8,00,01,00,00,00,00,07,06,
1228422,00000517,false,Rx,0,8,00,00,00,00,00,00,00,00,
1239133,00000231,false,Rx,0,8,00,01,00,00,00,00,08,09,
1239397,00000517,false,Rx,0,8,00,00,00,00,00,00,00,00,
1240172,00000400,false,Rx,0,8,00,0B,5E,F0,00,01,03,A7,
1240424,00000408,false,Rx,0,8,00,41,33,0A,FF,FF,03,7B,
1240700,00000410,false,Rx,0,8,37,00,AA,20,00,FF,03,41,
1240976,00000411,false,Rx,0,8,32,60,00,00,00,00,00,00,
1241248,00000022,false,Rx,0,8,FF,FF,FF,FF,00,00,03,03,
1250120,00000231,false,Rx,0,8,00,01,00,00,00,00,0A,0B,
1250394,00000517,false,Rx,0,8,01,00,00,00,00,00,00,00,
1261220,00000231,false,Rx,0,8,00,01,00,00,00,00,0A,0B,
1261443,00000400,false,Rx,0,8,00,0B,5E,F0,00,01,04,A0,
1261719,00000408,false,Rx,0,8,00,41,33,0A,FF,FF,04,7C,
1261997,00000410,false,Rx,0,8,37,00,AA,20,00,FF,04,46,
1262265,00000411,false,Rx,0,8,32,60,00,00,00,00,00,00,
1262546,00000022,false,Rx,0,8,FF,FF,FF,FF,00,00,04,04,
1262843,00000517,false,Rx,0,8,01,00,00,00,00,00,00,00,
1272111,00000231,false,Rx,0,8,00,01,00,00,00,00,0C,0D,
1272369,00000517,false,Rx,0,8,00,00,00,00,00,00,00,00,
1282175,00000400,false,Rx,0,8,00,0B,5E,F0,00,01,06,A2,
1282414,00000408,false,Rx,0,8,00,41,33,0A,FF,FF,06,7E,
1282690,00000410,false,Rx,0,8,37,00,AA,20,00,FF,05,47,
1282966,00000411,false,Rx,0,8,32,60,00,00,00,00,00,00,
1283239,00000022,false,Rx,0,8,FF,FF,FF,FF,00,00,05,05,
1283514,00000231,false,Rx,0,8,00,01,00,00,00,00,0D,0C,
1283790,00000517,false,Rx,0,8,01,00,00,00,00,00,00,00,
1294164,00000231,false,Rx,0,8,00,01,00,00,00,00,0E,0F,
1294391,00000517,false,Rx,0,8,01,00,00,00,00,00,00,00,
1303160,00000400,false,Rx,0,8,00,0B,5E,F0,00,01,07,A3,
1303392,00000408,false,Rx,0,8,00,41,33,0A,FF,FF,07,7F,
1303665,00000410,false,Rx,0,8,37,00,AA,21,00,FF,06,45,
1303944,00000411,false,Rx,0,8,32,60,00,00,00,00,00,00,
1304215,00000022,false,Rx,0,8,FF,FF,FF,FF,00,00,06,06,
1305144,00000231,false,Rx,0,8,00,01,00,00,00,00,0F,0E,
1305405,00000517,false,Rx,0,8,00,00,00,00,00,00,00,00,
1316341,00000231,false,Rx,0,8,00,01,00,00,00,00,00,01,
1316386,00000517,false,Rx,0,8,00,00,00,00,00,00,00,00,
1324390,00000400,false,Rx,0,8,00,0B,5E,F0,00,01,08,AC,
1324435,00000408,false,Rx,0,8,00,41,33,0A,FF,FF,08,70,
1324731,00000410,false,Rx,0,8,37,00,AA,21,00,FF,07,44,
1324951,00000411,false,Rx,0,8,32,60,00,00,00,00,00,00,
1325239,00000332,false,Rx,0,8,01,00,00,00,00,00,04,05,
1325892,00000022,false,Rx,0,8,FF,FF,FF,FF,00,00,07,07,
1325906,00000530,false,Rx,0,8,FF,FF,79,84,28,11,D8,00,
1327338,00000231,false,Rx,0,8,00,01,00,00,00,00,01,00,
1327417,00000517,false,Rx,0,8,01,00,00,00,00,00,00,00,
1338345,00000231,false,Rx,0,8,00,01,00,00,00,00,02,03,
1338451,00000517,false,Rx,0,8,01,00,00,00,00,00,00,00,
1345396,00000400,false,Rx,0,8,00,0B,5E,F0,00,01,09,AD,
1345465,00000408,false,Rx,0,8,00,41,33,0A,FF,FF,09,71,
1345644,00000410,false,Rx,0,8,37,00,AA,21,00,FF,08,4B,
1346275,00000411,false,Rx,0,8,32,60,00,00,00,00,00,00,
1346288,00000022,false,Rx,0,8,FF,FF,FF,FF,00,00,08,08,
1349387,00000231,false,Rx,0,8,00,01,00,00,00,00,03,02,
1349400,00000517,false,Rx,0,8,00,00,00,00,00,00,00,00,
1360339,00000231,false,Rx,0,8,00,01,00,00,00,00,04,05,
1360418,00000517,false,Rx,0,8,00,00,00,00,00,00,00,00,
1366248,00000400,false,Rx,0,8,00,0B,5E,F0,00,01,0A,AE,
1366396,00000408,false,Rx,0,8,00,41,33,0A,FF,FF,0A,72,
1366678,00000410,false,Rx,0,8,37,00,AA,21,00,FF,09,4A,
1366952,00000411,false,Rx,0,8,32,60,00,00,00,00,00,00,
1367225,00000022,false,Rx,0,8,FF,FF,FF,FF,00,00,09,09,
1371343,00000231,false,Rx,0,8,00,01,00,00,00,00,06,07,
1371409,00000517,false,Rx,0,8,01,00,00,00,00,00,00,00,
1382342,00000231,false,Rx,0,8,00,01,00,00,00,00,07,06,
1382411,00000517,false,Rx,0,8,00,00,00,00,00,00,00,00,
1387398,00000400,false,Rx,0,8,00,0B,5E,F0,00,01,0B,AF,
1387414,00000408,false,Rx,0,8,00,41,33,0A,FF,FF,0B,73,
1387636,00000410,false,Rx,0,8,33,00,AA,30,00,FF,0A,5C,
1387970,00000411,false,Rx,0,8,32,60,00,00,00,00,00,00,
1388254,00000022,false,Rx,0,8,FF,FF,FF,FF,00,00,0A,0A,
1393345,00000231,false,Rx,0,8,00,01,00,00,00,00,08,09,
1393419,00000517,false,Rx,0,8,00,00,00,00,00,00,00,00,
1404339,00000231,false,Rx,0,8,00,01,00,00,00,00,09,08,
1404434,00000517,false,Rx,0,8,01,00,00,00,00,00,00,00,
1408478,00000400,false,Rx,0,8,00,0B,5E,F0,00,01,0C,A8,
1408494,00000408,false,Rx,0,8,00,41,33,0A,FF,FF,0C,74,
1408674,00000410,false,Rx,0,8,33,00,AA,30,00,FF,0B,5D,
1409006,00000411,false,Rx,0,8,32,60,00,00,00,00,00,00,
1409303,00000022,false,Rx,0,8,FF,FF,FF,FF,00,00,0B,0B,
1415346,00000231,false,Rx,0,8,00,01,00,00,00,00,0A,0B,
1415421,00000517,false,Rx,0,8,01,00,00,00,00,00,00,00,
1425354,00000332,false,Rx,0,8,01,00,00,00,00,00,05,04,
1425371,00000530,false,Rx,0,8,FF,FF,79,85,28,11,D8,00,
1426433,00000231,false,Rx,0,8,00,01,00,00,00,00,0B,0A,
1426449,00000517,false,Rx,0,8,00,00,00,00,00,00,00,00,
1429399,00000400,false,Rx,0,8,00,0B,5E,F0,00,01,0D,A9,
1429415,00000408,false,Rx,0,8,00,41,33,0A,FF,FF,0D,75,
1429663,00000410,false,Rx,0,8,33,00,AA,30,00,FF,0C,5A,
1429976,00000411,false,Rx,0,8,32,60,00,00,00,00,00,00,
1430253,00000022,false,Rx,0,8,FF,FF,FF,FF,00,00,0C,0C,
1437348,00000231,false,Rx,0,8,00,01,00,00,00,00,0C,0D,
1437421,00000517,false,Rx,0,8,00,00,00,00,00,00,00,00,
1448159,00000231,false,Rx,0,8,00,01,00,00,00,00,0D,0C,
1448402,00000517,false,Rx,0,8,01,00,00,00,00,00,00,00,
1450212,00000400,false,Rx,0,8,00,0B,5E,F0,00,01,0E,AA,
1450482,00000408,false,Rx,0,8,00,41,33,0A,FF,FF,0E,76,
1450727,00000410,false,Rx,0,8,33,00,AA,31,00,FF,0E,59,
1451007,00000411,false,Rx,0,8,32,60,00,00,00,00,00,00,
1451275,00000022,false,Rx,0,8,FF,FF,FF,FF,00,00,0E,0E,
1459148,00000231,false,Rx,0,8,00,01,00,00,00,00,0E,0F,
1459374,00000517,false,Rx,0,8,01,00,00,00,00,00,00,00,
1470124,00000231,false,Rx,0,8,00,01,00,00,00,00,00,01,
1470424,00000517,false,Rx,0,8,00,00,00,00,00,00,00,00,
1471178,00000400,false,Rx,0,8,00,0B,5E,F0,00,01,0F,AB,
1471425,00000408,false,Rx,0,8,00,41,33,0A,FF,FF,0F,77,
1471683,00000410,false,Rx,0,8,33,00,AA,31,00,FF,0F,58,
1471952,00000411,false,Rx,0,8,32,60,00,00,00,00,00,00,
1472250,00000022,false,Rx,0,8,FF,FF,FF,FF,00,00,0F,0F,
1481103,00000231,false,Rx,0,8,00,01,00,00,00,00,00,01,
1481374,00000517,false,Rx,0,8,00,00,00,00,00,00,00,00,
1492163,00000231,false,Rx,0,8,00,01,00,00,00,00,02,03,
1492426,00000400,false,Rx,0,8,00,0B,5E,F0,00,01,00,A4,
1492700,00000408,false,Rx,0,8,00,41,33,0A,FF,FF,00,78,
1492951,00000410,false,Rx,0,8,33,00,AA,31,00,FF,00,57,
1493249,00000411,false,Rx,0,8,32,60,00,00,00,00,00,00,
1493525,00000022,false,Rx,0,8,FF,FF,FF,FF,00,00,00,00,
1493775,00000517,false,Rx,0,8,01,00,00,00,00,00,00,00,
1503100,00000231,false,Rx,0,8,00,01,00,00,00,00,03,02,
1503374,00000517,false,Rx,0,8,00,00,00,00,00,00,00,00,
1513146,00000400,false,Rx,0,8,00,0B,5E,F0,00,01,01,A5,
1513398,00000408,false,Rx,0,8,00,41,33,0A,FF,FF,01,79,
1513648,00000410,false,Rx,0,8,33,00,AA,31,00,FF,01,56,
1513949,00000411,false,Rx,0,8,32,60,00,00,00,00,00,00,
1514221,00000022,false,Rx,0,8,FF,FF,FF,FF,00,00,01,01,
1514472,00000231,false,Rx,0,8,00,01,00,00,00,00,04,05,
1514771,00000517,false,Rx,0,8,00,00,00,00,00,00,00,00,
1525156,00000231,false,Rx,0,8,00,01,00,00,00,00,05,04,
1525435,00000517,false,Rx,0,8,01,00,00,00,00,00,00,00,
1526136,00000332,false,Rx,0,8,01,00,00,00,00,00,06,07,
1526396,00000530,false,Rx,0,8,FF,FF,79,85,28,11,D8,00,
1534151,00000400,false,Rx,0,8,00,0B,5E,F0,00,01,02,A6,
1534394,00000408,false,Rx,0,8,00,41,33,0A,FF,FF,02,7A,
1534645,00000410,false,Rx,0,8,33,00,AA,40,00,FF,02,24,
1534921,00000411,false,Rx,0,8,32,60,00,00,00,00,00,00,
1535194,00000022,false,Rx,0,8,FF,FF,FF,FF,00,00,02,02,
1536146,00000231,false,Rx,0,8,00,01,00,00,00,00,06,07,
1536393,00000517,false,Rx,0,8,01,00,00,00,00,00,00,00,
1547109,00000231,false,Rx,0,8,00,01,00,00,00,00,07,06,
1547371,00000517,false,Rx,0,8,00,00,00,00,00,00,00,00,
1555145,00000400,false,Rx,0,8,00,0B,5E,F0,00,01,03,A7,
1555395,00000408,false,Rx,0,8,00,41,33,0A,FF,FF,03,7B,
1555671,00000410,false,Rx,0,8,33,00,AA,40,00,FF,03,25,
1555947,00000411,false,Rx,0,8,32,60,00,00,00,00,00,00,
1556221,00000022,false,Rx,0,8,FF,FF,FF,FF,00,00,03,03,
1558170,00000231,false,Rx,0,8,00,01,00,00,00,00,08,09,
1558370,00000517,false,Rx,0,8,00,00,00,00,00,00,00,00,
1569140,00000231,false,Rx,0,8,00,01,00,00,00,00,09,08,
1569394,00000517,false,Rx,0,8,01,00,00,00,00,00,00,00,
1576198,00000400,false,Rx,0,8,00,0B,5E,F0,00,01,04,A0,
1576418,00000408,false,Rx,0,8,00,41,33,0A,FF,FF,04,7C,
1576732,00000410,false,Rx,0,8,33,00,AA,40,00,FF,04,22,
1576918,00000411,false,Rx,0,8,32,60,00,00,00,00,00,00,
1577244,00000022,false,Rx,0,8,FF,FF,FF,FF,00,00,04,04,
1580347,00000231,false,Rx,0,8,00,01,00,00,00,00,0A,0B,
1580392,00000517,false,Rx,0,8,01,00,00,00,00,00,00,00,
1591633,00000231,false,Rx,0,8,00,01,00,00,00,00,0C,0D,
1591645,00000517,false,Rx,0,8,00,00,00,00,00,00,00,00,
1597418,00000400,false,Rx,0,8,00,0B,5E,F0,00,01,05,A1,
1597434,00000408,false,Rx,0,8,00,41,33,0A,FF,FF,05,7D,
1597695,00000410,false,Rx,0,8,33,00,AA,40,00,FF,05,23,
1597974,00000411,false,Rx,0,8,32,60,00,00,00,00,00,00,
1598245,00000022,false,Rx,0,8,FF,FF,FF,FF,00,00,05,05,
1602345,00000231,false,Rx,0,8,00,01,00,00,00,00,0D,0C,
1602390,00000517,false,Rx,0,8,01,00,00,00,00,00,00,00,
1613511,00000231,false,Rx,0,8,00,01,00,00,00,00,0E,0F,
1613525,00000517,false,Rx,0,8,01,00,00,00,00,00,00,00,
1618395,00000400,false,Rx,0,8,00,0B,5E,F0,00,01,06,A2,
1618441,00000408,false,Rx,0,8,00,41,33,0A,FF,FF,06,7E,
1618736,00000410,false,Rx,0,8,33,00,AA,41,00,FF,06,21,
1618998,00000411,false,Rx,0,8,32,60,00,00,00,00,00,00,
1619295,00000022,false,Rx,0,8,FF,FF,FF,FF,00,00,06,06,
1624346,00000231,false,Rx,0,8,00,01,00,00,00,00,0F,0E,
1624391,00000517,false,Rx,0,8,00,00,00,00,00,00,00,00,
1627398,00000332,false,Rx,0,8,01,00,00,00,00,00,07,06,
1627412,00000530,false,Rx,0,8,FF,FF,79,85,28,11,D8,00,
1635381,00000231,false,Rx,0,8,00,01,00,00,00,00,00,01,
1635397,00000517,false,Rx,0,8,00,00,00,00,00,00,00,00,
1639391,00000400,false,Rx,0,8,00,0B,5E,F0,00,01,07,A3,
1639442,00000408,false,Rx,0,8,00,41,33,0A,FF,FF,07,7F,
1639691,00000410,false,Rx,0,8,33,00,AA,41,00,FF,07,20,
1639994,00000411,false,Rx,0,8,32,60,00,00,00,00,00,00,
1640278,00000022,false,Rx,0,8,FF,FF,FF,FF,00,00,07,07,
1646339,00000231,false,Rx,0,8,00,01,00,00,00,00,01,00,
1646388,00000517,false,Rx,0,8,01,00,00,00,00,00,00,00,
1657443,00000231,false,Rx,0,8,00,01,00,00,00,00,02,03,
1657459,00000517,false,Rx,0,8,01,00,00,00,00,00,00,00,
1660397,00000400,false,Rx,0,8,00,0B,5E,F0,00,01,08,AC,
1660412,00000408,false,Rx,0,8,00,41,33,0A,FF,FF,08,70,
1660714,00000410,false,Rx,0,8,33,00,AA,41,00,FF,08,2F,
1660994,00000411,false,Rx,0,8,32,60,00,00,00,00,00,00,
1661254,00000022,false,Rx,0,8,FF,FF,FF,FF,00,00,08,08,
1668339,00000231,false,Rx,0,8,00,01,00,00,00,00,03,02,
1668422,00000517,false,Rx,0,8,00,00,00,00,00,00,00,00,
1679343,00000231,false,Rx,0,8,00,01,00,00,00,00,04,05,
1679396,00000517,false,Rx,0,8,00,00,00,00,00,00,00,00,
1681590,00000400,false,Rx,0,8,00,0B,5E,F0,00,01,09,AD,
1681607,00000408,false,Rx,0,8,00,41,33,0A,FF,FF,09,71,
1681685,00000410,false,Rx,0,8,33,00,AA,41,00,FF,09,2E,
1682008,00000411,false,Rx,0,8,32,60,00,00,00,00,00,00,
1682281,00000022,false,Rx,0,8,FF,FF,FF,FF,00,00,09,09,
1690181,00000231,false,Rx,0,8,00,01,00,00,00,00,06,07,
1690380,00000517,false,Rx,0,8,01,00,00,00,00,00,00,00,
1701161,00000231,false,Rx,0,8,00,01,00,00,00,00,06,07,
1701377,00000517,false,Rx,0,8,01,00,00,00,00,00,00,00,
1702153,00000400,false,Rx,0,8,00,0B,5E,F0,00,01,0B,AF,
1702401,00000408,false,Rx,0,8,00,41,33,0A,FF,FF,0B,73,
1702676,00000410,false,Rx,0,8,33,00,AA,50,00,FF,0A,3C,
1702952,00000411,false,Rx,0,8,32,60,00,00,00,00,00,00,
1703227,00000022,false,Rx,0,8,FF,FF,FF,FF,00,00,0A,0A,
1712116,00000231,false,Rx,0,8,00,01,00,00,00,00,08,09,
1712375,00000517,false,Rx,0,8,00,00,00,00,00,00,00,00,
1723176,00000231,false,Rx,0,8,00,01,00,00,00,00,09,08,
1723451,00000400,false,Rx,0,8,00,0B,5E,F0,00,01,0C,A8,
1723702,00000408,false,Rx,0,8,00,41,33,0A,FF,FF,0C,74,
1723978,00000410,false,Rx,0,8,33,00,AA,50,00,FF,0B,3D,
1724251,00000411,false,Rx,0,8,32,60,00,00,00,00,00,00,
1724527,00000022,false,Rx,0,8,FF,FF,FF,FF,00,00,0B,0B,
1724853,00000517,false,Rx,0,8,01,00,00,00,00,00,00,00,
1728100,00000332,false,Rx,0,8,01,00,00,00,00,00,08,09,
1728377,00000530,false,Rx,0,8,FF,FF,79,85,28,11,D8,00,
1734149,00000231,false,Rx,0,8,00,01,00,00,00,00,0A,0B,
1734417,00000517,false,Rx,0,8,01,00,00,00,00,00,00,00,
1744179,00000400,false,Rx,0,8,00,0B,5E,F0,00,01,0D,A9,
1744431,00000408,false,Rx,0,8,00,41,33,0A,FF,FF,0D,75,
1744682,00000410,false,Rx,0,8,33,00,AA,50,00,FF,0C,3A,
1744963,00000411,false,Rx,0,8,32,60,00,00,00,00,00,00,
1745254,00000022,false,Rx,0,8,FF,FF,FF,FF,00,00,0C,0C,
1745504,00000231,false,Rx,0,8,00,01,00,00,00,00,0B,0A,
1745754,00000517,false,Rx,0,8,00,00,00,00,00,00,00,00,
1756126,00000231,false,Rx,0,8,00,01,00,00,00,00,0C,0D,
1756403,00000517,false,Rx,0,8,00,00,00,00,00,00,00,00,
1765220,00000400,false,Rx,0,8,00,0B,5E,F0,00,01,0E,AA,
1765427,00000408,false,Rx,0,8,00,41,33,0A,FF,FF,0E,76,
1765674,00000410,false,Rx,0,8,33,00,AA,50,00,FF,0D,3B,
1765950,00000411,false,Rx,0,8,32,60,00,00,00,00,00,00,
1766223,00000022,false,Rx,0,8,FF,FF,FF,FF,00,00,0D,0D,
1767177,00000231,false,Rx,0,8,00,01,00,00,00,00,0D,0C,
1767398,00000517,false,Rx,0,8,01,00,00,00,00,00,00,00,
1778112,00000231,false,Rx,0,8,00,01,00,00,00,00,0E,0F,
1778398,00000517,false,Rx,0,8,01,00,00,00,00,00,00,00,
1786153,00000400,false,Rx,0,8,00,0B,5E,F0,00,01,0F,AB,
1786392,00000408,false,Rx,0,8,00,41,33,0A,FF,FF,0F,77,
1786646,00000410,false,Rx,0,8,33,00,AA,51,00,FF,0E,39,
1786945,00000411,false,Rx,0,8,32,60,00,00,00,00,00,00,
1787192,00000022,false,Rx,0,8,FF,FF,FF,FF,00,00,0E,0E,
1789091,00000231,false,Rx,0,8,00,01,00,00,00,00,0F,0E,
1789370,00000517,false,Rx,0,8,00,00,00,00,00,00,00,00,
1800125,00000231,false,Rx,0,8,00,01,00,00,00,00,00,01,
1800395,00000517,false,Rx,0,8,00,00,00,00,00,00,00,00,
1807159,00000400,false,Rx,0,8,00,0B,5E,F0,00,01,00,A4,
1807392,00000408,false,Rx,0,8,00,41,33,0A,FF,FF,00,78,
1807644,00000410,false,Rx,0,8,33,00,AA,51,00,FF,0F,38,
1807944,00000411,false,Rx,0,8,32,60,00,00,00,00,00,00,
1808191,00000022,false,Rx,0,8,FF,FF,FF,FF,00,00,0F,0F,
1811109,00000231,false,Rx,0,8,00,01,00,00,00,00,02,03,
1811374,00000517,false,Rx,0,8,01,00,00,00,00,00,00,00,
1822478,00000231,false,Rx,0,8,00,01,00,00,00,00,03,02,
1822491,00000517,false,Rx,0,8,00,00,00,00,00,00,00,00,
1828398,00000400,false,Rx,0,8,00,0B,5E,F0,00,01,01,A5,
1828442,00000408,false,Rx,0,8,00,41,33,0A,FF,FF,01,79,
1828737,00000410,false,Rx,0,8,33,00,AA,51,00,FF,00,37,
1829012,00000411,false,Rx,0,8,32,60,00,00,00,00,00,00,
1829273,00000022,false,Rx,0,8,FF,FF,FF,FF,00,00,00,00,
1829622,00000332,false,Rx,0,8,01,00,00,00,00,00,09,08,
1829799,00000530,false,Rx,0,8,FF,FF,79,85,28,11,D8,00,
1833354,00000231,false,Rx,0,8,00,01,00,00,00,00,04,05,
1833428,00000517,false,Rx,0,8,00,00,00,00,00,00,00,00,
1844350,00000231,false,Rx,0,8,00,01,00,00,00,00,05,04,
1844414,00000517,false,Rx,0,8,01,00,00,00,00,00,00,00,
1849405,00000400,false,Rx,0,8,00,0B,5E,F0,00,01,02,A6,
1849451,00000408,false,Rx,0,8,00,41,33,0A,FF,FF,02,7A,
1849700,00000410,false,Rx,0,8,33,00,AA,51,00,FF,01,36,
1850323,00000411,false,Rx,0,8,32,60,00,00,00,00,00,00,
1850337,00000022,false,Rx,0,8,FF,FF,FF,FF,00,00,01,01,
1855344,00000231,false,Rx,0,8,00,01,00,00,00,00,06,07,
1855426,00000517,false,Rx,0,8,01,00,00,00,00,00,00,00,
1866351,00000231,false,Rx,0,8,00,01,00,00,00,00,07,06,
1866414,00000517,false,Rx,0,8,00,00,00,00,00,00,00,00,
1870205,00000400,false,Rx,0,8,00,0B,5E,F0,00,01,03,A7,
1870407,00000408,false,Rx,0,8,00,41,33,0A,FF,FF,03,7B,
1870726,00000410,false,Rx,0,8,33,00,04,61,00,FF,03,AA,
1870979,00000411,false,Rx,0,8,32,60,00,00,00,00,00,00,
1871256,00000022,false,Rx,0,8,FF,FF,FF,FF,00,00,03,03,
1877349,00000231,false,Rx,0,8,00,01,00,00,00,00,08,09,
1877418,00000517,false,Rx,0,8,00,00,00,00,00,00,00,00,
1888351,00000231,false,Rx,0,8,00,01,00,00,00,00,09,08,
1888420,00000517,false,Rx,0,8,01,00,00,00,00,00,00,00,
1891398,00000400,false,Rx,0,8,00,0B,5E,F0,00,01,04,A0,
1891563,00000408,false,Rx,0,8,00,41,33,0A,FF,FF,04,7C,
1891671,00000410,false,Rx,0,8,33,00,04,61,00,FF,04,AD,
1892000,00000411,false,Rx,0,8,32,60,00,00,00,00,00,00,
1892260,00000022,false,Rx,0,8,FF,FF,FF,FF,00,00,04,04,
1899348,00000231,false,Rx,0,8,00,01,00,00,00,00,0A,0B,
1899423,00000517,false,Rx,0,8,01,00,00,00,00,00,00,00,
1910158,00000231,false,Rx,0,8,00,01,00,00,00,00,0C,0D,
1910387,00000517,false,Rx,0,8,00,00,00,00,00,00,00,00,
1912398,00000400,false,Rx,0,8,00,0B,5E,F0,00,01,05,A1,
1912472,00000408,false,Rx,0,8,00,41,33,0A,FF,FF,05,7D,
1912668,00000410,false,Rx,0,8,33,00,04,61,00,FF,05,AC,
1912977,00000411,false,Rx,0,8,32,60,00,00,00,00,00,00,
1913259,00000022,false,Rx,0,8,FF,FF,FF,FF,00,00,05,05,
1921436,00000231,false,Rx,0,8,00,01,00,00,00,00,0C,0D,
1921452,00000517,false,Rx,0,8,00,00,00,00,00,00,00,00,
1930361,00000332,false,Rx,0,8,01,00,00,00,00,00,0A,0B,
1930428,00000530,false,Rx,0,8,FF,FF,79,85,28,11,D8,00,
1932350,00000231,false,Rx,0,8,00,01,00,00,00,00,0E,0F,
1932422,00000517,false,Rx,0,8,01,00,00,00,00,00,00,00,
1933437,00000400,false,Rx,0,8,00,0B,5E,F0,00,01,06,A2,
1933453,00000408,false,Rx,0,8,00,41,33,0A,FF,FF,06,7E,
1933679,00000410,false,Rx,0,8,33,00,06,29,00,FF,06,E5,
1933984,00000411,false,Rx,0,8,32,60,00,00,00,00,00,00,
1934259,00000022,false,Rx,0,8,FF,FF,FF,FF,00,00,06,06,
1943368,00000231,false,Rx,0,8,00,01,00,00,00,00,0E,0F,
1943460,00000517,false,Rx,0,8,01,00,00,00,00,00,00,00,
1954208,00000231,false,Rx,0,8,00,01,00,00,00,00,00,01,
1954441,00000400,false,Rx,0,8,00,0B,5E,F0,00,01,07,A3,
1954735,00000408,false,Rx,0,8,00,41,33,0A,FF,FF,07,7F,
1955008,00000410,false,Rx,0,8,33,00,06,29,00,FF,07,E4,
1955283,00000411,false,Rx,0,8,32,60,00,00,00,00,00,00,
1955558,00000022,false,Rx,0,8,FF,FF,FF,FF,00,00,07,07,
1955833,00000517,false,Rx,0,8,00,00,00,00,00,00,00,00,
1965136,00000231,false,Rx,0,8,00,01,00,00,00,00,01,00,
1965407,00000517,false,Rx,0,8,01,00,00,00,00,00,00,00,
1975183,00000400,false,Rx,0,8,00,0B,5E,F0,00,01,08,AC,
1975434,00000408,false,Rx,0,8,00,41,33,0A,FF,FF,08,70,
1975684,00000410,false,Rx,0,8,33,00,06,29,00,FF,08,EB,
1975984,00000411,false,Rx,0,8,32,60,00,00,00,00,00,00,
1976232,00000022,false,Rx,0,8,FF,FF,FF,FF,00,00,08,08,
1976532,00000231,false,Rx,0,8,00,01,00,00,00,00,02,03,
1976781,00000517,false,Rx,0,8,01,00,00,00,00,00,00,00,
1987127,00000231,false,Rx,0,8,00,01,00,00,00,00,03,02,
1987381,00000517,false,Rx,0,8,00,00,00,00,00,00,00,00,
1996158,00000400,false,Rx,0,8,00,0B,5E,F0,00,01,09,AD,
1996408,00000408,false,Rx,0,8,00,41,33,0A,FF,FF,09,71,
1996658,00000410,false,Rx,0,8,33,00,06,29,00,FF,09,EA,
1996934,00000411,false,Rx,0,8,32,60,00,00,00,00,00,00,
1997205,00000022,false,Rx,0,8,FF,FF,FF,FF,00,00,09,09,
1998156,00000231,false,Rx,0,8,00,01,00,00,00,00,04,05,
1998381,00000517,false,Rx,0,8,00,00,00,00,00,00,00,00,
2009105,00000231,false,Rx,0,8,00,01,00,00,00,00,05,04,
2009378,00000517,false,Rx,0,8,01,00,00,00,00,00,00,00,
2017165,00000400,false,Rx,0,8,00,0B,5E,F0,00,01,0A,AE,
2017402,00000408,false,Rx,0,8,00,41,33,0A,FF,FF,0A,72,
2017653,00000410,false,Rx,0,8,33,00,AA,20,00,FF,0A,4C,
2017928,00000411,false,Rx,0,8,32,60,00,00,00,00,00,00,
2018226,00000022,false,Rx,0,8,FF,FF,FF,FF,00,00,0A,0A,
2020105,00000231,false,Rx,0,8,00,01,00,00,00,00,06,07,
2020377,00000517,false,Rx,0,8,01,00,00,00,00,00,00,00,
2031192,00000231,false,Rx,0,8,00,01,00,00,00,00,08,09,
2031401,00000332,false,Rx,0,8,01,00,00,00,00,00,0B,0A,
2031678,00000517,false,Rx,0,8,00,00,00,00,00,00,00,00,
2031928,00000530,false,Rx,0,8,FF,FF,79,85,28,11,D8,00,
2038151,00000400,false,Rx,0,8,00,0B,5E,F0,00,01,0B,AF,
2038402,00000408,false,Rx,0,8,00,41,33,0A,FF,FF,0B,73,
2038678,00000410,false,Rx,0,8,33,00,AA,20,00,FF,0B,4D,
2038929,00000411,false,Rx,0,8,32,60,00,00,00,00,00,00,
2039226,00000022,false,Rx,0,8,FF,FF,FF,FF,00,00,0B,0B,
2042102,00000231,false,Rx,0,8,00,01,00,00,00,00,08,09,
2042376,00000517,false,Rx,0,8,00,00,00,00,00,00,00,00,
2053103,00000231,false,Rx,0,8,00,01,00,00,00,00,0A,0B,
2053376,00000517,false,Rx,0,8,01,00,00,00,00,00,00,00,
2059197,00000400,false,Rx,0,8,00,0B,5E,F0,00,01,0C,A8,
2059417,00000408,false,Rx,0,8,00,41,33,0A,FF,FF,0C,74,
2059662,00000410,false,Rx,0,8,33,00,AA,20,00,FF,0C,4A,
2059950,00000411,false,Rx,0,8,32,60,00,00,00,00,00,00,
2060227,00000022,false,Rx,0,8,FF,FF,FF,FF,00,00,0C,0C,
2064179,00000231,false,Rx,0,8,00,01,00,00,00,00,0B,0A,
2064397,00000517,false,Rx,0,8,00,00,00,00,00,00,00,00,
2075124,00000231,false,Rx,0,8,00,01,00,00,00,00,0C,0D,
2075378,00000517,false,Rx,0,8,00,00,00,00,00,00,00,00,
2080405,00000400,false,Rx,0,8,00,0B,5E,F0,00,01,0D,A9,
2080419,00000408,false,Rx,0,8,00,41,33,0A,FF,FF,0D,75,
2080719,00000410,false,Rx,0,8,2F,00,AA,20,00,FF,0D,57,
2081042,00000411,false,Rx,0,8,32,60,00,00,00,00,00,00,
2081224,00000022,false,Rx,0,8,FF,FF,FF,FF,00,00,0D,0D,
2086352,00000231,false,Rx,0,8,00,01,00,00,00,00,0D,0C,
2086395,00000517,false,Rx,0,8,01,00,00,00,00,00,00,00,
2097470,00000231,false,Rx,0,8,00,01,00,00,00,00,0E,0F,
2097482,00000517,false,Rx,0,8,01,00,00,00,00,00,00,00,
2101209,00000400,false,Rx,0,8,00,0B,5E,F0,00,01,0E,AA,
2101451,00000408,false,Rx,0,8,00,41,33,0A,FF,FF,0E,76,
2101689,00000410,false,Rx,0,8,2F,00,AA,21,00,FF,0E,55,
2101992,00000411,false,Rx,0,8,32,60,00,00,00,00,00,00,
2102251,00000022,false,Rx,0,8,FF,FF,FF,FF,00,00,0E,0E,
2108416,00000231,false,Rx,0,8,00,01,00,00,00,00,0F,0E,
2108430,00000517,false,Rx,0,8,00,00,00,00,00,00,00,00,
2119351,00000231,false,Rx,0,8,00,01,00,00,00,00,00,01,
2119396,00000517,false,Rx,0,8,00,00,00,00,00,00,00,00,
2122408,00000400,false,Rx,0,8,00,0B,5E,F0,00,01,00,A4,
2122422,00000408,false,Rx,0,8,00,41,33,0A,FF,FF,00,78,
2122720,00000410,false,Rx,0,8,2F,00,AA,21,00,FF,0F,54,
2123002,00000411,false,Rx,0,8,32,60,00,00,00,00,00,00,
2123249,00000022,false,Rx,0,8,FF,FF,FF,FF,00,00,0F,0F,
2130355,00000231,false,Rx,0,8,00,01,00,00,00,00,02,03,
2130398,00000517,false,Rx,0,8,01,00,00,00,00,00,00,00,
2132357,00000332,false,Rx,0,8,01,00,00,00,00,00,0C,0D,
2132396,00000530,false,Rx,0,8,FF,FF,79,85,28,11,D8,00,
2141391,00000231,false,Rx,0,8,00,01,00,00,00,00,02,03,
2141459,00000517,false,Rx,0,8,01,00,00,00,00,00,00,00,
2143217,00000400,false,Rx,0,8,00,0B,5E,F0,00,01,00,A4,
2143435,00000408,false,Rx,0,8,00,41,33,0A,FF,FF,00,78,
2143718,00000410,false,Rx,0,8,2F,00,AA,21,00,FF,00,5B,
2143990,00000411,false,Rx,0,8,32,60,00,00,00,00,00,00,
2144263,00000022,false,Rx,0,8,FF,FF,FF,FF,00,00,00,00,
2152358,00000231,false,Rx,0,8,00,01,00,00,00,00,04,05,
2152409,00000517,false,Rx,0,8,00,00,00,00,00,00,00,00,
2163352,00000231,false,Rx,0,8,00,01,00,00,00,00,05,04,
2163406,00000517,false,Rx,0,8,01,00,00,00,00,00,00,00,
2164412,00000400,false,Rx,0,8,00,0B,5E,F0,00,01,02,A6,
2164429,00000408,false,Rx,0,8,00,41,33,0A,FF,FF,02,7A,
2164700,00000410,false,Rx,0,8,2F,00,AA,21,00,FF,01,5A,
2164978,00000411,false,Rx,0,8,32,60,00,00,00,00,00,00,
2165242,00000022,false,Rx,0,8,FF,FF,FF,FF,00,00,01,01,
2174353,00000231,false,Rx,0,8,00,01,00,00,00,00,06,07,
2174406,00000517,false,Rx,0,8,01,00,00,00,00,00,00,00,
2185440,00000231,false,Rx,0,8,00,01,00,00,00,00,07,06,
2185457,00000400,false,Rx,0,8,00,0B,5E,F0,00,01,03,A7,
2185714,00000408,false,Rx,0,8,00,41,33,0A,FF,FF,03,7B,
2186015,00000410,false,Rx,0,8,2F,00,AA,30,00,FF,02,48,
2186288,00000411,false,Rx,0,8,32,60,00,00,00,00,00,00,
2186562,00000022,false,Rx,0,8,FF,FF,FF,FF,00,00,02,02,
2186838,00000517,false,Rx,0,8,00,00,00,00,00,00,00,00,
2196139,00000231,false,Rx,0,8,00,01,00,00,00,00,08,09,
2196385,00000517,false,Rx,0,8,00,00,00,00,00,00,00,00,
2206183,00000400,false,Rx,0,8,00,0B,5E,F0,00,01,04,A0,
2206409,00000408,false,Rx,0,8,00,41,33,0A,FF,FF,04,7C,
2206685,00000410,false,Rx,0,8,2F,00,AA,30,00,FF,03,49,
2206961,00000411,false,Rx,0,8,32,60,00,00,00,00,00,00,
2207248,00000022,false,Rx,0,8,FF,FF,FF,FF,00,00,03,03,
2207509,00000231,false,Rx,0,8,00,01,00,00,00,00,09,08,
2207784,00000517,false,Rx,0,8,01,00,00,00,00,00,00,00,
2218108,00000231,false,Rx,0,8,00,01,00,00,00,00,0A,0B,
2218407,00000517,false,Rx,0,8,01,00,00,00,00,00,00,00,
2227158,00000400,false,Rx,0,8,00,0B,5E,F0,00,01,05,A1,
2227409,00000408,false,Rx,0,8,00,41,33,0A,FF,FF,05,7D,
2227660,00000410,false,Rx,0,8,2F,00,AA,30,00,FF,04,4E,
2227961,00000411,false,Rx,0,8,32,60,00,00,00,00,00,00,
2228233,00000022,false,Rx,0,8,FF,FF,FF,FF,00,00,04,04,
2229157,00000231,false,Rx,0,8,00,01,00,00,00,00,0B,0A,
2229409,00000517,false,Rx,0,8,00,00,00,00,00,00,00,00,
2233144,00000332,false,Rx,0,8,01,00,00,00,00,00,0D,0C,
2233389,00000530,false,Rx,0,8,FF,FF,79,85,28,11,D8,00,
2240146,00000231,false,Rx,0,8,00,01,00,00,00,00,0C,0D,
2240412,00000517,false,Rx,0,8,00,00,00,00,00,00,00,00,
2248186,00000400,false,Rx,0,8,00,0B,5E,F0,00,01,06,A2,
2248437,00000408,false,Rx,0,8,00,41,33,0A,FF,FF,06,7E,
2248714,00000410,false,Rx,0,8,2F,00,AA,30,00,FF,05,4F,
2248989,00000411,false,Rx,0,8,32,60,00,00,00,00,00,00,
2249287,00000022,false,Rx,0,8,FF,FF,FF,FF,00,00,05,05,
2251136,00000231,false,Rx,0,8,00,01,00,00,00,00,0E,0F,
2251416,00000517,false,Rx,0,8,01,00,00,00,00,00,00,00,
2262132,00000231,false,Rx,0,8,00,01,00,00,00,00,0E,0F,
2262406,00000517,false,Rx,0,8,01,00,00,00,00,00,00,00,
2269173,00000400,false,Rx,0,8,00,0B,5E,F0,00,01,07,A3,
2269431,00000408,false,Rx,0,8,00,41,33,0A,FF,FF,07,7F,
2269681,00000410,false,Rx,0,8,2F,00,AA,31,00,FF,06,4D,
2269982,00000411,false,Rx,0,8,32,60,00,00,00,00,00,00,
2270256,00000022,false,Rx,0,8,FF,FF,FF,FF,00,00,06,06,
2273138,00000231,false,Rx,0,8,00,01,00,00,00,00,00,01,
2273384,00000517,false,Rx,0,8,00,00,00,00,00,00,00,00,
2284144,00000231,false,Rx,0,8,00,01,00,00,00,00,01,00,
2284403,00000517,false,Rx,0,8,01,00,00,00,00,00,00,00,
2290177,00000400,false,Rx,0,8,00,0B,5E,F0,00,01,08,AC,
2290430,00000408,false,Rx,0,8,00,41,33,0A,FF,FF,08,70,
2290682,00000410,false,Rx,0,8,33,00,AA,31,00,FF,08,5F,
2290982,00000411,false,Rx,0,8,32,60,00,00,00,00,00,00,
2291253,00000022,false,Rx,0,8,FF,FF,FF,FF,00,00,08,08,
2295128,00000231,false,Rx,0,8,00,01,00,00,00,00,02,03,
2295381,00000517,false,Rx,0,8,01,00,00,00,00,00,00,00,
2306093,00000231,false,Rx,0,8,00,01,00,00,00,00,03,02,
2306383,00000517,false,Rx,0,8,00,00,00,00,00,00,00,00,
2311234,00000400,false,Rx,0,8,00,0B,5E,F0,00,01,09,AD,
2311409,00000408,false,Rx,0,8,00,41,33,0A,FF,FF,09,71,
2311681,00000410,false,Rx,0,8,33,00,AA,31,00,FF,09,5E,
2312013,00000411,false,Rx,0,8,32,60,00,00,00,00,00,00,
2312229,00000022,false,Rx,0,8,FF,FF,FF,FF,00,00,09,09,
2317140,00000231,false,Rx,0,8,00,01,00,00,00,00,04,05,
2317406,00000517,false,Rx,0,8,00,00,00,00,00,00,00,00,
2328354,00000231,false,Rx,0,8,00,01,00,00,00,00,05,04,
2328398,00000517,false,Rx,0,8,01,00,00,00,00,00,00,00,
2332410,00000400,false,Rx,0,8,00,0B,5E,F0,00,01,0A,AE,
2332425,00000408,false,Rx,0,8,00,41,33,0A,FF,FF,0A,72,
2332693,00000410,false,Rx,0,8,33,00,AA,40,00,FF,0A,2C,
2333307,00000411,false,Rx,0,8,32,60,00,00,00,00,00,00,
2333322,00000022,false,Rx,0,8,FF,FF,FF,FF,00,00,0A,0A,
2334406,00000332,false,Rx,0,8,01,00,00,00,00,00,0E,0F,
2334420,00000530,false,Rx,0,8,FF,FF,79,85,27,11,CC,00,
2339357,00000231,false,Rx,0,8,00,01,00,00,00,00,06,07,
2339402,00000517,false,Rx,0,8,01,00,00,00,00,00,00,00,
2350178,00000231,false,Rx,0,8,00,01,00,00,00,00,08,09,
2350407,00000517,false,Rx,0,8,00,00,00,00,00,00,00,00,
2353425,00000400,false,Rx,0,8,00,0B,5E,F0,00,01,0B,AF,
2353468,00000408,false,Rx,0,8,00,41,33,0A,FF,FF,0B,73,
2353688,00000410,false,Rx,0,8,33,00,AA,40,00,FF,0B,2D,
2353992,00000411,false,Rx,0,8,32,60,00,00,00,00,00,00,
2354241,00000022,false,Rx,0,8,FF,FF,FF,FF,00,00,0B,0B,
2361359,00000231,false,Rx,0,8,00,01,00,00,00,00,08,09,
2361409,00000517,false,Rx,0,8,00,00,00,00,00,00,00,00,
2372351,00000231,false,Rx,0,8,00,01,00,00,00,00,0A,0B,
2372400,00000517,false,Rx,0,8,01,00,00,00,00,00,00,00,
2374413,00000400,false,Rx,0,8,00,0B,5E,F0,00,01,0C,A8,
2374430,00000408,false,Rx,0,8,00,41,33,0A,FF,FF,0C,74,
2374792,00000410,false,Rx,0,8,33,00,AA,40,00,FF,0C,2A,
2374980,00000411,false,Rx,0,8,32,60,00,00,00,00,00,00,
2375268,00000022,false,Rx,0,8,FF,FF,FF,FF,00,00,0C,0C,
2383368,00000231,false,Rx,0,8,00,01,00,00,00,00,0B,0A,
2383418,00000517,false,Rx,0,8,00,00,00,00,00,00,00,00,
2394355,00000231,false,Rx,0,8,00,01,00,00,00,00,0C,0D,
2394410,00000517,false,Rx,0,8,00,00,00,00,00,00,00,00,
2395413,00000400,false,Rx,0,8,00,0B,5E,F0,00,01,0D,A9,
2395431,00000408,false,Rx,0,8,00,41,33,0A,FF,FF,0D,75,
2395678,00000410,false,Rx,0,8,33,00,AA,40,00,FF,0D,2B,
2395982,00000411,false,Rx,0,8,32,60,00,00,00,00,00,00,
2396241,00000022,false,Rx,0,8,FF,FF,FF,FF,00,00,0D,0D,
2405360,00000231,false,Rx,0,8,00,01,00,00,00,00,0D,0C,
2405412,00000517,false,Rx,0,8,01,00,00,00,00,00,00,00,
2416416,00000231,false,Rx,0,8,00,01,00,00,00,00,0E,0F,
2416460,00000400,false,Rx,0,8,00,0B,5E,F0,00,01,0E,AA,
2416729,00000408,false,Rx,0,8,00,41,33,0A,FF,FF,0E,76,
2417008,00000410,false,Rx,0,8,33,00,AA,41,00,FF,0E,29,
2417267,00000411,false,Rx,0,8,32,60,00,00,00,00,00,00,
2417566,00000022,false,Rx,0,8,FF,FF,FF,FF,00,00,0E,0E,
2417817,00000517,false,Rx,0,8,01,00,00,00,00,00,00,00,
2427360,00000231,false,Rx,0,8,00,01,00,00,00,00,0F,0E,
2427413,00000517,false,Rx,0,8,00,00,00,00,00,00,00,00,
2435359,00000332,false,Rx,0,8,01,00,00,00,00,00,0F,0E,
2435412,00000530,false,Rx,0,8,FF,FF,79,86,24,11,B0,00,
2437413,00000400,false,Rx,0,8,00,0B,5E,F0,00,01,0F,AB,
2437430,00000408,false,Rx,0,8,00,41,33,0A,FF,FF,0F,77,
2437716,00000410,false,Rx,0,8,33,00,AA,41,00,FF,0F,28,
2437968,00000411,false,Rx,0,8,32,60,00,00,00,00,00,00,
2438266,00000022,false,Rx,0,8,FF,FF,FF,FF,00,00,0F,0F,
2438541,00000231,false,Rx,0,8,00,02,00,00,00,00,00,02,
2438842,00000517,false,Rx,0,8,00,00,00,00,00,00,00,00,
2449236,00000231,false,Rx,0,8,00,02,00,00,00,00,01,03,
2449385,00000517,false,Rx,0,8,01,00,00,00,00,00,00,00,
2458214,00000400,false,Rx,0,8,00,0B,5E,F0,00,01,00,A4,
2458445,00000408,false,Rx,0,8,00,41,33,0A,FF,FF,00,78,
2458740,00000410,false,Rx,0,8,33,00,AA,41,00,FF,00,27,
2459017,00000411,false,Rx,0,8,32,60,00,00,00,00,00,00,
2459288,00000022,false,Rx,0,8,FF,FF,FF,FF,00,00,00,00,
2460188,00000231,false,Rx,0,8,00,02,00,00,00,00,02,00,
2460415,00000517,false,Rx,0,8,01,00,00,00,00,00,00,00,
2471138,00000231,false,Rx,0,8,00,02,00,00,00,00,04,06,
2471413,00000517,false,Rx,0,8,00,00,00,00,00,00,00,00,
2479190,00000400,false,Rx,0,8,00,0B,5E,F0,00,01,01,A5,
2479439,00000408,false,Rx,0,8,00,41,33,0A,FF,FF,01,79,
2479715,00000410,false,Rx,0,8,37,00,AA,41,00,FF,01,22,
2479992,00000411,false,Rx,0,8,32,60,00,00,00,00,00,00,
2480266,00000022,false,Rx,0,8,FF,FF,FF,FF,00,00,01,01,
2482116,00000231,false,Rx,0,8,00,02,00,00,00,00,05,07,
2482387,00000517,false,Rx,0,8,00,00,00,00,00,00,00,00,
2493138,00000231,false,Rx,0,8,00,01,00,00,00,00,06,07,
2493388,00000517,false,Rx,0,8,01,00,00,00,00,00,00,00,
2500162,00000400,false,Rx,0,8,00,0B,5E,F0,00,01,02,A6,
2500414,00000408,false,Rx,0,8,00,41,33,0A,FF,FF,02,7A,
2500689,00000410,false,Rx,0,8,37,00,AA,50,00,FF,02,30,
2500965,00000411,false,Rx,0,8,32,60,00,00,00,00,00,00,
2501236,00000022,false,Rx,0,8,FF,FF,FF,FF,00,00,02,02,
2504113,00000231,false,Rx,0,8,00,01,00,00,00,00,07,06,
2504387,00000517,false,Rx,0,8,00,00,00,00,00,00,00,00,
2515110,00000231,false,Rx,0,8,00,01,00,00,00,00,08,09,
2515385,00000517,false,Rx,0,8,00,00,00,00,00,00,00,00,
2521194,00000400,false,Rx,0,8,00,0B,5E,F0,00,01,03,A7,
2521422,00000408,false,Rx,0,8,00,41,33,0A,FF,FF,03,7B,
2521688,00000410,false,Rx,0,8,37,00,AA,50,00,FF,03,31,
2522017,00000411,false,Rx,0,8,32,60,00,00,00,00,00,00,
2522295,00000022,false,Rx,0,8,FF,FF,FF,FF,00,00,03,03,
2526158,00000231,false,Rx,0,8,00,01,00,00,00,00,09,08,
2526400,00000517,false,Rx,0,8,01,00,00,00,00,00,00,00,
2536117,00000332,false,Rx,0,8,01,00,00,00,00,00,00,01,
2536384,00000530,false,Rx,0,8,FF,FF,79,86,22,11,9A,00,
2537162,00000231,false,Rx,0,8,00,01,00,00,00,00,0A,0B,
2537384,00000517,false,Rx,0,8,01,00,00,00,00,00,00,00,
2542160,00000400,false,Rx,0,8,00,0B,5E,F0,00,01,04,A0,
2542410,00000408,false,Rx,0,8,00,41,33,0A,FF,FF,04,7C,
2542686,00000410,false,Rx,0,8,37,00,AA,50,00,FF,04,36,
2542961,00000411,false,Rx,0,8,32,60,00,00,00,00,00,00,
2543234,00000022,false,Rx,0,8,FF,FF,FF,FF,00,00,04,04,
2548109,00000231,false,Rx,0,8,00,01,00,00,00,00,0B,0A,
2548409,00000517,false,Rx,0,8,00,00,00,00,00,00,00,00,
2559111,00000231,false,Rx,0,8,00,01,00,00,00,00,0C,0D,
2559384,00000517,false,Rx,0,8,00,00,00,00,00,00,00,00,
2563159,00000400,false,Rx,0,8,00,0B,5E,F0,00,01,06,A2,
2563412,00000408,false,Rx,0,8,00,41,33,0A,FF,FF,06,7E,
2563683,00000410,false,Rx,0,8,37,00,AA,50,00,FF,05,37,
2563960,00000411,false,Rx,0,8,32,60,00,00,00,00,00,00,
2564234,00000022,false,Rx,0,8,FF,FF,FF,FF,00,00,05,05,
2570127,00000231,false,Rx,0,8,00,01,00,00,00,00,0E,0F,
2570387,00000517,false,Rx,0,8,01,00,00,00,00,00,00,00,
2581133,00000231,false,Rx,0,8,00,01,00,00,00,00,0E,0F,
2581383,00000517,false,Rx,0,8,01,00,00,00,00,00,00,00,
2584158,00000400,false,Rx,0,8,00,0B,5E,F0,00,01,07,A3,
2584408,00000408,false,Rx,0,8,00,41,33,0A,FF,FF,07,7F,
2584659,00000410,false,Rx,0,8,33,00,AA,51,00,FF,06,31,
2584959,00000411,false,Rx,0,8,32,60,00,00,00,00,00,00,
2585208,00000022,false,Rx,0,8,FF,FF,FF,FF,00,00,06,06,
2592109,00000231,false,Rx,0,8,00,01,00,00,00,00,00,01,
2592384,00000517,false,Rx,0,8,00,00,00,00,00,00,00,00,
2603186,00000231,false,Rx,0,8,00,01,00,00,00,00,01,00,
2603405,00000517,false,Rx,0,8,01,00,00,00,00,00,00,00,
2605184,00000400,false,Rx,0,8,00,0B,5E,F0,00,01,08,AC,
2605430,00000408,false,Rx,0,8,00,41,33,0A,FF,FF,08,70,
2605752,00000410,false,Rx,0,8,33,00,AA,51,00,FF,07,30,
2605958,00000411,false,Rx,0,8,32,60,00,00,00,00,00,00,
2606575,00000022,false,Rx,0,8,FF,FF,FF,FF,00,00,07,07,
2614188,00000231,false,Rx,0,8,00,01,00,00,00,00,02,03,
2614405,00000517,false,Rx,0,8,01,00,00,00,00,00,00,00,
2625503,00000231,false,Rx,0,8,00,01,00,00,00,00,03,02,
2625516,00000517,false,Rx,0,8,00,00,00,00,00,00,00,00,
2626410,00000400,false,Rx,0,8,00,0B,5E,F0,00,01,09,AD,
2626425,00000408,false,Rx,0,8,00,41,33,0A,FF,FF,09,71,
2626696,00000410,false,Rx,0,8,33,00,AA,51,00,FF,08,3F,
2627049,00000411,false,Rx,0,8,32,60,00,00,00,00,00,00,
2627257,00000022,false,Rx,0,8,FF,FF,FF,FF,00,00,08,08,
2636136,00000231,false,Rx,0,8,00,02,00,00,00,00,04,06,
2636389,00000517,false,Rx,0,8,00,00,00,00,00,00,00,00,
2637159,00000332,false,Rx,0,8,01,00,00,00,00,00,01,00,
2637388,00000530,false,Rx,0,8,FF,FF,79,86,20,11,84,00,
2647412,00000231,false,Rx,0,8,00,02,00,00,00,00,05,07,
2647514,00000400,false,Rx,0,8,00,0B,5E,F0,00,01,0A,AE,
2647723,00000408,false,Rx,0,8,00,41,33,0A,FF,FF,0A,72,
2648335,00000410,false,Rx,0,8,33,00,AA,51,00,FF,09,3E,
2648348,00000411,false,Rx,0,8,32,60,00,00,00,00,00,00,
2648535,00000022,false,Rx,0,8,FF,FF,FF,FF,00,00,09,09,
2649185,00000517,false,Rx,0,8,01,00,00,00,00,00,00,00,
2658363,00000231,false,Rx,0,8,00,02,00,00,00,00,06,04,
2658424,00000517,false,Rx,0,8,01,00,00,00,00,00,00,00,
2668413,00000400,false,Rx,0,8,00,0B,5E,F0,00,01,0B,AF,
2668425,00000408,false,Rx,0,8,00,41,33,0A,FF,FF,0B,73,
2668703,00000410,false,Rx,0,8,33,00,04,61,00,FF,0A,A3,
2669320,00000411,false,Rx,0,8,32,60,00,00,00,00,00,00,
2669333,00000022,false,Rx,0,8,FF,FF,FF,FF,00,00,0A,0A,
2669509,00000231,false,Rx,0,8,00,02,00,00,00,00,07,05,
2670148,00000517,false,Rx,0,8,00,00,00,00,00,00,00,00,
2680367,00000231,false,Rx,0,8,00,02,00,00,00,00,08,0A,
2680429,00000517,false,Rx,0,8,00,00,00,00,00,00,00,00,
2689413,00000400,false,Rx,0,8,00,0B,5E,F0,00,01,0C,A8,
2689427,00000408,false,Rx,0,8,00,41,33,0A,FF,FF,0C,74,
2689694,00000410,false,Rx,0,8,2B,00,04,61,00,FF,0B,BA,
2690301,00000411,false,Rx,0,8,32,60,00,00,00,00,00,00,
2690316,00000022,false,Rx,0,8,FF,FF,FF,FF,00,00,0B,0B,
2691443,00000231,false,Rx,0,8,00,02,00,00,00,00,0A,08,
2691456,00000517,false,Rx,0,8,01,00,00,00,00,00,00,00,
2702123,00000231,false,Rx,0,8,00,02,00,00,00,00,0B,09,
2702382,00000517,false,Rx,0,8,00,00,00,00,00,00,00,00,
2710218,00000400,false,Rx,0,8,00,0B,5E,F0,00,01,0D,A9,
2710410,00000408,false,Rx,0,8,00,41,33,0A,FF,FF,0D,75,
2710690,00000410,false,Rx,0,8,2B,00,04,61,00,FF,0D,BC,
2710970,00000411,false,Rx,0,8,32,60,00,00,00,00,00,00,
2711208,00000022,false,Rx,0,8,FF,FF,FF,FF,00,00,0D,0D,
2713163,00000231,false,Rx,0,8,00,02,00,00,00,00,0C,0E,
2713378,00000517,false,Rx,0,8,00,00,00,00,00,00,00,00,
2724153,00000231,false,Rx,0,8,00,02,00,00,00,00,0D,0F,
2724416,00000517,false,Rx,0,8,01,00,00,00,00,00,00,00,
2731203,00000400,false,Rx,0,8,00,0B,5E,F0,00,01,0E,AA,
2731409,00000408,false,Rx,0,8,00,41,33,0A,FF,FF,0E,76,
2731720,00000410,false,Rx,0,8,2B,00,06,29,00,FF,0E,F5,
2731972,00000411,false,Rx,0,8,32,60,00,00,00,00,00,00,
2732243,00000022,false,Rx,0,8,FF,FF,FF,FF,00,00,0E,0E,
2735161,00000231,false,Rx,0,8,00,02,00,00,00,00,0E,0C,
2735418,00000517,false,Rx,0,8,01,00,00,00,00,00,00,00,
2738140,00000332,false,Rx,0,8,01,00,00,00,00,00,02,03,
2738415,00000530,false,Rx,0,8,FF,FF,79,86,1E,11,73,00,
2746136,00000231,false,Rx,0,8,00,02,00,00,00,00,0F,0D,
2746382,00000517,false,Rx,0,8,00,00,00,00,00,00,00,00,
2752238,00000400,false,Rx,0,8,00,0B,5E,F0,00,01,0F,AB,
2752390,00000408,false,Rx,0,8,00,41,33,0A,FF,FF,0F,77,
2752769,00000410,false,Rx,0,8,2B,00,06,29,00,FF,0F,F4,
2752935,00000411,false,Rx,0,8,32,60,00,00,00,00,00,00,
2753260,00000022,false,Rx,0,8,FF,FF,FF,FF,00,00,0F,0F,
2757703,00000231,false,Rx,0,8,00,02,00,00,00,00,00,02,
2757728,00000517,false,Rx,0,8,00,00,00,00,00,00,00,00,
2768362,00000231,false,Rx,0,8,00,02,00,00,00,00,01,03,
2768406,00000517,false,Rx,0,8,01,00,00,00,00,00,00,00,
2773498,00000400,false,Rx,0,8,00,0B,5E,F0,00,01,00,A4,
2773512,00000408,false,Rx,0,8,00,41,33,0A,FF,FF,00,78,
2773780,00000410,false,Rx,0,8,33,00,06,29,00,FF,00,E3,
2773959,00000411,false,Rx,0,8,32,60,00,00,00,00,00,00,
2774312,00000022,false,Rx,0,8,FF,FF,FF,FF,00,00,00,00,
2779364,00000231,false,Rx,0,8,00,02,00,00,00,00,02,00,
2779410,00000517,false,Rx,0,8,01,00,00,00,00,00,00,00,
2790365,00000231,false,Rx,0,8,00,01,00,00,00,00,04,05,
2790409,00000517,false,Rx,0,8,00,00,00,00,00,00,00,00,
2794415,00000400,false,Rx,0,8,00,0B,5E,F0,00,01,01,A5,
2794427,00000408,false,Rx,0,8,00,41,33,0A,FF,FF,01,79,
2794719,00000410,false,Rx,0,8,33,00,06,29,00,FF,01,E2,
2795044,00000411,false,Rx,0,8,32,60,00,00,00,00,00,00,
2795255,00000022,false,Rx,0,8,FF,FF,FF,FF,00,00,01,01,
2801417,00000231,false,Rx,0,8,00,01,00,00,00,00,04,05,
2801431,00000517,false,Rx,0,8,00,00,00,00,00,00,00,00,
2812360,00000231,false,Rx,0,8,00,01,00,00,00,00,06,07,
2812405,00000517,false,Rx,0,8,01,00,00,00,00,00,00,00,
2815411,00000400,false,Rx,0,8,00,0B,5E,F0,00,01,02,A6,
2815456,00000408,false,Rx,0,8,00,41,33,0A,FF,FF,02,7A,
2815721,00000410,false,Rx,0,8,33,00,AA,20,00,FF,02,44,
2816213,00000411,false,Rx,0,8,32,60,00,00,00,00,00,00,
2816250,00000022,false,Rx,0,8,FF,FF,FF,FF,00,00,02,02,
2823161,00000231,false,Rx,0,8,00,01,00,00,00,00,07,06,
2823419,00000517,false,Rx,0,8,00,00,00,00,00,00,00,00,
2834364,00000231,false,Rx,0,8,00,01,00,00,00,00,08,09,
2834408,00000517,false,Rx,0,8,00,00,00,00,00,00,00,00,
2836416,00000400,false,Rx,0,8,00,0B,5E,F0,00,01,03,A7,
2836431,00000408,false,Rx,0,8,00,41,33,0A,FF,FF,03,7B,
2836729,00000410,false,Rx,0,8,33,00,AA,20,00,FF,03,45,
2837010,00000411,false,Rx,0,8,32,60,00,00,00,00,00,00,
2837239,00000022,false,Rx,0,8,FF,FF,FF,FF,00,00,03,03,
2839360,00000332,false,Rx,0,8,01,00,00,00,00,00,03,02,
2839403,00000530,false,Rx,0,8,FF,FF,79,86,1D,11,61,00,
2845423,00000231,false,Rx,0,8,00,01,00,00,00,00,09,08,
2845438,00000517,false,Rx,0,8,01,00,00,00,00,00,00,00,
2856364,00000231,false,Rx,0,8,00,01,00,00,00,00,0A,0B,
2856412,00000517,false,Rx,0,8,01,00,00,00,00,00,00,00,
2857431,00000400,false,Rx,0,8,00,0B,5E,F0,00,01,04,A0,
2857461,00000408,false,Rx,0,8,00,41,33,0A,FF,FF,04,7C,
2857713,00000410,false,Rx,0,8,33,00,AA,20,00,FF,04,42,
2857969,00000411,false,Rx,0,8,32,60,00,00,00,00,00,00,
2858269,00000022,false,Rx,0,8,FF,FF,FF,FF,00,00,04,04,
2867359,00000231,false,Rx,0,8,00,01,00,00,00,00,0B,0A,
2867403,00000517,false,Rx,0,8,00,00,00,00,00,00,00,00,
2878416,00000231,false,Rx,0,8,00,01,00,00,00,00,0C,0D,
2878472,00000400,false,Rx,0,8,00,0B,5E,F0,00,01,05,A1,
2878762,00000408,false,Rx,0,8,00,41,33,0A,FF,FF,05,7D,
2879089,00000410,false,Rx,0,8,2F,00,AA,20,00,FF,05,5F,
2879356,00000411,false,Rx,0,8,32,60,00,00,00,00,00,00,
2879655,00000022,false,Rx,0,8,FF,FF,FF,FF,00,00,05,05,
2879932,00000517,false,Rx,0,8,00,00,00,00,00,00,00,00,
2889375,00000231,false,Rx,0,8,00,01,00,00,00,00,0D,0C,
2889449,00000517,false,Rx,0,8,01,00,00,00,00,00,00,00,
2899411,00000400,false,Rx,0,8,00,0B,5E,F0,00,01,06,A2,
2899463,00000408,false,Rx,0,8,00,41,33,0A,FF,FF,06,7E,
2899736,00000410,false,Rx,0,8,2F,00,AA,21,00,FF,06,5D,
2899989,00000411,false,Rx,0,8,32,60,00,00,00,00,00,00,
2900299,00000022,false,Rx,0,8,FF,FF,FF,FF,00,00,06,06,
2900549,00000231,false,Rx,0,8,00,01,00,00,00,00,0E,0F,
2900824,00000517,false,Rx,0,8,01,00,00,00,00,00,00,00,
2911361,00000231,false,Rx,0,8,00,01,00,00,00,00,00,01,
2911414,00000517,false,Rx,0,8,00,00,00,00,00,00,00,00,
2920425,00000400,false,Rx,0,8,00,0B,5E,F0,00,01,07,A3,
2920470,00000408,false,Rx,0,8,00,41,33,0A,FF,FF,07,7F,
2920711,00000410,false,Rx,0,8,2F,00,AA,21,00,FF,07,5C,
2920989,00000411,false,Rx,0,8,32,60,00,00,00,00,00,00,
2921273,00000022,false,Rx,0,8,FF,FF,FF,FF,00,00,07,07,
2922421,00000231,false,Rx,0,8,00,01,00,00,00,00,01,00,
2922438,00000517,false,Rx,0,8,00,00,00,00,00,00,00,00,
2933424,00000231,false,Rx,0,8,00,01,00,00,00,00,02,03,
2933440,00000517,false,Rx,0,8,01,00,00,00,00,00,00,00,
2940364,00000332,false,Rx,0,8,01,00,00,00,00,00,04,05,
2940418,00000530,false,Rx,0,8,FF,FF,79,86,1B,11,4F,00,
2941466,00000400,false,Rx,0,8,00,0B,5E,F0,00,01,08,AC,
2941483,00000408,false,Rx,0,8,00,41,33,0A,FF,FF,08,70,
2941722,00000410,false,Rx,0,8,2F,00,AA,21,00,FF,08,53,
2942000,00000411,false,Rx,0,8,32,60,00,00,00,00,00,00,
2942278,00000022,false,Rx,0,8,FF,FF,FF,FF,00,00,08,08,
2944147,00000231,false,Rx,0,8,00,01,00,00,00,00,03,02,
2944394,00000517,false,Rx,0,8,00,00,00,00,00,00,00,00,
2955151,00000231,false,Rx,0,8,00,01,00,00,00,00,04,05,
2955394,00000517,false,Rx,0,8,00,00,00,00,00,00,00,00,
2962168,00000400,false,Rx,0,8,00,0B,5E,F0,00,01,09,AD,
2962419,00000408,false,Rx,0,8,00,41,33,0A,FF,FF,09,71,
2962694,00000410,false,Rx,0,8,2F,00,AA,21,00,FF,09,52,
2962970,00000411,false,Rx,0,8,32,60,00,00,00,00,00,00,
2963243,00000022,false,Rx,0,8,FF,FF,FF,FF,00,00,09,09,
2966117,00000231,false,Rx,0,8,00,01,00,00,00,00,05,04,
2966393,00000517,false,Rx,0,8,01,00,00,00,00,00,00,00,
2977167,00000231,false,Rx,0,8,00,01,00,00,00,00,06,07,
2977393,00000517,false,Rx,0,8,01,00,00,00,00,00,00,00,
2983200,00000400,false,Rx,0,8,00,0B,5E,F0,00,01,0B,AF,
2983453,00000408,false,Rx,0,8,00,41,33,0A,FF,FF,0B,73,
2983703,00000410,false,Rx,0,8,33,00,AA,30,00,FF,0A,5C,
2983980,00000411,false,Rx,0,8,32,60,00,00,00,00,00,00,
2984246,00000022,false,Rx,0,8,FF,FF,FF,FF,00,00,0A,0A,
2988146,00000231,false,Rx,0,8,00,01,00,00,00,00,07,06,
2988447,00000517,false,Rx,0,8,00,00,00,00,00,00,00,00,
2999147,00000231,false,Rx,0,8,00,01,00,00,00,00,08,09,
2999421,00000517,false,Rx,0,8,00,00,00,00,00,00,00,00,
3004200,00000400,false,Rx,0,8,00,0B,5E,F0,00,01,0C,A8,
3004448,00000408,false,Rx,0,8,00,41,33,0A,FF,FF,0C,74,
3004698,00000410,false,Rx,0,8,33,00,AA,30,00,FF,0B,5D,
3004948,00000411,false,Rx,0,8,32,60,00,00,00,00,00,00,
3005269,00000022,false,Rx,0,8,FF,FF,FF,FF,00,00,0B,0B,
3010143,00000231,false,Rx,0,8,00,01,00,00,00,00,0A,0B,
3010419,00000517,false,Rx,0,8,01,00,00,00,00,00,00,00,
3021139,00000231,false,Rx,0,8,00,01,00,00,00,00,0A,0B,
3021387,00000517,false,Rx,0,8,01,00,00,00,00,00,00,00,
3025178,00000400,false,Rx,0,8,00,0B,5E,F0,00,01,0D,A9,
3025416,00000408,false,Rx,0,8,00,41,33,0A,FF,FF,0D,75,
3025693,00000410,false,Rx,0,8,33,00,AA,30,00,FF,0C,5A,
3025969,00000411,false,Rx,0,8,32,60,00,00,00,00,00,00,
3026267,00000022,false,Rx,0,8,FF,FF,FF,FF,00,00,0C,0C,
3032120,00000231,false,Rx,0,8,00,01,00,00,00,00,0C,0D,
3032418,00000517,false,Rx,0,8,00,00,00,00,00,00,00,00,
3041463,00000332,false,Rx,0,8,01,00,00,00,00,00,05,04,
3041479,00000530,false,Rx,0,8,FF,FF,79,86,19,11,3C,00,
3043117,00000231,false,Rx,0,8,00,01,00,00,00,00,0C,0D,
3043389,00000517,false,Rx,0,8,00,00,00,00,00,00,00,00,
3046192,00000400,false,Rx,0,8,00,0B,5E,F0,00,01,0E,AA,
3046462,00000408,false,Rx,0,8,00,41,33,0A,FF,FF,0E,76,
3046702,00000410,false,Rx,0,8,33,00,AA,30,00,FF,0D,5B,
3046966,00000411,false,Rx,0,8,32,60,00,00,00,00,00,00,
3047241,00000022,false,Rx,0,8,FF,FF,FF,FF,00,00,0D,0D,
3054139,00000231,false,Rx,0,8,00,01,00,00,00,00,0E,0F,
3054415,00000517,false,Rx,0,8,01,00,00,00,00,00,00,00,
3065160,00000231,false,Rx,0,8,00,01,00,00,00,00,0F,0E,
3065390,00000517,false,Rx,0,8,00,00,00,00,00,00,00,00,
3067247,00000400,false,Rx,0,8,00,0B,5E,F0,00,01,0F,AB,
3067442,00000408,false,Rx,0,8,00,41,33,0A,FF,FF,0F,77,
3067759,00000410,false,Rx,0,8,33,00,AA,31,00,FF,0E,59,
3067966,00000411,false,Rx,0,8,32,60,00,00,00,00,00,00,
3068247,00000022,false,Rx,0,8,FF,FF,FF,FF,00,00,0E,0E,
3076367,00000231,false,Rx,0,8,00,01,00,00,00,00,00,01,
3076411,00000517,false,Rx,0,8,00,00,00,00,00,00,00,00,
3087366,00000231,false,Rx,0,8,00,01,00,00,00,00,01,00,
3087413,00000517,false,Rx,0,8,01,00,00,00,00,00,00,00,
3088426,00000400,false,Rx,0,8,00,0B,5E,F0,00,01,00,A4,
3088464,00000408,false,Rx,0,8,00,41,33,0A,FF,FF,00,78,
3088729,00000410,false,Rx,0,8,33,00,AA,31,00,FF,0F,58,
3088987,00000411,false,Rx,0,8,32,60,00,00,00,00,00,00,
3089266,00000022,false,Rx,0,8,FF,FF,FF,FF,00,00,0F,0F,
3098362,00000231,false,Rx,0,8,00,01,00,00,00,00,02,03,
3098406,00000517,false,Rx,0,8,01,00,00,00,00,00,00,00,
3109410,00000231,false,Rx,0,8,00,01,00,00,00,00,03,02,
3109492,00000400,false,Rx,0,8,00,0B,5E,F0,00,01,01,A5,
3109744,00000408,false,Rx,0,8,00,41,33,0A,FF,FF,01,79,
3110386,00000410,false,Rx,0,8,33,00,AA,31,00,FF,00,57,
3110400,00000411,false,Rx,0,8,32,60,00,00,00,00,00,00,
3110650,00000022,false,Rx,0,8,FF,FF,FF,FF,00,00,00,00,
3110928,00000517,false,Rx,0,8,00,00,00,00,00,00,00,00,
3120370,00000231,false,Rx,0,8,00,01,00,00,00,00,04,05,
3120424,00000517,false,Rx,0,8,00,00,00,00,00,00,00,00,
3130417,00000400,false,Rx,0,8,00,0B,5E,F0,00,01,02,A6,
3130466,00000408,false,Rx,0,8,00,41,33,0A,FF,FF,02,7A,
3130711,00000410,false,Rx,0,8,33,00,AA,40,00,FF,02,24,
3130991,00000411,false,Rx,0,8,32,60,00,00,00,00,00,00,
3131273,00000022,false,Rx,0,8,FF,FF,FF,FF,00,00,02,02,
3131525,00000231,false,Rx,0,8,00,01,00,00,00,00,06,07,
3131824,00000517,false,Rx,0,8,01,00,00,00,00,00,00,00,
3142415,00000231,false,Rx,0,8,00,01,00,00,00,00,06,07,
3142457,00000332,false,Rx,0,8,01,00,00,00,00,00,06,07,
3142736,00000517,false,Rx,0,8,01,00,00,00,00,00,00,00,
3142989,00000530,false,Rx,0,8,FF,FF,79,86,17,11,2A,00,
3151417,00000400,false,Rx,0,8,00,0B,5E,F0,00,01,03,A7,
3151433,00000408,false,Rx,0,8,00,41,33,0A,FF,FF,03,7B,
3151714,00000410,false,Rx,0,8,33,00,AA,40,00,FF,03,25,
3151994,00000411,false,Rx,0,8,32,60,00,00,00,00,00,00,
3152277,00000022,false,Rx,0,8,FF,FF,FF,FF,00,00,03,03,
3153407,00000231,false,Rx,0,8,00,01,00,00,00,00,08,09,
3153424,00000517,false,Rx,0,8,00,00,00,00,00,00,00,00,
3164367,00000231,false,Rx,0,8,00,01,00,00,00,00,09,08,
3164421,00000517,false,Rx,0,8,01,00,00,00,00,00,00,00,
3172427,00000400,false,Rx,0,8,00,0B,5E,F0,00,01,04,A0,
3172472,00000408,false,Rx,0,8,00,41,33,0A,FF,FF,04,7C,
3172715,00000410,false,Rx,0,8,33,00,AA,40,00,FF,04,22,
3172993,00000411,false,Rx,0,8,32,60,00,00,00,00,00,00,
3173276,00000022,false,Rx,0,8,FF,FF,FF,FF,00,00,04,04,
3175370,00000231,false,Rx,0,8,00,01,00,00,00,00,0A,0B,
3175424,00000517,false,Rx,0,8,01,00,00,00,00,00,00,00,
3186174,00000231,false,Rx,0,8,00,01,00,00,00,00,0B,0A,
3186372,00000517,false,Rx,0,8,00,00,00,00,00,00,00,00,
3193421,00000400,false,Rx,0,8,00,0B,5E,F0,00,01,05,A1,
3193468,00000408,false,Rx,0,8,00,41,33,0A,FF,FF,05,7D,
3193724,00000410,false,Rx,0,8,33,00,AA,40,00,FF,05,23,
3194002,00000411,false,Rx,0,8,32,60,00,00,00,00,00,00,
3194277,00000022,false,Rx,0,8,FF,FF,FF,FF,00,00,05,05,
3197193,00000231,false,Rx,0,8,00,01,00,00,00,00,0C,0D,
3197396,00000517,false,Rx,0,8,00,00,00,00,00,00,00,00,
3208171,00000231,false,Rx,0,8,00,01,00,00,00,00,0D,0C,
3208449,00000517,false,Rx,0,8,01,00,00,00,00,00,00,00,
3214200,00000400,false,Rx,0,8,00,0B,5E,F0,00,01,06,A2,
3214450,00000408,false,Rx,0,8,00,41,33,0A,FF,FF,06,7E,
3214701,00000410,false,Rx,0,8,33,00,AA,41,00,FF,06,21,
3214978,00000411,false,Rx,0,8,32,60,00,00,00,00,00,00,
3215250,00000022,false,Rx,0,8,FF,FF,FF,FF,00,00,06,06,
3219149,00000231,false,Rx,0,8,00,01,00,00,00,00,0E,0F,
3219424,00000517,false,Rx,0,8,01,00,00,00,00,00,00,00,
3230124,00000231,false,Rx,0,8,00,01,00,00,00,00,00,01,
3230427,00000517,false,Rx,0,8,00,00,00,00,00,00,00,00,
3235212,00000400,false,Rx,0,8,00,0B,5E,F0,00,01,07,A3,
3235451,00000408,false,Rx,0,8,00,41,33,0A,FF,FF,07,7F,
3235727,00000410,false,Rx,0,8,33,00,AA,41,00,FF,07,20,
3236002,00000411,false,Rx,0,8,32,60,00,00,00,00,00,00,
3236275,00000022,false,Rx,0,8,FF,FF,FF,FF,00,00,07,07,
3241151,00000231,false,Rx,0,8,00,01,00,00,00,00,00,01,
3241425,00000517,false,Rx,0,8,00,00,00,00,00,00,00,00,
3243155,00000332,false,Rx,0,8,01,00,00,00,00,00,07,06,
3243424,00000530,false,Rx,0,8,FF,FF,79,86,16,11,1E,00,
3252150,00000231,false,Rx,0,8,00,01,00,00,00,00,02,03,
3252425,00000517,false,Rx,0,8,01,00,00,00,00,00,00,00,
3256198,00000400,false,Rx,0,8,00,0B,5E,F0,00,01,08,AC,
3256449,00000408,false,Rx,0,8,00,41,33,0A,FF,FF,08,70,
3256701,00000410,false,Rx,0,8,33,00,AA,41,00,FF,08,2F,
3256977,00000411,false,Rx,0,8,32,60,00,00,00,00,00,00,
3257247,00000022,false,Rx,0,8,FF,FF,FF,FF,00,00,08,08,
3263145,00000231,false,Rx,0,8,00,01,00,00,00,00,03,02,
3263420,00000517,false,Rx,0,8,00,00,00,00,00,00,00,00,
3274137,00000231,false,Rx,0,8,00,01,00,00,00,00,04,05,
3274406,00000517,false,Rx,0,8,00,00,00,00,00,00,00,00,
3277178,00000400,false,Rx,0,8,00,0B,5E,F0,00,01,09,AD,
3277443,00000408,false,Rx,0,8,00,41,33,0A,FF,FF,09,71,
3277694,00000410,false,Rx,0,8,33,00,AA,41,00,FF,09,2E,
3277995,00000411,false,Rx,0,8,32,60,00,00,00,00,00,00,
3278243,00000022,false,Rx,0,8,FF,FF,FF,FF,00,00,09,09,
3285152,00000231,false,Rx,0,8,00,01,00,00,00,00,05,04,
3285394,00000517,false,Rx,0,8,01,00,00,00,00,00,00,00,
3296146,00000231,false,Rx,0,8,00,01,00,00,00,00,06,07,
3296417,00000517,false,Rx,0,8,01,00,00,00,00,00,00,00,
3298192,00000400,false,Rx,0,8,00,0B,5E,F0,00,01,0A,AE,
3298446,00000408,false,Rx,0,8,00,41,33,0A,FF,FF,0A,72,
3298719,00000410,false,Rx,0,8,33,00,AA,50,00,FF,0A,3C,
3299020,00000411,false,Rx,0,8,32,60,00,00,00,00,00,00,
3299268,00000022,false,Rx,0,8,FF,FF,FF,FF,00,00,0A,0A,
3307143,00000231,false,Rx,0,8,00,01,00,00,00,00,07,06,
3307395,00000517,false,Rx,0,8,00,00,00,00,00,00,00,00,
3318161,00000231,false,Rx,0,8,00,01,00,00,00,00,08,09,
3318431,00000517,false,Rx,0,8,00,00,00,00,00,00,00,00,
3319246,00000400,false,Rx,0,8,00,0B,5E,F0,00,01,0B,AF,
3319420,00000408,false,Rx,0,8,00,41,33,0A,FF,FF,0B,73,
3319776,00000410,false,Rx,0,8,33,00,AA,50,00,FF,0B,3D,
3319943,00000411,false,Rx,0,8,32,60,00,00,00,00,00,00,
3320306,00000022,false,Rx,0,8,FF,FF,FF,FF,00,00,0B,0B,
3329440,00000231,false,Rx,0,8,00,01,00,00,00,00,09,08,
3329472,00000517,false,Rx,0,8,01,00,00,00,00,00,00,00,
3340417,00000231,false,Rx,0,8,00,01,00,00,00,00,0A,0B,
3340461,00000400,false,Rx,0,8,00,0B,5E,F0,00,01,0C,A8,
3340759,00000408,false,Rx,0,8,00,41,33,0A,FF,FF,0C,74,
3341010,00000410,false,Rx,0,8,33,00,AA,50,00,FF,0C,3A,
3341390,00000411,false,Rx,0,8,32,60,00,00,00,00,00,00,
3341567,00000022,false,Rx,0,8,FF,FF,FF,FF,00,00,0C,0C,
3342206,00000517,false,Rx,0,8,01,00,00,00,00,00,00,00,
3344374,00000332,false,Rx,0,8,01,00,00,00,00,00,08,09,
3344413,00000530,false,Rx,0,8,FF,FF,79,86,15,11,11,00,
3351370,00000231,false,Rx,0,8,00,01,00,00,00,00,0C,0D,
3351414,00000517,false,Rx,0,8,00,00,00,00,00,00,00,00,
3361435,00000400,false,Rx,0,8,00,0B,5E,F0,00,01,0D,A9,
3361450,00000408,false,Rx,0,8,00,41,33,0A,FF,FF,0D,75,
3361704,00000410,false,Rx,0,8,33,00,AA,50,00,FF,0D,3B,
3362007,00000411,false,Rx,0,8,32,60,00,00,00,00,00,00,
3362255,00000022,false,Rx,0,8,FF,FF,FF,FF,00,00,0D,0D,
3362530,00000231,false,Rx,0,8,00,01,00,00,00,00,0C,0D,
3362805,00000517,false,Rx,0,8,00,00,00,00,00,00,00,00,
3373406,00000231,false,Rx,0,8,00,01,00,00,00,00,0E,0F,
3373455,00000517,false,Rx,0,8,01,00,00,00,00,00,00,00,
3382438,00000400,false,Rx,0,8,00,0B,5E,F0,00,01,0F,AB,
3382480,00000408,false,Rx,0,8,00,41,33,0A,FF,FF,0F,77,
3382742,00000410,false,Rx,0,8,33,00,AA,51,00,FF,0E,39,
3383021,00000411,false,Rx,0,8,32,60,00,00,00,00,00,00,
3383280,00000022,false,Rx,0,8,FF,FF,FF,FF,00,00,0E,0E,
3384344,00000231,false,Rx,0,8,00,01,00,00,00,00,0F,0E,
3384399,00000517,false,Rx,0,8,00,00,00,00,00,00,00,00,
3395374,00000231,false,Rx,0,8,00,01,00,00,00,00,00,01,
3395428,00000517,false,Rx,0,8,00,00,00,00,00,00,00,00,
3403427,00000400,false,Rx,0,8,00,0B,5E,F0,00,01,00,A4,
3403444,00000408,false,Rx,0,8,00,41,33,0A,FF,FF,00,78,
3403717,00000410,false,Rx,0,8,33,00,AA,51,00,FF,0F,38,
3403968,00000411,false,Rx,0,8,32,60,00,00,00,00,00,00,
3404254,00000022,false,Rx,0,8,FF,FF,FF,FF,00,00,0F,0F,
3406338,00000231,false,Rx,0,8,00,01,00,00,00,00,01,00,
3406392,00000517,false,Rx,0,8,01,00,00,00,00,00,00,00,
3417432,00000231,false,Rx,0,8,00,01,00,00,00,00,02,03,
3417448,00000517,false,Rx,0,8,01,00,00,00,00,00,00,00,
3424423,00000400,false,Rx,0,8,00,0B,5E,F0,00,01,01,A5,
3424479,00000408,false,Rx,0,8,00,41,33,0A,FF,FF,01,79,
3424720,00000410,false,Rx,0,8,33,00,AA,51,00,FF,00,37,
3424997,00000411,false,Rx,0,8,32,60,00,00,00,00,00,00,
3425280,00000022,false,Rx,0,8,FF,FF,FF,FF,00,00,00,00,
3428370,00000231,false,Rx,0,8,00,01,00,00,00,00,03,02,
3428422,00000517,false,Rx,0,8,00,00,00,00,00,00,00,00,
3439371,00000231,false,Rx,0,8,00,01,00,00,00,00,04,05,
3439424,00000517,false,Rx,0,8,00,00,00,00,00,00,00,00,
3445231,00000400,false,Rx,0,8,00,0B,5E,F0,00,01,02,A6,
3445461,00000408,false,Rx,0,8,00,41,33,0A,FF,FF,02,7A,
3445759,00000410,false,Rx,0,8,33,00,AA,51,00,FF,01,36,
3446009,00000411,false,Rx,0,8,32,60,00,00,00,00,00,00,
3446302,00000332,false,Rx,0,8,01,00,00,00,00,00,09,08,
3446553,00000022,false,Rx,0,8,FF,FF,FF,FF,00,00,01,01,
3446829,00000530,false,Rx,0,8,FF,FF,79,87,14,11,05,00,
3450186,00000231,false,Rx,0,8,00,01,00,00,00,00,06,07,
3450399,00000517,false,Rx,0,8,01,00,00,00,00,00,00,00,
3461176,00000231,false,Rx,0,8,00,01,00,00,00,00,06,07,
3461402,00000517,false,Rx,0,8,01,00,00,00,00,00,00,00,
3466203,00000400,false,Rx,0,8,00,0B,5E,F0,00,01,03,A7,
3466429,00000408,false,Rx,0,8,00,41,33,0A,FF,FF,03,7B,
3466729,00000410,false,Rx,0,8,33,00,04,61,00,FF,02,AB,
3466980,00000411,false,Rx,0,8,32,60,00,00,00,00,00,00,
3467277,00000022,false,Rx,0,8,FF,FF,FF,FF,00,00,02,02,
3472152,00000231,false,Rx,0,8,00,01,00,00,00,00,08,09,
3472428,00000517,false,Rx,0,8,00,00,00,00,00,00,00,00,
3483137,00000231,false,Rx,0,8,00,01,00,00,00,00,09,08,
3483400,00000517,false,Rx,0,8,01,00,00,00,00,00,00,00,
3487178,00000400,false,Rx,0,8,00,0B,5E,F0,00,01,04,A0,
3487428,00000408,false,Rx,0,8,00,41,33,0A,FF,FF,04,7C,
3487678,00000410,false,Rx,0,8,33,00,04,61,00,FF,03,AA,
3487980,00000411,false,Rx,0,8,32,60,00,00,00,00,00,00,
3488252,00000022,false,Rx,0,8,FF,FF,FF,FF,00,00,03,03,
3494127,00000231,false,Rx,0,8,00,01,00,00,00,00,0A,0B,
3494402,00000517,false,Rx,0,8,01,00,00,00,00,00,00,00,
3505166,00000231,false,Rx,0,8,00,01,00,00,00,00,0B,0A,
3505400,00000517,false,Rx,0,8,00,00,00,00,00,00,00,00,
3508175,00000400,false,Rx,0,8,00,0B,5E,F0,00,01,05,A1,
3508426,00000408,false,Rx,0,8,00,41,33,0A,FF,FF,05,7D,
3508703,00000410,false,Rx,0,8,33,00,04,61,00,FF,04,AD,
3508977,00000411,false,Rx,0,8,32,60,00,00,00,00,00,00,
3509249,00000022,false,Rx,0,8,FF,FF,FF,FF,00,00,04,04,
3516123,00000231,false,Rx,0,8,00,01,00,00,00,00,0C,0D,
3516399,00000517,false,Rx,0,8,00,00,00,00,00,00,00,00,
3527161,00000231,false,Rx,0,8,00,01,00,00,00,00,0D,0C,
3527430,00000517,false,Rx,0,8,01,00,00,00,00,00,00,00,
3529190,00000400,false,Rx,0,8,00,0B,5E,F0,00,01,06,A2,
3529424,00000408,false,Rx,0,8,00,41,33,0A,FF,FF,06,7E,
3529700,00000410,false,Rx,0,8,33,00,04,61,00,FF,05,AC,
3529976,00000411,false,Rx,0,8,32,60,00,00,00,00,00,00,
3530250,00000022,false,Rx,0,8,FF,FF,FF,FF,00,00,05,05,
3538154,00000231,false,Rx,0,8,00,01,00,00,00,00,0E,0F,
3538425,00000517,false,Rx,0,8,01,00,00,00,00,00,00,00,
3546129,00000332,false,Rx,0,8,01,00,00,00,00,00,0A,0B,
3546399,00000530,false,Rx,0,8,FF,FF,79,87,13,10,F9,00,
3549135,00000231,false,Rx,0,8,00,01,00,00,00,00,0F,0E,
3549398,00000517,false,Rx,0,8,00,00,00,00,00,00,00,00,
3550173,00000400,false,Rx,0,8,00,0B,5E,F0,00,01,07,A3,
3550474,00000408,false,Rx,0,8,00,41,33,0A,FF,FF,07,7F,
3550725,00000410,false,Rx,0,8,33,00,06,29,00,FF,07,E4,
3551027,00000411,false,Rx,0,8,32,60,00,00,00,00,00,00,
3551274,00000022,false,Rx,0,8,FF,FF,FF,FF,00,00,07,07,
3560125,00000231,false,Rx,0,8,00,01,00,00,00,00,00,01,
3560399,00000517,false,Rx,0,8,00,00,00,00,00,00,00,00,
3571215,00000231,false,Rx,0,8,00,01,00,00,00,00,02,03,
3571450,00000400,false,Rx,0,8,00,0B,5E,F0,00,01,08,AC,
3571727,00000408,false,Rx,0,8,00,41,33,0A,FF,FF,08,70,
3572003,00000410,false,Rx,0,8,33,00,06,29,00,FF,08,EB,
3572274,00000411,false,Rx,0,8,32,60,00,00,00,00,00,00,
3572550,00000022,false,Rx,0,8,FF,FF,FF,FF,00,00,08,08,
3572827,00000517,false,Rx,0,8,01,00,00,00,00,00,00,00,
3582367,00000231,false,Rx,0,8,00,01,00,00,00,00,03,02,
3582448,00000517,false,Rx,0,8,00,00,00,00,00,00,00,00,
3592544,00000400,false,Rx,0,8,00,0B,5E,F0,00,01,09,AD,
3592557,00000408,false,Rx,0,8,00,41,33,0A,FF,FF,09,71,
3592674,00000410,false,Rx,0,8,33,00,06,29,00,FF,09,EA,
3592983,00000411,false,Rx,0,8,32,60,00,00,00,00,00,00,
3593250,00000022,false,Rx,0,8,FF,FF,FF,FF,00,00,09,09,
3593595,00000231,false,Rx,0,8,00,01,00,00,00,00,04,05,
3593775,00000517,false,Rx,0,8,00,00,00,00,00,00,00,00,
3604379,00000231,false,Rx,0,8,00,01,00,00,00,00,05,04,
3604434,00000517,false,Rx,0,8,01,00,00,00,00,00,00,00,
3613207,00000400,false,Rx,0,8,00,0B,5E,F0,00,01,0A,AE,
3613449,00000408,false,Rx,0,8,00,41,33,0A,FF,FF,0A,72,
3613773,00000410,false,Rx,0,8,33,00,AA,20,00,FF,0A,4C,
3613951,00000411,false,Rx,0,8,32,60,00,00,00,00,00,00,
3614324,00000022,false,Rx,0,8,FF,FF,FF,FF,00,00,0A,0A,
3615355,00000231,false,Rx,0,8,00,01,00,00,00,00,06,07,
3615449,00000517,false,Rx,0,8,01,00,00,00,00,00,00,00,
3626373,00000231,false,Rx,0,8,00,01,00,00,00,00,07,06,
3626446,00000517,false,Rx,0,8,00,00,00,00,00,00,00,00,
3634426,00000400,false,Rx,0,8,00,0B,5E,F0,00,01,0B,AF,
3634439,00000408,false,Rx,0,8,00,41,33,0A,FF,FF,0B,73,
3634696,00000410,false,Rx,0,8,33,00,AA,20,00,FF,0B,4D,
3635003,00000411,false,Rx,0,8,32,60,00,00,00,00,00,00,
3635257,00000022,false,Rx,0,8,FF,FF,FF,FF,00,00,0B,0B,
3637152,00000231,false,Rx,0,8,00,01,00,00,00,00,08,09,
3637433,00000517,false,Rx,0,8,00,00,00,00,00,00,00,00,
3647381,00000332,false,Rx,0,8,01,00,00,00,00,00,0B,0A,
3647447,00000530,false,Rx,0,8,FF,FF,79,87,11,10,EC,00,
3648424,00000231,false,Rx,0,8,00,01,00,00,00,00,09,08,
3648440,00000517,false,Rx,0,8,01,00,00,00,00,00,00,00,
3655429,00000400,false,Rx,0,8,00,0B,5E,F0,00,01,0C,A8,
3655444,00000408,false,Rx,0,8,00,41,33,0A,FF,FF,0C,74,
3655693,00000410,false,Rx,0,8,33,00,AA,20,00,FF,0C,4A,
3655999,00000411,false,Rx,0,8,32,60,00,00,00,00,00,00,
3656258,00000022,false,Rx,0,8,FF,FF,FF,FF,00,00,0C,0C,
3659373,00000231,false,Rx,0,8,00,01,00,00,00,00,0A,0B,
3659447,00000517,false,Rx,0,8,01,00,00,00,00,00,00,00,
3670374,00000231,false,Rx,0,8,00,01,00,00,00,00,0C,0D,
3670449,00000517,false,Rx,0,8,00,00,00,00,00,00,00,00,
3676429,00000400,false,Rx,0,8,00,0B,5E,F0,00,01,0D,A9,
3676446,00000408,false,Rx,0,8,00,41,33,0A,FF,FF,0D,75,
3676669,00000410,false,Rx,0,8,2F,00,AA,20,00,FF,0D,57,
3676976,00000411,false,Rx,0,8,32,60,00,00,00,00,00,00,
3677256,00000022,false,Rx,0,8,FF,FF,FF,FF,00,00,0D,0D,
3681417,00000231,false,Rx,0,8,00,01,00,00,00,00,0C,0D,
3681433,00000517,false,Rx,0,8,00,00,00,00,00,00,00,00,
3692373,00000231,false,Rx,0,8,00,01,00,00,00,00,0E,0F,
3692446,00000517,false,Rx,0,8,01,00,00,00,00,00,00,00,
3697219,00000400,false,Rx,0,8,00,0B,5E,F0,00,01,0E,AA,
3697405,00000408,false,Rx,0,8,00,41,33,0A,FF,FF,0E,76,
3697707,00000410,false,Rx,0,8,2F,00,AA,21,00,FF,0E,55,
3697986,00000411,false,Rx,0,8,32,60,00,00,00,00,00,00,
3698285,00000022,false,Rx,0,8,FF,FF,FF,FF,00,00,0E,0E,
3703164,00000231,false,Rx,0,8,00,01,00,00,00,00,0F,0E,
3703407,00000517,false,Rx,0,8,00,00,00,00,00,00,00,00,
3714165,00000231,false,Rx,0,8,00,01,00,00,00,00,00,01,
3714432,00000517,false,Rx,0,8,00,00,00,00,00,00,00,00,
3718206,00000400,false,Rx,0,8,00,0B,5E,F0,00,01,0F,AB,
3718457,00000408,false,Rx,0,8,00,41,33,0A,FF,FF,0F,77,
3718708,00000410,false,Rx,0,8,2F,00,AA,21,00,FF,0F,54,
3719009,00000411,false,Rx,0,8,32,60,00,00,00,00,00,00,
3719281,00000022,false,Rx,0,8,FF,FF,FF,FF,00,00,0F,0F,
3725193,00000231,false,Rx,0,8,00,01,00,00,00,00,01,00,
3725434,00000517,false,Rx,0,8,01,00,00,00,00,00,00,00,
3736199,00000231,false,Rx,0,8,00,01,00,00,00,00,02,03,
3736406,00000517,false,Rx,0,8,01,00,00,00,00,00,00,00,
3739180,00000400,false,Rx,0,8,00,0B,5E,F0,00,01,00,A4,
3739432,00000408,false,Rx,0,8,00,41,33,0A,FF,FF,00,78,
3739683,00000410,false,Rx,0,8,2F,00,AA,21,00,FF,00,5B,
3739986,00000411,false,Rx,0,8,32,60,00,00,00,00,00,00,
3740231,00000022,false,Rx,0,8,FF,FF,FF,FF,00,00,00,00,
3747130,00000231,false,Rx,0,8,00,01,00,00,00,00,03,02,
3747404,00000517,false,Rx,0,8,00,00,00,00,00,00,00,00,
3748130,00000332,false,Rx,0,8,01,00,00,00,00,00,0C,0D,
3748379,00000530,false,Rx,0,8,FF,FF,79,87,10,10,E0,00,
3758127,00000231,false,Rx,0,8,00,01,00,00,00,00,04,05,
3758402,00000517,false,Rx,0,8,00,00,00,00,00,00,00,00,
3760177,00000400,false,Rx,0,8,00,0B,5E,F0,00,01,01,A5,
3760427,00000408,false,Rx,0,8,00,41,33,0A,FF,FF,01,79,
3760703,00000410,false,Rx,0,8,2F,00,AA,21,00,FF,01,5A,
3760979,00000411,false,Rx,0,8,32,60,00,00,00,00,00,00,
3761277,00000022,false,Rx,0,8,FF,FF,FF,FF,00,00,01,01,
3769156,00000231,false,Rx,0,8,00,01,00,00,00,00,05,04,
3769425,00000517,false,Rx,0,8,01,00,00,00,00,00,00,00,
3780137,00000231,false,Rx,0,8,00,01,00,00,00,00,06,07,
3780426,00000517,false,Rx,0,8,01,00,00,00,00,00,00,00,
3781177,00000400,false,Rx,0,8,00,0B,5E,F0,00,01,02,A6,
3781422,00000408,false,Rx,0,8,00,41,33,0A,FF,FF,02,7A,
3781695,00000410,false,Rx,0,8,33,00,AA,30,00,FF,02,54,
3781993,00000411,false,Rx,0,8,32,60,00,00,00,00,00,00,
3782246,00000022,false,Rx,0,8,FF,FF,FF,FF,00,00,02,02,
3791119,00000231,false,Rx,0,8,00,01,00,00,00,00,08,09,
3791408,00000517,false,Rx,0,8,00,00,00,00,00,00,00,00,
3802180,00000231,false,Rx,0,8,00,01,00,00,00,00,09,08,
3802452,00000400,false,Rx,0,8,00,0B,5E,F0,00,01,04,A0,
3802727,00000408,false,Rx,0,8,00,41,33,0A,FF,FF,04,7C,
3802978,00000410,false,Rx,0,8,33,00,AA,30,00,FF,03,55,
3803276,00000411,false,Rx,0,8,32,60,00,00,00,00,00,00,
3803527,00000022,false,Rx,0,8,FF,FF,FF,FF,00,00,03,03,
3803803,00000517,false,Rx,0,8,01,00,00,00,00,00,00,00,
3813140,00000231,false,Rx,0,8,00,01,00,00,00,00,0A,0B,
3813400,00000517,false,Rx,0,8,01,00,00,00,00,00,00,00,
3823262,00000400,false,Rx,0,8,00,0B,5E,F0,00,01,05,A1,
3823454,00000408,false,Rx,0,8,00,41,33,0A,FF,FF,05,7D,
3823732,00000410,false,Rx,0,8,33,00,AA,30,00,FF,04,52,
3824006,00000411,false,Rx,0,8,32,60,00,00,00,00,00,00,
3824279,00000022,false,Rx,0,8,FF,FF,FF,FF,00,00,04,04,
3824530,00000231,false,Rx,0,8,00,01,00,00,00,00,0B,0A,
3824783,00000517,false,Rx,0,8,00,00,00,00,00,00,00,00,
3835366,00000231,false,Rx,0,8,00,01,00,00,00,00,0C,0D,
3835415,00000517,false,Rx,0,8,00,00,00,00,00,00,00,00,
3844420,00000400,false,Rx,0,8,00,0B,5E,F0,00,01,06,A2,
3844461,00000408,false,Rx,0,8,00,41,33,0A,FF,FF,06,7E,
3844718,00000410,false,Rx,0,8,33,00,AA,30,00,FF,05,53,
3845077,00000411,false,Rx,0,8,32,60,00,00,00,00,00,00,
3845277,00000022,false,Rx,0,8,FF,FF,FF,FF,00,00,05,05,
3846420,00000231,false,Rx,0,8,00,01,00,00,00,00,0D,0C,
3846459,00000517,false,Rx,0,8,01,00,00,00,00,00,00,00,
3849409,00000332,false,Rx,0,8,01,00,00,00,00,00,0D,0C,
3849424,00000530,false,Rx,0,8,FF,FF,79,87,10,10,DA,00,
3857417,00000231,false,Rx,0,8,00,01,00,00,00,00,0E,0F,
3857433,00000517,false,Rx,0,8,01,00,00,00,00,00,00,00,
3865387,00000400,false,Rx,0,8,00,0B,5E,F0,00,01,07,A3,
3865431,00000408,false,Rx,0,8,00,41,33,0A,FF,FF,07,7F,
3865731,00000410,false,Rx,0,8,33,00,AA,31,00,FF,06,51,
3865982,00000411,false,Rx,0,8,32,60,00,00,00,00,00,00,
3866288,00000022,false,Rx,0,8,FF,FF,FF,FF,00,00,06,06,
3868364,00000231,false,Rx,0,8,00,01,00,00,00,00,0F,0E,
3868409,00000517,false,Rx,0,8,00,00,00,00,00,00,00,00,
3879368,00000231,false,Rx,0,8,00,01,00,00,00,00,00,01,
3879414,00000517,false,Rx,0,8,00,00,00,00,00,00,00,00,
3886430,00000400,false,Rx,0,8,00,0B,5E,F0,00,01,08,AC,
3886445,00000408,false,Rx,0,8,00,41,33,0A,FF,FF,08,70,
3886722,00000410,false,Rx,0,8,33,00,AA,31,00,FF,07,50,
3887000,00000411,false,Rx,0,8,32,60,00,00,00,00,00,00,
3887259,00000022,false,Rx,0,8,FF,FF,FF,FF,00,00,07,07,
3890372,00000231,false,Rx,0,8,00,01,00,00,00,00,02,03,
3890425,00000517,false,Rx,0,8,01,00,00,00,00,00,00,00,
3901228,00000231,false,Rx,0,8,00,01,00,00,00,00,02,03,
3901409,00000517,false,Rx,0,8,01,00,00,00,00,00,00,00,
3907436,00000400,false,Rx,0,8,00,0B,5E,F0,00,01,09,AD,
3907452,00000408,false,Rx,0,8,00,41,33,0A,FF,FF,09,71,
3907724,00000410,false,Rx,0,8,33,00,AA,31,00,FF,08,5F,
3908003,00000411,false,Rx,0,8,32,60,00,00,00,00,00,00,
3908287,00000022,false,Rx,0,8,FF,FF,FF,FF,00,00,08,08,
3912378,00000231,false,Rx,0,8,00,01,00,00,00,00,04,05,
3912429,00000517,false,Rx,0,8,00,00,00,00,00,00,00,00,
3923379,00000231,false,Rx,0,8,00,01,00,00,00,00,05,04,
3923434,00000517,false,Rx,0,8,01,00,00,00,00,00,00,00,
3928208,00000400,false,Rx,0,8,00,0B,5E,F0,00,01,0A,AE,
3928433,00000408,false,Rx,0,8,00,41,33,0A,FF,FF,0A,72,
3928711,00000410,false,Rx,0,8,33,00,AA,31,00,FF,09,5E,
3928984,00000411,false,Rx,0,8,32,60,00,00,00,00,00,00,
3929258,00000022,false,Rx,0,8,FF,FF,FF,FF,00,00,09,09,
3934375,00000231,false,Rx,0,8,00,01,00,00,00,00,06,07,
3934427,00000517,false,Rx,0,8,01,00,00,00,00,00,00,00,
3945211,00000231,false,Rx,0,8,00,01,00,00,00,00,07,06,
3945408,00000517,false,Rx,0,8,00,00,00,00,00,00,00,00,
3949203,00000400,false,Rx,0,8,00,0B,5E,F0,00,01,0B,AF,
3949433,00000408,false,Rx,0,8,00,41,33,0A,FF,FF,0B,73,
3949685,00000410,false,Rx,0,8,33,00,AA,40,00,FF,0A,2C,
3949983,00000411,false,Rx,0,8,32,60,00,00,00,00,00,00,
3950281,00000022,false,Rx,0,8,FF,FF,FF,FF,00,00,0A,0A,
3950556,00000332,false,Rx,0,8,01,00,00,00,00,00,0E,0F,
3950831,00000530,false,Rx,0,8,FF,FF,79,87,0E,10,CE,00,
3956160,00000231,false,Rx,0,8,00,01,00,00,00,00,08,09,
3956408,00000517,false,Rx,0,8,00,00,00,00,00,00,00,00,
3967132,00000231,false,Rx,0,8,00,01,00,00,00,00,09,08,
3967407,00000517,false,Rx,0,8,01,00,00,00,00,00,00,00,
3970182,00000400,false,Rx,0,8,00,0B,5E,F0,00,01,0C,A8,
3970433,00000408,false,Rx,0,8,00,41,33,0A,FF,FF,0C,74,
3970684,00000410,false,Rx,0,8,33,00,AA,40,00,FF,0C,2A,
3970960,00000411,false,Rx,0,8,32,60,00,00,00,00,00,00,
3971257,00000022,false,Rx,0,8,FF,FF,FF,FF,00,00,0C,0C,
3978132,00000231,false,Rx,0,8,00,01,00,00,00,00,0A,0B,
3978407,00000517,false,Rx,0,8,01,00,00,00,00,00,00,00,
3989179,00000231,false,Rx,0,8,00,01,00,00,00,00,0B,0A,
3989444,00000517,false,Rx,0,8,00,00,00,00,00,00,00,00,
3991212,00000400,false,Rx,0,8,00,0B,5E,F0,00,01,0D,A9,
3991411,00000408,false,Rx,0,8,00,41,33,0A,FF,FF,0D,75,
3991713,00000410,false,Rx,0,8,33,00,AA,40,00,FF,0D,2B,
3991990,00000411,false,Rx,0,8,32,60,00,00,00,00,00,00,
3992261,00000022,false,Rx,0,8,FF,FF,FF,FF,00,00,0D,0D,
4000210,00000231,false,Rx,0,8,00,01,00,00,00,00,0C,0D,
4000440,00000517,false,Rx,0,8,00,00,00,00,00,00,00,00,
4011160,00000231,false,Rx,0,8,00,01,00,00,00,00,0E,0F,
4011431,00000517,false,Rx,0,8,01,00,00,00,00,00,00,00,
4012205,00000400,false,Rx,0,8,00,0B,5E,F0,00,01,0E,AA,
4012433,00000408,false,Rx,0,8,00,41,33,0A,FF,FF,0E,76,
4012707,00000410,false,Rx,0,8,33,00,AA,41,00,FF,0E,29,
4012984,00000411,false,Rx,0,8,32,60,00,00,00,00,00,00,
4013293,00000022,false,Rx,0,8,FF,FF,FF,FF,00,00,0E,0E,
4022146,00000231,false,Rx,0,8,00,01,00,00,00,00,0F,0E,
4022402,00000517,false,Rx,0,8,00,00,00,00,00,00,00,00,
4033245,00000231,false,Rx,0,8,00,01,00,00,00,00,00,01,
4033480,00000400,false,Rx,0,8,00,0B,5E,F0,00,01,0F,AB,
4033756,00000408,false,Rx,0,8,00,41,33,0A,FF,FF,0F,77,
4033992,00000410,false,Rx,0,8,33,00,AA,41,00,FF,0F,28,
4034280,00000411,false,Rx,0,8,32,60,00,00,00,00,00,00,
4034559,00000022,false,Rx,0,8,FF,FF,FF,FF,00,00,0F,0F,
4034857,00000517,false,Rx,0,8,00,00,00,00,00,00,00,00,
4044146,00000231,false,Rx,0,8,00,01,00,00,00,00,01,00,
4044459,00000517,false,Rx,0,8,01,00,00,00,00,00,00,00,
4051155,00000332,false,Rx,0,8,01,00,00,00,00,00,0F,0E,
4051405,00000530,false,Rx,0,8,FF,FF,79,87,0E,10,C8,00,
4054206,00000400,false,Rx,0,8,00,0B,5E,F0,00,01,00,A4,
4054457,00000408,false,Rx,0,8,00,41,33,0A,FF,FF,00,78,
4054732,00000410,false,Rx,0,8,33,00,AA,41,00,FF,00,27,
4055007,00000411,false,Rx,0,8,32,60,00,00,00,00,00,00,
4055257,00000022,false,Rx,0,8,FF,FF,FF,FF,00,00,00,00,
4055567,00000231,false,Rx,0,8,00,01,00,00,00,00,02,03,
4055831,00000517,false,Rx,0,8,01,00,00,00,00,00,00,00,
4066154,00000231,false,Rx,0,8,00,01,00,00,00,00,03,02,
4066426,00000517,false,Rx,0,8,00,00,00,00,00,00,00,00,
4075259,00000400,false,Rx,0,8,00,0B,5E,F0,00,01,01,A5,
4075428,00000408,false,Rx,0,8,00,41,33,0A,FF,FF,01,79,
4075715,00000410,false,Rx,0,8,33,00,AA,41,00,FF,01,26,
4076339,00000411,false,Rx,0,8,32,60,00,00,00,00,00,00,
4076354,00000022,false,Rx,0,8,FF,FF,FF,FF,00,00,01,01,
4077415,00000231,false,Rx,0,8,00,01,00,00,00,00,04,05,
4077429,00000517,false,Rx,0,8,00,00,00,00,00,00,00,00,
4088400,00000231,false,Rx,0,8,00,01,00,00,00,00,05,04,
4088437,00000517,false,Rx,0,8,01,00,00,00,00,00,00,00,
4096434,00000400,false,Rx,0,8,00,0B,5E,F0,00,01,02,A6,
4096448,00000408,false,Rx,0,8,00,41,33,0A,FF,FF,02,7A,
4096746,00000410,false,Rx,0,8,33,00,AA,50,00,FF,02,34,
4097071,00000411,false,Rx,0,8,32,60,00,00,00,00,00,00,
4097281,00000022,false,Rx,0,8,FF,FF,FF,FF,00,00,02,02,
4099433,00000231,false,Rx,0,8,00,01,00,00,00,00,06,07,
4099446,00000517,false,Rx,0,8,01,00,00,00,00,00,00,00,
4110205,00000231,false,Rx,0,8,00,01,00,00,00,00,08,09,
4110408,00000517,false,Rx,0,8,00,00,00,00,00,00,00,00,
4117435,00000400,false,Rx,0,8,00,0B,5E,F0,00,01,03,A7,
4117449,00000408,false,Rx,0,8,00,41,33,0A,FF,FF,03,7B,
4117716,00000410,false,Rx,0,8,33,00,AA,50,00,FF,03,35,
4118319,00000411,false,Rx,0,8,32,60,00,00,00,00,00,00,
4118332,00000022,false,Rx,0,8,FF,FF,FF,FF,00,00,03,03,
4121385,00000231,false,Rx,0,8,00,01,00,00,00,00,08,09,
4121448,00000517,false,Rx,0,8,00,00,00,00,00,00,00,00,
4132374,00000231,false,Rx,0,8,00,01,00,00,00,00,0A,0B,
4132474,00000517,false,Rx,0,8,01,00,00,00,00,00,00,00,
4138442,00000400,false,Rx,0,8,00,0B,5E,F0,00,01,04,A0,
4138507,00000408,false,Rx,0,8,00,41,33,0A,FF,FF,04,7C,
4138701,00000410,false,Rx,0,8,33,00,AA,50,00,FF,04,32,
4139011,00000411,false,Rx,0,8,32,60,00,00,00,00,00,00,
4139291,00000022,false,Rx,0,8,FF,FF,FF,FF,00,00,04,04,
4143379,00000231,false,Rx,0,8,00,01,00,00,00,00,0A,0B,
4143453,00000517,false,Rx,0,8,01,00,00,00,00,00,00,00,
