(0000000000.089161) vcan0 103#0200020000000505
(0000000000.094161) vcan0 122#D32300CA1CBB079A
(0000000000.099161) vcan0 110#0000007B01050B74
(0000000000.104161) vcan0 300#00000D8C00660000
(0000000000.109161) vcan0 308#0012000000008200
(0000000000.114161) vcan0 316#13AD01274E000000
(0000000000.119161) vcan0 320#20000000F0008200
(0000000000.124161) vcan0 342#03C2999994000390
(0000000000.129161) vcan0 516#0000000000000000
(0000000000.134161) vcan0 010#00FF613000000CA2
(0000000000.139161) vcan0 012#9999320000000E3C
(0000000000.144161) vcan0 231#0001000000000908
(0000000000.149161) vcan0 517#0100000000000000
(0000000000.154161) vcan0 102#0000195051CD06D3
(0000000000.159161) vcan0 103#0200020000000606
(0000000000.164161) vcan0 122#D32300CA1CBB0895
(0000000000.169161) vcan0 010#00FF613000000DA3
(0000000000.174161) vcan0 400#000B56F000010CA0
(0000000000.179161) vcan0 408#0041330AFFFF0C74
(0000000000.184161) vcan0 410#3B00AA3100FF0C53
(0000000000.189161) vcan0 411#3260000000000000
(0000000000.194161) vcan0 022#FFFFFFFF00000C0C
(0000000000.199161) vcan0 231#0001000000000A0B
(0000000000.204161) vcan0 517#0100000000000000
(0000000000.209161) vcan0 102#0000195051CD07D2
(0000000000.214161) vcan0 103#0200020000000707
(0000000000.219161) vcan0 122#D32300CA1CBB0994
(0000000000.224161) vcan0 110#0000007B01050C73
(0000000000.229161) vcan0 308#0012000000008200
(0000000000.234161) vcan0 300#00000D8C00660000
(0000000000.239161) vcan0 316#13AD01274E000000
(0000000000.244161) vcan0 320#20000000F0008200
(0000000000.249161) vcan0 342#03C2999994000390
(0000000000.254161) vcan0 516#0000000000000000
(0000000000.259161) vcan0 010#00FF613000000EA0
(0000000000.264161) vcan0 012#9999320001000F3C
(0000000000.269161) vcan0 013#FF01090000000000
(0000000000.274161) vcan0 231#0001000000000B0A
(0000000000.279161) vcan0 517#0000000000000000
(0000000000.284161) vcan0 102#0000195051CD08DD
(0000000000.289161) vcan0 103#0200020000000808
(0000000000.294161) vcan0 122#D32300CA1CBB0A97
(0000000000.299161) vcan0 010#00FF613000000FA1
(0000000000.304161) vcan0 400#000B56F000010DA1
(0000000000.309161) vcan0 408#0041330AFFFF0D75
(0000000000.314161) vcan0 410#3B00AA3100FF0D52
(0000000000.319161) vcan0 411#3260000000000000
(0000000000.324161) vcan0 022#FFFFFFFF00000D0D
(0000000000.329161) vcan0 102#0000195051CD09DC
(0000000000.334161) vcan0 103#0200020000000909
(0000000000.339161) vcan0 122#D32300CA1CBB0B96
(0000000000.344161) vcan0 110#0000007B01050D72
(0000000000.349161) vcan0 231#0001000000000C0D
(0000000000.354161) vcan0 300#00000D8C00660000
(0000000000.359161) vcan0 308#0012000000008200
(0000000000.364161) vcan0 316#13AD01274E000000
(0000000000.369161) vcan0 320#20000000F0008200
(0000000000.374161) vcan0 342#03C2999994000390
(0000000000.379161) vcan0 516#0000000000000000
(0000000000.384161) vcan0 517#0000000000000000
(0000000000.389161) vcan0 010#00FF6130000000AE
(0000000000.394161) vcan0 012#9999320000000032
(0000000000.399161) vcan0 102#0000195051CD0ADF
(0000000000.404161) vcan0 103#0200020000000A0A
(0000000000.409161) vcan0 122#D32300CA1CBB0C91
(0000000000.414161) vcan0 231#0001000000000D0C
(0000000000.419161) vcan0 517#0100000000000000
(0000000000.424161) vcan0 400#000B56F000010EA2
(0000000000.429161) vcan0 408#0041330AFFFF0E76
(0000000000.434161) vcan0 010#00FF6130000001AF
(0000000000.439161) vcan0 410#3B00AA3100FF0E51
(0000000000.444161) vcan0 411#3260000000000000
(0000000000.449161) vcan0 022#FFFFFFFF00000E0E
(0000000000.454161) vcan0 102#0000195051CD0BDE
(0000000000.459161) vcan0 103#0200020000000B0B
(0000000000.464161) vcan0 122#D32300CA1CBB0D90
(0000000000.469161) vcan0 110#0000007B01050E71
(0000000000.474161) vcan0 308#0012000000008200
(0000000000.479161) vcan0 300#00000D8C00660000
(0000000000.484161) vcan0 316#13AD01274E000000
(0000000000.489161) vcan0 320#20000000F0008200
(0000000000.494161) vcan0 342#03C2999994000390
(0000000000.499161) vcan0 231#0001000000000E0F
(0000000000.504161) vcan0 516#0000000000000000
(0000000000.509161) vcan0 517#0100000000000000
(0000000000.514161) vcan0 010#00FF6130000002AC
(0000000000.519161) vcan0 012#9999320001000132
(0000000000.524161) vcan0 102#0000195051CD0CD9
(0000000000.529161) vcan0 103#0200020000000C0C
(0000000000.534161) vcan0 122#D32300CA1CBB0E93
(0000000000.539161) vcan0 231#0001000000000001
(0000000000.544161) vcan0 517#0000000000000000
(0000000000.549161) vcan0 400#000B56F000010FA3
(0000000000.554161) vcan0 408#0041330AFFFF0F77
(0000000000.559161) vcan0 410#3B00AA3100FF0F50
(0000000000.564161) vcan0 411#3260000000000000
(0000000000.569161) vcan0 022#FFFFFFFF00000F0F
(0000000000.574161) vcan0 010#00FF6130000003AD
(0000000000.579161) vcan0 013#FF01090000000000
(0000000000.584161) vcan0 102#0000195051CD0DD8
(0000000000.589161) vcan0 103#0200020000000D0D
(0000000000.594161) vcan0 122#D32300CA1CBB0F92
(0000000000.599161) vcan0 110#0000007B01050F70
(0000000000.604161) vcan0 300#00000D8C00660000
(0000000000.609161) vcan0 308#0012000000008200
(0000000000.614161) vcan0 316#13AD01274E000000
(0000000000.619161) vcan0 320#20000000F0008200
(0000000000.624161) vcan0 332#0100000000000504
(0000000000.629161) vcan0 342#03C2999994000390
(0000000000.634161) vcan0 516#0000000000000000
(0000000000.639161) vcan0 530#FFFF6A5164044900
(0000000000.644161) vcan0 231#0001000000000001
(0000000000.649161) vcan0 517#0000000000000000
(0000000000.654161) vcan0 102#0000195051CD0EDB
(0000000000.659161) vcan0 103#0200020000000E0E
(0000000000.664161) vcan0 122#D32300CA1CBB009D
(0000000000.669161) vcan0 010#00FF6130000004AA
(0000000000.674161) vcan0 012#9999320000000230
(0000000000.679161) vcan0 231#0001000000000203
(0000000000.684161) vcan0 517#0100000000000000
(0000000000.689161) vcan0 400#000B56F0000100AC
(0000000000.694161) vcan0 408#0041330AFFFF0078
(0000000000.699161) vcan0 410#3B00C40000FF0000
(0000000000.704161) vcan0 102#0000195051CD0FDA
(0000000000.709161) vcan0 103#0200020000000F0F
(0000000000.714161) vcan0 122#D32300CA1CBB019C
(0000000000.719161) vcan0 411#3260000000000000
(0000000000.724161) vcan0 110#0000007B0105007F
(0000000000.729161) vcan0 022#FFFFFFFF00000000
(0000000000.734161) vcan0 300#00000D8C00660000
(0000000000.739161) vcan0 010#00FF6130000005AB
(0000000000.744161) vcan0 308#0012000000008200
(0000000000.749161) vcan0 316#13AD01274E000000
(0000000000.754161) vcan0 320#20000000F0008200
(0000000000.759161) vcan0 342#03C2999994000390
(0000000000.764161) vcan0 516#0000000000000000
(0000000000.769161) vcan0 231#0001000000000203
(0000000000.774161) vcan0 517#0100000000000000
(0000000000.779161) vcan0 102#0000195051CD00D5
(0000000000.784161) vcan0 103#0200020000000000
(0000000000.789161) vcan0 122#D32300CA1CBB029F
(0000000000.794161) vcan0 010#00FF6130000006A8
(0000000000.799161) vcan0 012#9999320001000330
(0000000000.804161) vcan0 231#0001000000000405
(0000000000.809161) vcan0 517#0000000000000000
(0000000000.814161) vcan0 102#0000195051CD01D4
(0000000000.819161) vcan0 103#0200020000000101
(0000000000.824161) vcan0 122#D32300CA1CBB039E
(0000000000.829161) vcan0 110#0000007B0105017E
(0000000000.834161) vcan0 300#00000D8C00660000
(0000000000.839161) vcan0 308#0012000000008200
(0000000000.844161) vcan0 316#13AD01274E000000
(0000000000.849161) vcan0 320#20000000F0008200
(0000000000.854161) vcan0 342#03C2999994000390
(0000000000.859161) vcan0 400#000B56F0000101AD
(0000000000.864161) vcan0 516#0000000000000000
(0000000000.869161) vcan0 408#0041330AFFFF0179
(0000000000.874161) vcan0 410#3B00C40000FF0101
(0000000000.879161) vcan0 411#3260000000000000
(0000000000.884161) vcan0 022#FFFFFFFF00000101
(0000000000.889161) vcan0 010#00FF6130000007A9
(0000000000.894161) vcan0 231#0001000000000504
(0000000000.899161) vcan0 517#0100000000000000
(0000000000.904161) vcan0 102#0000195051CD02D7
(0000000000.909161) vcan0 103#0200020000000202
(0000000000.914161) vcan0 122#D32300CA1CBB0499
(0000000000.919161) vcan0 010#00FF6130000008A6
(0000000000.924161) vcan0 012#9999320000000436
(0000000000.929161) vcan0 013#FF01090000000000
(0000000000.934161) vcan0 231#0001000000000607
(0000000000.939161) vcan0 517#0100000000000000
(0000000000.944161) vcan0 102#0000195051CD03D6
(0000000000.949161) vcan0 103#0200020000000303
(0000000000.954161) vcan0 122#D32300CA1CBB0598
(0000000000.959161) vcan0 110#0000007B0105027D
(0000000000.964161) vcan0 308#0012000000008200
(0000000000.969161) vcan0 300#00000D8C00660000
(0000000000.974161) vcan0 316#13AD01274E000000
(0000000000.979161) vcan0 320#20000000F0008200
(0000000000.984161) vcan0 342#03C2999994000390
(0000000000.989161) vcan0 400#000B56F0000102AE
(0000000000.994161) vcan0 516#0000000000000000
(0000000000.999161) vcan0 408#0041330AFFFF027A
(0000000001.004161) vcan0 410#3B00C40000FF0202
(0000000001.009161) vcan0 411#3260000000000000
(0000000001.014161) vcan0 022#FFFFFFFF00000202
(0000000001.019161) vcan0 010#00FF6130000009A7
(0000000001.024161) vcan0 102#0000195051CD04D1
(0000000001.029161) vcan0 103#0200020000000404
(0000000001.034161) vcan0 122#D32300CA1CBB069B
(0000000001.039161) vcan0 231#0001000000000706
(0000000001.044161) vcan0 517#0000000000000000
(0000000001.049161) vcan0 010#00FF613000000AA4
(0000000001.054161) vcan0 012#9999320001000536
(0000000001.059161) vcan0 102#0000195051CD05D0
(0000000001.064161) vcan0 103#0200020000000505
(0000000001.069161) vcan0 122#D32300CA1CBB079A
(0000000001.074161) vcan0 110#0000007B0105037C
(0000000001.079161) vcan0 300#00000D8C00660000
(0000000001.084161) vcan0 308#0012000000008200
(0000000001.089161) vcan0 231#0001000000000809
(0000000001.094161) vcan0 316#13AD01274E000000
(0000000001.099161) vcan0 320#20000000F0008200
(0000000001.104161) vcan0 342#03C2999994000390
(0000000001.109161) vcan0 516#0000000000000000
(0000000001.114161) vcan0 517#0000000000000000
(0000000001.119161) vcan0 400#000B56F0000103AF
(0000000001.124161) vcan0 408#0041330AFFFF037B
(0000000001.129161) vcan0 410#3B00C40000FF0303
(0000000001.134161) vcan0 411#3260000000000000
(0000000001.139161) vcan0 022#FFFFFFFF00000303
(0000000001.144161) vcan0 010#00FF613000000BA5
(0000000001.149161) vcan0 102#0000195051CD06D3
(0000000001.154161) vcan0 103#0200020000000606
(0000000001.159161) vcan0 122#D32300CA1CBB0895
(0000000001.164161) vcan0 231#0001000000000908
(0000000001.169161) vcan0 517#0100000000000000
(0000000001.174161) vcan0 010#00FF613000000CA2
(0000000001.179161) vcan0 012#9999320000000634
(0000000001.184161) vcan0 102#0000195051CD07D2
(0000000001.189161) vcan0 103#0200020000000707
(0000000001.194161) vcan0 122#D32300CA1CBB0994
(0000000001.199161) vcan0 110#0000007B0105047B
(0000000001.204161) vcan0 308#0012000000008200
(0000000001.209161) vcan0 300#00000D8C00660000
(0000000001.214161) vcan0 316#13AD01274E000000
(0000000001.219161) vcan0 320#20000000F0008200
(0000000001.224161) vcan0 332#0100000000000607
(0000000001.229161) vcan0 342#03C2999994000390
(0000000001.234161) vcan0 516#0000000000000000
(0000000001.239161) vcan0 530#FFFF6A5164044900
(0000000001.244161) vcan0 231#0001000000000A0B
(0000000001.249161) vcan0 400#000B56F0000104A8
(0000000001.254161) vcan0 408#0041330AFFFF047C
(0000000001.259161) vcan0 410#3B00AA3000FF045A
(0000000001.264161) vcan0 411#3260000000000000
(0000000001.269161) vcan0 022#FFFFFFFF00000404
(0000000001.274161) vcan0 517#0100000000000000
(0000000001.279161) vcan0 010#00FF613000000DA3
(0000000001.284161) vcan0 013#FF01090000000000
(0000000001.289161) vcan0 102#0000195051CD08DD
(0000000001.294161) vcan0 103#0200020000000808
(0000000001.299161) vcan0 122#D32300CA1CBB0A97
(0000000001.304161) vcan0 231#0001000000000C0D
(0000000001.309161) vcan0 517#0000000000000000
(0000000001.314161) vcan0 102#0000195051CD09DC
(0000000001.319161) vcan0 103#0200020000000909
(0000000001.324161) vcan0 122#D32300CA1CBB0B96
(0000000001.329161) vcan0 010#00FF613000000EA0
(0000000001.334161) vcan0 110#0000007B0105057A
(0000000001.339161) vcan0 012#9999320001000734
(0000000001.344161) vcan0 300#00000D8C00660000
(0000000001.349161) vcan0 308#0012000000008200
(0000000001.354161) vcan0 316#13AD01274E000000
(0000000001.359161) vcan0 320#20000000F0008200
(0000000001.364161) vcan0 342#03C2999994000390
(0000000001.369161) vcan0 516#0000000000000000
(0000000001.374161) vcan0 400#000B56F0000105A9
(0000000001.379161) vcan0 408#0041330AFFFF057D
(0000000001.384161) vcan0 410#3B00AA3000FF055B
(0000000001.389161) vcan0 411#3260000000000000
(0000000001.394161) vcan0 022#FFFFFFFF00000505
(0000000001.399161) vcan0 231#0001000000000C0D
(0000000001.404161) vcan0 517#0000000000000000
(0000000001.409161) vcan0 102#0000195051CD0ADF
(0000000001.414161) vcan0 103#0200020000000A0A
(0000000001.419161) vcan0 122#D32300CA1CBB0C91
(0000000001.424161) vcan0 010#00FF613000000FA1
(0000000001.429161) vcan0 231#0001000000000E0F
(0000000001.434161) vcan0 517#0100000000000000
(0000000001.439161) vcan0 102#0000195051CD0BDE
(0000000001.444161) vcan0 103#0200020000000B0B
(0000000001.449161) vcan0 122#D32300CA1CBB0D90
(0000000001.454161) vcan0 110#0000007B01050679
(0000000001.459161) vcan0 308#0012000000008200
(0000000001.464161) vcan0 300#00000D8C00660000
(0000000001.469161) vcan0 316#13AD01274E000000
(0000000001.474161) vcan0 320#20000000F0008200
(0000000001.479161) vcan0 342#03C2999994000390
(0000000001.484161) vcan0 516#0000000000000000
(0000000001.489161) vcan0 010#00FF6130000000AE
(0000000001.494161) vcan0 012#999932000000083A
(0000000001.499161) vcan0 400#000B56F0000106AA
(0000000001.504161) vcan0 408#0041330AFFFF067E
(0000000001.509161) vcan0 410#3B00AA3000FF0658
(0000000001.514161) vcan0 411#3260000000000000
(0000000001.519161) vcan0 022#FFFFFFFF00000606
(0000000001.524161) vcan0 231#0001000000000F0E
(0000000001.529161) vcan0 517#0000000000000000
(0000000001.534161) vcan0 102#0000195051CD0CD9
(0000000001.539161) vcan0 103#0200020000000C0C
(0000000001.544161) vcan0 122#D32300CA1CBB0E93
(0000000001.549161) vcan0 010#00FF6130000001AF
(0000000001.554161) vcan0 231#0001000000000001
(0000000001.559161) vcan0 517#0000000000000000
(0000000001.564161) vcan0 102#0000195051CD0DD8
(0000000001.569161) vcan0 103#0200020000000D0D
(0000000001.574161) vcan0 122#D32300CA1CBB0F92
(0000000001.579161) vcan0 110#0000007B01050778
(0000000001.584161) vcan0 300#00000D8C00660000
(0000000001.589161) vcan0 308#0012000000008200
(0000000001.594161) vcan0 316#13AD01274E000000
(0000000001.599161) vcan0 320#20000000F0008200
(0000000001.604161) vcan0 342#03C2999994000390
(0000000001.609161) vcan0 516#0000000000000000
(0000000001.614161) vcan0 010#00FF6130000002AC
(0000000001.619161) vcan0 012#999932000100093A
(0000000001.624161) vcan0 013#FF01090000000000
(0000000001.629161) vcan0 400#000B56F0000107AB
(0000000001.634161) vcan0 408#0041330AFFFF077F
(0000000001.639161) vcan0 410#3B00AA3000FF0759
(0000000001.644161) vcan0 411#3260000000000000
(0000000001.649161) vcan0 022#FFFFFFFF00000707
(0000000001.654161) vcan0 231#0001000000000100
(0000000001.659161) vcan0 517#0100000000000000
(0000000001.664161) vcan0 102#0000195051CD0EDB
(0000000001.669161) vcan0 103#0200020000000E0E
(0000000001.674161) vcan0 122#D32300CA1CBB009D
(0000000001.679161) vcan0 010#00FF6130000003AD
(0000000001.684161) vcan0 102#0000195051CD0FDA
(0000000001.689161) vcan0 103#0200020000000F0F
(0000000001.694161) vcan0 122#D32300CA1CBB019C
(0000000001.699161) vcan0 231#0001000000000203
(0000000001.704161) vcan0 110#0000007B01050877
(0000000001.709161) vcan0 300#00000D8C00660000
(0000000001.714161) vcan0 308#0012000000008200
(0000000001.719161) vcan0 316#13AD01274E000000
(0000000001.724161) vcan0 320#20000000F0008200
(0000000001.729161) vcan0 342#03C2999994000390
(0000000001.734161) vcan0 516#0000000000000000
(0000000001.739161) vcan0 517#0100000000000000
(0000000001.744161) vcan0 010#00FF6130000004AA
(0000000001.749161) vcan0 012#9999320000000A38
(0000000001.754161) vcan0 400#000B56F0000109A5
(0000000001.759161) vcan0 408#0041330AFFFF0870
(0000000001.764161) vcan0 410#3B00AA3100FF0857
(0000000001.769161) vcan0 411#3260000000000000
(0000000001.774161) vcan0 022#FFFFFFFF00000808
(0000000001.779161) vcan0 102#0000195051CD00D5
(0000000001.784161) vcan0 103#0200020000000000
(0000000001.789161) vcan0 122#D32300CA1CBB029F
(0000000001.794161) vcan0 231#0001000000000302
(0000000001.799161) vcan0 517#0000000000000000
(0000000001.804161) vcan0 010#00FF6130000005AB
(0000000001.809161) vcan0 102#0000195051CD01D4
(0000000001.814161) vcan0 103#0200020000000101
(0000000001.819161) vcan0 122#D32300CA1CBB039E
(0000000001.824161) vcan0 110#0000007B01050976
(0000000001.829161) vcan0 300#00000D8C00660000
(0000000001.834161) vcan0 308#0012000000008200
(0000000001.839161) vcan0 316#13AD01274E000000
(0000000001.844161) vcan0 320#20000000F0008200
(0000000001.849161) vcan0 342#03C2999994000390
(0000000001.854161) vcan0 516#0000000000000000
(0000000001.859161) vcan0 231#0001000000000405
(0000000001.864161) vcan0 332#0100000000000706
(0000000001.869161) vcan0 517#0000000000000000
(0000000001.874161) vcan0 530#FFFF6A5164044900
(0000000001.879161) vcan0 400#000B56F000010AA6
(0000000001.884161) vcan0 408#0041330AFFFF0A72
(0000000001.889161) vcan0 010#00FF6130000006A8
(0000000001.894161) vcan0 410#3B00AA3100FF0956
(0000000001.899161) vcan0 012#9999320001000B38
(0000000001.904161) vcan0 411#3260000000000000
(0000000001.909161) vcan0 022#FFFFFFFF00000909
(0000000001.914161) vcan0 102#0000195051CD02D7
(0000000001.919161) vcan0 103#0200020000000202
(0000000001.924161) vcan0 122#D32300CA1CBB0499
(0000000001.929161) vcan0 231#0001000000000607
(0000000001.934161) vcan0 517#0100000000000000
(0000000001.939161) vcan0 010#00FF6130000007A9
(0000000001.944161) vcan0 013#FF01090000000000
(0000000001.949161) vcan0 102#0000195051CD03D6
(0000000001.954161) vcan0 103#0200020000000303
(0000000001.959161) vcan0 122#D32300CA1CBB0598
(0000000001.964161) vcan0 110#0000007B01050A75
(0000000001.969161) vcan0 308#0012000000008200
(0000000001.974161) vcan0 300#00000D8C00660000
(0000000001.979161) vcan0 316#13AD01274E000000
(0000000001.984161) vcan0 320#20000000F0008200
(0000000001.989161) vcan0 342#03C2999994000390
(0000000001.994161) vcan0 516#0000000000000000
(0000000001.999161) vcan0 231#0001000000000607
(0000000002.004161) vcan0 517#0100000000000000
(0000000002.009161) vcan0 400#000B56F000010BA7
(0000000002.014161) vcan0 408#0041330AFFFF0B73
(0000000002.019161) vcan0 410#3B00AA3100FF0A55
(0000000002.024161) vcan0 102#0000195051CD04D1
(0000000002.029161) vcan0 103#0200020000000404
(0000000002.034161) vcan0 122#D32300CA1CBB069B
(0000000002.039161) vcan0 010#00FF6130000008A6
(0000000002.044161) vcan0 411#3260000000000000
(0000000002.049161) vcan0 012#9999320000000C3E
(0000000002.054161) vcan0 022#FFFFFFFF00000A0A
(0000000002.059161) vcan0 231#0001000000000809
(0000000002.064161) vcan0 517#0000000000000000
(0000000002.069161) vcan0 102#0000195051CD05D0
(0000000002.074161) vcan0 103#0200020000000505
(0000000002.079161) vcan0 122#D32300CA1CBB079A
(0000000002.084161) vcan0 110#0000007B01050B74
(0000000002.089161) vcan0 300#00000D8C00660000
(0000000002.094161) vcan0 308#0012000000008200
(0000000002.099161) vcan0 316#13AD01274E000000
(0000000002.104161) vcan0 010#00FF6130000009A7
(0000000002.109161) vcan0 320#20000000F0008200
(0000000002.114161) vcan0 342#03C2999994000390
(0000000002.119161) vcan0 516#0000000000000000
(0000000002.124161) vcan0 231#0001000000000908
(0000000002.129161) vcan0 517#0000000000000000
(0000000002.134161) vcan0 102#0000195051CD06D3
(0000000002.139161) vcan0 103#0200020000000606
(0000000002.144161) vcan0 122#D32300CA1CBB0895
(0000000002.149161) vcan0 400#000B56F000010CA0
(0000000002.154161) vcan0 408#0041330AFFFF0C74
(0000000002.159161) vcan0 410#3B00AA3100FF0B54
(0000000002.164161) vcan0 411#3260000000000000
(0000000002.169161) vcan0 022#FFFFFFFF00000B0B
(0000000002.174161) vcan0 010#00FF613000000AA4
(0000000002.179161) vcan0 012#9999320001000D3E
(0000000002.184161) vcan0 231#0001000000000A0B
(0000000002.189161) vcan0 517#0100000000000000
(0000000002.194161) vcan0 102#0000195051CD07D2
(0000000002.199161) vcan0 103#0200020000000707
(0000000002.204161) vcan0 122#D32300CA1CBB0994
(0000000002.209161) vcan0 110#0000007B01050C73
(0000000002.214161) vcan0 308#0012000000008200
(0000000002.219161) vcan0 300#00000D8C00660000
(0000000002.224161) vcan0 316#13AD01274E000000
(0000000002.229161) vcan0 320#20000000F0008200
(0000000002.234161) vcan0 342#03C2999994000390
(0000000002.239161) vcan0 516#0000000000000000
(0000000002.244161) vcan0 010#00FF613000000BA5
(0000000002.249161) vcan0 231#0001000000000B0A
(0000000002.254161) vcan0 517#0000000000000000
(0000000002.259161) vcan0 102#0000195051CD08DD
(0000000002.264161) vcan0 103#0200020000000808
(0000000002.269161) vcan0 122#D32300CA1CBB0A97
(0000000002.274161) vcan0 400#000B56F000010DA1
(0000000002.279161) vcan0 408#0041330AFFFF0D75
(0000000002.284161) vcan0 410#3B00C40000FF0C0C
(0000000002.289161) vcan0 411#3260000000000000
(0000000002.294161) vcan0 022#FFFFFFFF00000C0C
(0000000002.299161) vcan0 010#00FF613000000CA2
(0000000002.304161) vcan0 012#9999320000000E3C
(0000000002.309161) vcan0 013#FF01090000000000
(0000000002.314161) vcan0 231#0001000000000C0D
(0000000002.319161) vcan0 517#0000000000000000
(0000000002.324161) vcan0 102#0000195051CD09DC
(0000000002.329161) vcan0 103#0200020000000909
(0000000002.334161) vcan0 122#D32300CA1CBB0B96
(0000000002.339161) vcan0 110#0000007B01050D72
(0000000002.344161) vcan0 300#00000D8C00660000
(0000000002.349161) vcan0 308#0012000000008200
(0000000002.354161) vcan0 316#13AD01274E000000
(0000000002.359161) vcan0 320#20000000F0008200
(0000000002.364161) vcan0 342#03C2999994000390
(0000000002.369161) vcan0 516#0000000000000000
(0000000002.374161) vcan0 010#00FF613000000DA3
(0000000002.379161) vcan0 102#0000195051CD0ADF
(0000000002.384161) vcan0 103#0200020000000A0A
(0000000002.389161) vcan0 122#D32300CA1CBB0C91
(0000000002.394161) vcan0 231#0001000000000D0C
(0000000002.399161) vcan0 517#0100000000000000
(0000000002.404161) vcan0 400#000B56F000010EA2
(0000000002.409161) vcan0 408#0041330AFFFF0E76
(0000000002.414161) vcan0 410#3B00C40000FF0D0D
(0000000002.419161) vcan0 411#3260000000000000
(0000000002.424161) vcan0 022#FFFFFFFF00000D0D
(0000000002.429161) vcan0 010#00FF613000000EA0
(0000000002.434161) vcan0 012#9999320001000F3C
(0000000002.439161) vcan0 102#0000195051CD0BDE
(0000000002.444161) vcan0 103#0200020000000B0B
(0000000002.449161) vcan0 122#D32300CA1CBB0D90
(0000000002.454161) vcan0 110#0000007B01050E71
(0000000002.459161) vcan0 308#0012000000008200
(0000000002.464161) vcan0 231#0001000000000E0F
(0000000002.469161) vcan0 300#00000D8C00660000
(0000000002.474161) vcan0 316#13AD01274E000000
(0000000002.479161) vcan0 320#20000000F0008200
(0000000002.484161) vcan0 342#03C2999994000390
(0000000002.489161) vcan0 516#0000000000000000
(0000000002.494161) vcan0 517#0100000000000000
(0000000002.499161) vcan0 332#0100000000000809
(0000000002.504161) vcan0 530#FFFF6A5164044900
(0000000002.509161) vcan0 010#00FF613000000FA1
(0000000002.514161) vcan0 102#0000195051CD0CD9
(0000000002.519161) vcan0 103#0200020000000C0C
(0000000002.524161) vcan0 122#D32300CA1CBB0E93
(0000000002.529161) vcan0 231#0001000000000F0E
(0000000002.534161) vcan0 517#0000000000000000
(0000000002.539161) vcan0 400#000B56F000010FA3
(0000000002.544161) vcan0 408#0041330AFFFF0F77
(0000000002.549161) vcan0 410#3B00C40000FF0F0F
(0000000002.554161) vcan0 411#3260000000000000
(0000000002.559161) vcan0 022#FFFFFFFF00000F0F
(0000000002.564161) vcan0 010#00FF6130000000AE
(0000000002.569161) vcan0 012#9999320000000032
(0000000002.574161) vcan0 102#0000195051CD0DD8
(0000000002.579161) vcan0 103#0200020000000D0D
(0000000002.584161) vcan0 122#D32300CA1CBB0F92
(0000000002.589161) vcan0 110#0000007B01050F70
(0000000002.594161) vcan0 300#00000D8C00660000
(0000000002.599161) vcan0 308#0012000000008200
(0000000002.604161) vcan0 316#13AD01274E000000
(0000000002.609161) vcan0 320#20000000F0008200
(0000000002.614161) vcan0 342#03C2999994000390
(0000000002.619161) vcan0 516#0000000000000000
(0000000002.624161) vcan0 231#0001000000000001
(0000000002.629161) vcan0 517#0000000000000000
(0000000002.634161) vcan0 010#00FF6130000001AF
(0000000002.639161) vcan0 013#FF01090000000000
(0000000002.644161) vcan0 102#0000195051CD0EDB
(0000000002.649161) vcan0 103#0200020000000E0E
(0000000002.654161) vcan0 122#D32300CA1CBB009D
(0000000002.659161) vcan0 231#0001000000000203
(0000000002.664161) vcan0 400#000B56F0000100AC
(0000000002.669161) vcan0 408#0041330AFFFF0078
(0000000002.674161) vcan0 410#3B00AA3000FF005E
(0000000002.679161) vcan0 411#3260000000000000
(0000000002.684161) vcan0 022#FFFFFFFF00000000
(0000000002.689161) vcan0 517#0100000000000000
(0000000002.694161) vcan0 102#0000195051CD0FDA
(0000000002.699161) vcan0 103#0200020000000F0F
(0000000002.704161) vcan0 122#D32300CA1CBB019C
(0000000002.709161) vcan0 010#00FF6130000002AC
(0000000002.714161) vcan0 110#0000007B0105007F
(0000000002.719161) vcan0 012#9999320001000132
(0000000002.724161) vcan0 300#00000D8C00660000
(0000000002.729161) vcan0 308#0012000000008200
(0000000002.734161) vcan0 316#13AD01274E000000
(0000000002.739161) vcan0 320#20000000F0008200
(0000000002.744161) vcan0 342#03C2999994000390
(0000000002.749161) vcan0 516#0000000000000000
(0000000002.754161) vcan0 231#0001000000000203
(0000000002.759161) vcan0 517#0100000000000000
(0000000002.764161) vcan0 102#0000195051CD00D5
(0000000002.769161) vcan0 103#0200020000000000
(0000000002.774161) vcan0 122#D32300CA1CBB029F
(0000000002.779161) vcan0 010#00FF6130000003AD
(0000000002.784161) vcan0 400#000B56F0000101AD
(0000000002.789161) vcan0 408#0041330AFFFF0179
(0000000002.794161) vcan0 410#3B00AA3000FF015F
(0000000002.799161) vcan0 411#3260000000000000
(0000000002.804161) vcan0 022#FFFFFFFF00000101
(0000000002.809161) vcan0 231#0001000000000405
(0000000002.814161) vcan0 517#0000000000000000
(0000000002.819161) vcan0 102#0000195051CD01D4
(0000000002.824161) vcan0 103#0200020000000101
(0000000002.829161) vcan0 122#D32300CA1CBB039E
(0000000002.834161) vcan0 110#0000007B0105017E
(0000000002.839161) vcan0 300#00000D8C00660000
(0000000002.844161) vcan0 308#0012000000008200
(0000000002.849161) vcan0 316#13AD01274E000000
(0000000002.854161) vcan0 320#20000000F0008200
(0000000002.859161) vcan0 342#03C2999994000390
(0000000002.864161) vcan0 516#0000000000000000
(0000000002.869161) vcan0 010#00FF6130000004AA
(0000000002.874161) vcan0 012#9999320000000230
(0000000002.879161) vcan0 231#0001000000000405
(0000000002.884161) vcan0 517#0000000000000000
(0000000002.889161) vcan0 102#0000195051CD02D7
(0000000002.894161) vcan0 103#0200020000000202
(0000000002.899161) vcan0 122#D32300CA1CBB0499
(0000000002.904161) vcan0 010#00FF6130000005AB
(0000000002.909161) vcan0 400#000B56F0000102AE
(0000000002.914161) vcan0 408#0041330AFFFF027A
(0000000002.919161) vcan0 410#3B00AA3000FF025C
(0000000002.924161) vcan0 411#3260000000000000
(0000000002.929161) vcan0 022#FFFFFFFF00000202
(0000000002.934161) vcan0 231#0001000000000607
(0000000002.939161) vcan0 517#0100000000000000
(0000000002.944161) vcan0 102#0000195051CD03D6
(0000000002.949161) vcan0 103#0200020000000303
(0000000002.954161) vcan0 122#D32300CA1CBB0598
(0000000002.959161) vcan0 110#0000007B0105027D
(0000000002.964161) vcan0 308#0012000000008200
(0000000002.969161) vcan0 300#00000D8C00660000
(0000000002.974161) vcan0 316#13AD01274E000000
(0000000002.979161) vcan0 320#20000000F0008200
(0000000002.984161) vcan0 342#03C2999994000390
(0000000002.989161) vcan0 516#0000000000000000
(0000000002.994161) vcan0 010#00FF6130000006A8
(0000000002.999161) vcan0 012#9999320001000330
(0000000003.004161) vcan0 013#FF01090000000000
(0000000003.009161) vcan0 231#0001000000000706
(0000000003.014161) vcan0 517#0000000000000000
(0000000003.019161) vcan0 102#0000195051CD04D1
(0000000003.024161) vcan0 103#0200020000000404
(0000000003.029161) vcan0 122#D32300CA1CBB069B
(0000000003.034161) vcan0 010#00FF6130000007A9
(0000000003.039161) vcan0 400#000B56F0000103AF
(0000000003.044161) vcan0 408#0041330AFFFF037B
(0000000003.049161) vcan0 410#3B00AA3000FF035D
(0000000003.054161) vcan0 411#3260000000000000
(0000000003.059161) vcan0 022#FFFFFFFF00000303
(0000000003.064161) vcan0 102#0000195051CD05D0
(0000000003.069161) vcan0 103#0200020000000505
(0000000003.074161) vcan0 122#D32300CA1CBB079A
(0000000003.079161) vcan0 110#0000007B0105037C
(0000000003.084161) vcan0 231#0001000000000809
(0000000003.089161) vcan0 300#00000D8C00660000
(0000000003.094161) vcan0 308#0012000000008200
(0000000003.099161) vcan0 316#13AD01274E000000
(0000000003.104161) vcan0 320#20000000F0008200
(0000000003.109161) vcan0 342#03C2999994000390
(0000000003.114161) vcan0 516#0000000000000000
(0000000003.119161) vcan0 517#0000000000000000
(0000000003.124161) vcan0 332#0100000000000908
(0000000003.129161) vcan0 530#FFFF6A5164044900
(0000000003.134161) vcan0 010#00FF6130000008A6
(0000000003.139161) vcan0 012#9999320000000436
(0000000003.144161) vcan0 102#0000195051CD06D3
(0000000003.149161) vcan0 103#0200020000000606
(0000000003.154161) vcan0 122#D32300CA1CBB0895
(0000000003.159161) vcan0 231#0001000000000908
(0000000003.164161) vcan0 517#0100000000000000
(0000000003.169161) vcan0 010#00FF6130000009A7
(0000000003.174161) vcan0 400#000B56F0000104A8
(0000000003.179161) vcan0 408#0041330AFFFF047C
(0000000003.184161) vcan0 410#3B00AA3100FF045B
(0000000003.189161) vcan0 411#3260000000000000
(0000000003.194161) vcan0 022#FFFFFFFF00000404
(0000000003.199161) vcan0 102#0000195051CD07D2
(0000000003.204161) vcan0 103#0200020000000707
(0000000003.209161) vcan0 122#D32300CA1CBB0994
(0000000003.214161) vcan0 110#0000007B0105047B
(0000000003.219161) vcan0 308#0012000000008200
(0000000003.224161) vcan0 300#00000D8C00660000
(0000000003.229161) vcan0 316#13AD01274E000000
(0000000003.234161) vcan0 320#20000000F0008200
(0000000003.239161) vcan0 342#03C2999994000390
(0000000003.244161) vcan0 231#0001000000000A0B
(0000000003.249161) vcan0 516#0000000000000000
(0000000003.254161) vcan0 517#0100000000000000
(0000000003.259161) vcan0 010#00FF613000000AA4
(0000000003.264161) vcan0 012#9999320001000536
(0000000003.269161) vcan0 102#0000195051CD08DD
(0000000003.274161) vcan0 103#0200020000000808
(0000000003.279161) vcan0 122#D32300CA1CBB0A97
(0000000003.284161) vcan0 231#0001000000000C0D
(0000000003.289161) vcan0 517#0000000000000000
(0000000003.294161) vcan0 400#000B56F0000105A9
(0000000003.299161) vcan0 010#00FF613000000BA5
(0000000003.304161) vcan0 408#0041330AFFFF057D
(0000000003.309161) vcan0 013#FF01090000000000
(0000000003.314161) vcan0 102#0000195051CD09DC
(0000000003.319161) vcan0 103#0200020000000909
(0000000003.324161) vcan0 122#D32300CA1CBB0B96
(0000000003.329161) vcan0 110#0000007B0105057A
(0000000003.334161) vcan0 300#00000D8C00660000
(0000000003.339161) vcan0 308#0012000000008200
(0000000003.344161) vcan0 316#13AD01274E000000
(0000000003.349161) vcan0 320#20000000F0008200
(0000000003.354161) vcan0 342#03C2999994000390
(0000000003.359161) vcan0 410#3B00AA3100FF055A
(0000000003.364161) vcan0 516#0000000000000000
(0000000003.369161) vcan0 411#3260000000000000
(0000000003.374161) vcan0 022#FFFFFFFF00000505
(0000000003.379161) vcan0 231#0001000000000C0D
(0000000003.384161) vcan0 517#0000000000000000
(0000000003.389161) vcan0 102#0000195051CD0ADF
(0000000003.394161) vcan0 103#0200020000000A0A
(0000000003.399161) vcan0 010#00FF613000000CA2
(0000000003.404161) vcan0 122#D32300CA1CBB0C91
(0000000003.409161) vcan0 012#9999320000000634
(0000000003.414161) vcan0 231#0002000000000E0C
(0000000003.419161) vcan0 517#0100000000000000
(0000000003.424161) vcan0 102#0000195051CD0BDE
(0000000003.429161) vcan0 103#0200020000000B0B
(0000000003.434161) vcan0 122#D32300CA1CBB0D90
(0000000003.439161) vcan0 400#000B56F0000106AA
(0000000003.444161) vcan0 110#0000007B01050679
(0000000003.449161) vcan0 300#00000D8C00660000
(0000000003.454161) vcan0 010#00FF613000000DA3
(0000000003.459161) vcan0 308#0012000000008200
(0000000003.464161) vcan0 316#13AD01274E000000
(0000000003.469161) vcan0 320#20000000F0008200
(0000000003.474161) vcan0 342#03C2999994000390
(0000000003.479161) vcan0 408#0041330AFFFF067E
(0000000003.484161) vcan0 516#0000000000000000
(0000000003.489161) vcan0 410#3B00AA3100FF0659
(0000000003.494161) vcan0 411#3260000000000000
(0000000003.499161) vcan0 022#FFFFFFFF00000606
(0000000003.504161) vcan0 231#0002000000000E0C
(0000000003.509161) vcan0 517#0100000000000000
(0000000003.514161) vcan0 102#0000195051CD0CD9
(0000000003.519161) vcan0 103#0200020000000C0C
(0000000003.524161) vcan0 122#D32300CA1CBB0E93
(0000000003.529161) vcan0 010#00FF613000000EA0
(0000000003.534161) vcan0 012#9999320001000734
(0000000003.539161) vcan0 231#0002000000000002
(0000000003.544161) vcan0 517#0000000000000000
(0000000003.549161) vcan0 102#0000195051CD0DD8
(0000000003.554161) vcan0 103#0200020000000D0D
(0000000003.559161) vcan0 122#D32300CA1CBB0F92
(0000000003.564161) vcan0 110#0000007B01050778
(0000000003.569161) vcan0 300#00000D8C00660000
(0000000003.574161) vcan0 308#0012000000008200
(0000000003.579161) vcan0 316#13AD01274E000000
(0000000003.584161) vcan0 320#20000000F0008200
(0000000003.589161) vcan0 342#03C2999994000390
(0000000003.594161) vcan0 400#000B56F0000107AB
(0000000003.599161) vcan0 516#0000000000000000
(0000000003.604161) vcan0 408#0041330AFFFF077F
(0000000003.609161) vcan0 410#3B00AA3100FF0758
(0000000003.614161) vcan0 411#3260000000000000
(0000000003.619161) vcan0 010#00FF613000000FA1
(0000000003.624161) vcan0 022#FFFFFFFF00000707
(0000000003.629161) vcan0 231#0002000000000103
(0000000003.634161) vcan0 517#0100000000000000
(0000000003.639161) vcan0 102#0000195051CD0EDB
(0000000003.644161) vcan0 103#0200020000000E0E
(0000000003.649161) vcan0 122#D32300CA1CBB009D
(0000000003.654161) vcan0 010#00FF6130000000AE
(0000000003.659161) vcan0 012#999932000000083A
(0000000003.664161) vcan0 013#FF01090000000000
(0000000003.669161) vcan0 231#0002000000000200
(0000000003.674161) vcan0 517#0100000000000000
(0000000003.679161) vcan0 102#0000195051CD0FDA
(0000000003.684161) vcan0 103#0200020000000F0F
(0000000003.689161) vcan0 122#D32300CA1CBB019C
(0000000003.694161) vcan0 110#0000007B01050877
(0000000003.699161) vcan0 308#0012000000008200
(0000000003.704161) vcan0 300#00000D8C00660000
(0000000003.709161) vcan0 316#13AD01274E000000
(0000000003.714161) vcan0 320#20000000F0008200
(0000000003.719161) vcan0 342#03C2999994000390
(0000000003.724161) vcan0 400#000B56F0000108A4
(0000000003.729161) vcan0 516#0000000000000000
(0000000003.734161) vcan0 408#0041330AFFFF0870
(0000000003.739161) vcan0 410#3B00C40000FF0808
(0000000003.744161) vcan0 411#3260000000000000
(0000000003.749161) vcan0 022#FFFFFFFF00000808
(0000000003.754161) vcan0 332#0100000000000A0B
(0000000003.759161) vcan0 010#00FF6130000001AF
(0000000003.764161) vcan0 530#FFFF6A5264044900
(0000000003.769161) vcan0 102#0000195051CD00D5
(0000000003.774161) vcan0 103#0200020000000000
(0000000003.779161) vcan0 122#D32300CA1CBB029F
(0000000003.784161) vcan0 231#0002000000000301
(0000000003.789161) vcan0 517#0000000000000000
(0000000003.794161) vcan0 010#00FF6130000002AC
(0000000003.799161) vcan0 012#999932000100093A
(0000000003.804161) vcan0 102#0000195051CD01D4
(0000000003.809161) vcan0 103#0200020000000101
(0000000003.814161) vcan0 122#D32300CA1CBB039E
(0000000003.819161) vcan0 110#0000007B01050976
(0000000003.824161) vcan0 300#00000D8C00660000
(0000000003.829161) vcan0 308#0012000000008200
(0000000003.834161) vcan0 231#0002000000000406
(0000000003.839161) vcan0 316#13AD01274E000000
(0000000003.844161) vcan0 320#20000000F0008200
(0000000003.849161) vcan0 342#03C2999994000390
(0000000003.854161) vcan0 516#0000000000000000
(0000000003.859161) vcan0 517#0000000000000000
(0000000003.864161) vcan0 400#000B56F0000109A5
(0000000003.869161) vcan0 408#0041330AFFFF0971
(0000000003.874161) vcan0 410#3B00C40000FF0909
(0000000003.879161) vcan0 411#3260000000000000
(0000000003.884161) vcan0 022#FFFFFFFF00000909
(0000000003.889161) vcan0 010#00FF6130000003AD
(0000000003.894161) vcan0 102#0000195051CD02D7
(0000000003.899161) vcan0 103#0200020000000202
(0000000003.904161) vcan0 122#D32300CA1CBB0499
(0000000003.909161) vcan0 231#0002000000000507
(0000000003.914161) vcan0 517#0100000000000000
(0000000003.919161) vcan0 010#00FF6130000004AA
(0000000003.924161) vcan0 012#9999320000000A38
(0000000003.929161) vcan0 102#0000195051CD03D6
(0000000003.934161) vcan0 103#0200020000000303
(0000000003.939161) vcan0 122#D32300CA1CBB0598
(0000000003.944161) vcan0 110#0000007B01050A75
(0000000003.949161) vcan0 308#0012000000008200
(0000000003.954161) vcan0 300#00000D8C00660000
(0000000003.959161) vcan0 316#13AD01274E000000
(0000000003.964161) vcan0 320#20000000F0008200
(0000000003.969161) vcan0 342#03C2999994000390
(0000000003.974161) vcan0 516#0000000000000000
(0000000003.979161) vcan0 231#0002000000000604
(0000000003.984161) vcan0 517#0100000000000000
(0000000003.989161) vcan0 400#000B56F000010AA6
(0000000003.994161) vcan0 408#0041330AFFFF0A72
(0000000003.999161) vcan0 410#3B00C40000FF0A0A
(0000000004.004161) vcan0 411#3260000000000000
(0000000004.009161) vcan0 022#FFFFFFFF00000A0A
(0000000004.014161) vcan0 010#00FF6130000005AB
(0000000004.019161) vcan0 013#FF01090000000000
(0000000004.024161) vcan0 102#0000195051CD04D1
(0000000004.029161) vcan0 103#0200020000000404
(0000000004.034161) vcan0 122#D32300CA1CBB069B
(0000000004.039161) vcan0 231#000200000000080A
(0000000004.044161) vcan0 517#0000000000000000
(0000000004.049161) vcan0 102#0000195051CD05D0
(0000000004.054161) vcan0 103#0200020000000505
(0000000004.059161) vcan0 010#00FF6130000006A8
(0000000004.064161) vcan0 122#D32300CA1CBB079A
(0000000004.069161) vcan0 012#9999320001000B38
(0000000004.074161) vcan0 110#0000007B01050B74
(0000000004.079161) vcan0 300#00000D8C00660000
(0000000004.084161) vcan0 308#0012000000008200
(0000000004.089161) vcan0 316#13AD01274E000000
(0000000004.094161) vcan0 320#20000000F0008200
(0000000004.099161) vcan0 342#03C2999994000390
(0000000004.104161) vcan0 516#0000000000000000
(0000000004.109161) vcan0 231#000200000000080A
(0000000004.114161) vcan0 400#000B56F000010BA7
(0000000004.119161) vcan0 408#0041330AFFFF0B73
(0000000004.124161) vcan0 410#3B00C40000FF0B0B
(0000000004.129161) vcan0 411#3260000000000000
(0000000004.134161) vcan0 022#FFFFFFFF00000B0B
(0000000004.139161) vcan0 517#0000000000000000
(0000000004.144161) vcan0 102#0000195051CD06D3
(0000000004.149161) vcan0 103#0200020000000606
(0000000004.154161) vcan0 122#D32300CA1CBB0895
(0000000004.159161) vcan0 010#00FF6130000007A9
(0000000004.164161) vcan0 231#0002000000000A08
(0000000004.169161) vcan0 517#0100000000000000
(0000000004.174161) vcan0 102#0000195051CD07D2
(0000000004.179161) vcan0 103#0200020000000707
(0000000004.184161) vcan0 122#D32300CA1CBB0994
(0000000004.189161) vcan0 110#0000007B01050C73
(0000000004.194161) vcan0 308#0012000000008200
(0000000004.199161) vcan0 300#00000D8C00660000
(0000000004.204161) vcan0 316#13AD01274E000000
(0000000004.209161) vcan0 320#20000000F0008200
(0000000004.214161) vcan0 342#03C2999994000390
(0000000004.219161) vcan0 010#00FF6130000008A6
(0000000004.224161) vcan0 516#0000000000000000
(0000000004.229161) vcan0 012#9999320000000C3E
(0000000004.234161) vcan0 400#000B56F000010CA0
(0000000004.239161) vcan0 408#0041330AFFFF0C74
(0000000004.244161) vcan0 410#3B00AA3000FF0C52
(0000000004.249161) vcan0 411#3260000000000000
(0000000004.254161) vcan0 022#FFFFFFFF00000C0C
(0000000004.259161) vcan0 231#0002000000000A08
(0000000004.264161) vcan0 517#0100000000000000
(0000000004.269161) vcan0 102#0000195051CD08DD
(0000000004.274161) vcan0 103#0200020000000808
(0000000004.279161) vcan0 122#D32300CA1CBB0A97
(0000000004.284161) vcan0 010#00FF6130000009A7
(0000000004.289161) vcan0 231#0002000000000C0E
(0000000004.294161) vcan0 517#0000000000000000
(0000000004.299161) vcan0 102#0000195051CD09DC
(0000000004.304161) vcan0 103#0200020000000909
(0000000004.309161) vcan0 122#D32300CA1CBB0B96
(0000000004.314161) vcan0 110#0000007B01050D72
(0000000004.319161) vcan0 300#00000D8C00660000
(0000000004.324161) vcan0 308#0012000000008200
(0000000004.329161) vcan0 316#13AD01274E000000
(0000000004.334161) vcan0 320#20000000F0008200
(0000000004.339161) vcan0 342#03C2999994000390
(0000000004.344161) vcan0 516#0000000000000000
(0000000004.349161) vcan0 010#00FF613000000AA4
(0000000004.354161) vcan0 012#9999320001000D3E
(0000000004.359161) vcan0 013#FF01090000000000
(0000000004.364161) vcan0 332#0100000000000B0A
(0000000004.369161) vcan0 530#FFFF6A5264044900
(0000000004.374161) vcan0 400#000B56F000010EA2
(0000000004.379161) vcan0 408#0041330AFFFF0E76
(0000000004.384161) vcan0 410#3B00AA3000FF0D53
(0000000004.389161) vcan0 411#3260000000000000
(0000000004.394161) vcan0 022#FFFFFFFF00000D0D
(0000000004.399161) vcan0 231#0002000000000D0F
(0000000004.404161) vcan0 517#0100000000000000
(0000000004.409161) vcan0 102#0000195051CD0ADF
(0000000004.414161) vcan0 103#0200020000000A0A
(0000000004.419161) vcan0 122#D32300CA1CBB0C91
(0000000004.424161) vcan0 010#00FF613000000BA5
(0000000004.429161) vcan0 102#0000195051CD0BDE
(0000000004.434161) vcan0 103#0200020000000B0B
(0000000004.439161) vcan0 122#D32300CA1CBB0D90
(0000000004.444161) vcan0 231#0001000000000E0F
(0000000004.449161) vcan0 110#0000007B01050E71
(0000000004.454161) vcan0 300#00000D8C00660000
(0000000004.459161) vcan0 308#0012000000008200
(0000000004.464161) vcan0 316#13AD01274E000000
(0000000004.469161) vcan0 320#20000000F0008200
(0000000004.474161) vcan0 342#03C2999994000390
(0000000004.479161) vcan0 516#0000000000000000
(0000000004.484161) vcan0 517#0100000000000000
(0000000004.489161) vcan0 010#00FF613000000CA2
(0000000004.494161) vcan0 012#9999320000000E3C
(0000000004.499161) vcan0 400#000B56F000010FA3
(0000000004.504161) vcan0 408#0041330AFFFF0F77
(0000000004.509161) vcan0 410#3B00AA3000FF0E50
(0000000004.514161) vcan0 411#3260000000000000
(0000000004.519161) vcan0 022#FFFFFFFF00000E0E
(0000000004.524161) vcan0 102#0000195051CD0CD9
(0000000004.529161) vcan0 103#0200020000000C0C
(0000000004.534161) vcan0 122#D32300CA1CBB0E93
(0000000004.539161) vcan0 231#0001000000000F0E
(0000000004.544161) vcan0 517#0000000000000000
(0000000004.549161) vcan0 010#00FF613000000DA3
(0000000004.554161) vcan0 102#0000195051CD0DD8
(0000000004.559161) vcan0 103#0200020000000D0D
(0000000004.564161) vcan0 122#D32300CA1CBB0F92
(0000000004.569161) vcan0 110#0000007B01050F70
(0000000004.574161) vcan0 300#00000D8C00660000
(0000000004.579161) vcan0 308#0012000000008200
(0000000004.584161) vcan0 316#13AD01274E000000
(0000000004.589161) vcan0 320#20000000F0008200
(0000000004.594161) vcan0 342#03C2999994000390
(0000000004.599161) vcan0 516#0000000000000000
(0000000004.604161) vcan0 231#0001000000000001
(0000000004.609161) vcan0 517#0000000000000000
(0000000004.614161) vcan0 010#00FF613000000EA0
(0000000004.619161) vcan0 012#9999320001000F3C
(0000000004.624161) vcan0 400#000B56F0000100AC
(0000000004.629161) vcan0 408#0041330AFFFF0078
(0000000004.634161) vcan0 410#3B00AA3000FF0F51
(0000000004.639161) vcan0 102#0000195051CD0EDB
(0000000004.644161) vcan0 103#0200020000000E0E
(0000000004.649161) vcan0 122#D32300CA1CBB009D
(0000000004.654161) vcan0 411#3260000000000000
(0000000004.659161) vcan0 022#FFFFFFFF00000F0F
(0000000004.664161) vcan0 231#0001000000000203
(0000000004.669161) vcan0 517#0100000000000000
(0000000004.674161) vcan0 010#00FF613000000FA1
(0000000004.679161) vcan0 013#FF01090000000000
(0000000004.684161) vcan0 102#0000195051CD0FDA
(0000000004.689161) vcan0 103#0200020000000F0F
(0000000004.694161) vcan0 122#D32300CA1CBB019C
(0000000004.699161) vcan0 110#0000007B0105007F
(0000000004.704161) vcan0 308#0012000000008200
(0000000004.709161) vcan0 300#00000D8C00660000
(0000000004.714161) vcan0 316#13AD01274E000000
(0000000004.719161) vcan0 320#20000000F0008200
(0000000004.724161) vcan0 342#03C2999994000390
(0000000004.729161) vcan0 516#0000000000000000
(0000000004.734161) vcan0 231#0001000000000203
(0000000004.739161) vcan0 517#0100000000000000
(0000000004.744161) vcan0 102#0000195051CD00D5
(0000000004.749161) vcan0 010#00FF6130000000AE
(0000000004.754161) vcan0 103#0200020000000000
(0000000004.759161) vcan0 012#9999320000000032
(0000000004.764161) vcan0 122#D32300CA1CBB029F
(0000000004.769161) vcan0 400#000B56F0000101AD
(0000000004.774161) vcan0 408#0041330AFFFF0179
(0000000004.779161) vcan0 410#3B00AA3100FF005F
(0000000004.784161) vcan0 411#3260000000000000
(0000000004.789161) vcan0 022#FFFFFFFF00000000
(0000000004.794161) vcan0 231#0001000000000405
(0000000004.799161) vcan0 517#0000000000000000
(0000000004.804161) vcan0 102#0000195051CD01D4
(0000000004.809161) vcan0 103#0200020000000101
(0000000004.814161) vcan0 122#D32300CA1CBB039E
(0000000004.819161) vcan0 110#0000007B0105017E
(0000000004.824161) vcan0 300#00000D8C00660000
(0000000004.829161) vcan0 010#00FF6130000001AF
(0000000004.834161) vcan0 308#0012000000008200
(0000000004.839161) vcan0 316#13AD01274E000000
(0000000004.844161) vcan0 320#20000000F0008200
(0000000004.849161) vcan0 342#03C2999994000390
(0000000004.854161) vcan0 516#0000000000000000
(0000000004.859161) vcan0 231#0001000000000405
(0000000004.864161) vcan0 517#0000000000000000
(0000000004.869161) vcan0 102#0000195051CD02D7
(0000000004.874161) vcan0 103#0200020000000202
(0000000004.879161) vcan0 122#D32300CA1CBB0499
(0000000004.884161) vcan0 400#000B56F0000102AE
(0000000004.889161) vcan0 408#0041330AFFFF027A
(0000000004.894161) vcan0 410#3B00AA3100FF015E
(0000000004.899161) vcan0 411#3260000000000000
(0000000004.904161) vcan0 010#00FF6130000002AC
(0000000004.909161) vcan0 022#FFFFFFFF00000101
(0000000004.914161) vcan0 012#9999320001000132
(0000000004.919161) vcan0 231#0001000000000607
(0000000004.924161) vcan0 517#0100000000000000
(0000000004.929161) vcan0 102#0000195051CD03D6
(0000000004.934161) vcan0 103#0200020000000303
(0000000004.939161) vcan0 122#D32300CA1CBB0598
(0000000004.944161) vcan0 110#0000007B0105027D
(0000000004.949161) vcan0 308#0012000000008200
(0000000004.954161) vcan0 300#00000D8C00660000
(0000000004.959161) vcan0 316#13AD01274E000000
(0000000004.964161) vcan0 320#20000000F0008200
(0000000004.969161) vcan0 342#03C2999994000390
(0000000004.974161) vcan0 516#0000000000000000
(0000000004.979161) vcan0 010#00FF6130000003AD
(0000000004.984161) vcan0 332#0100000000000C0D
(0000000004.989161) vcan0 530#FFFF6A5264044900
(0000000004.994161) vcan0 231#0001000000000706
(0000000004.999161) vcan0 517#0000000000000000
(0000000005.004161) vcan0 102#0000195051CD04D1
(0000000005.009161) vcan0 103#0200020000000404
(0000000005.014161) vcan0 122#D32300CA1CBB069B
(0000000005.019161) vcan0 400#000B56F0000103AF
(0000000005.024161) vcan0 408#0041330AFFFF037B
(0000000005.029161) vcan0 410#3B00AA3100FF025D
(0000000005.034161) vcan0 411#3260000000000000
(0000000005.039161) vcan0 022#FFFFFFFF00000202
(0000000005.044161) vcan0 010#00FF6130000004AA
(0000000005.049161) vcan0 012#9999320000000230
(0000000005.054161) vcan0 013#FF01090000000000
(0000000005.059161) vcan0 231#0001000000000809
(0000000005.064161) vcan0 517#0000000000000000
(0000000005.069161) vcan0 102#0000195051CD05D0
(0000000005.074161) vcan0 103#0200020000000505
(0000000005.079161) vcan0 122#D32300CA1CBB079A
(0000000005.084161) vcan0 110#0000007B0105037C
(0000000005.089161) vcan0 300#00000D8C00660000
(0000000005.094161) vcan0 308#0012000000008200
(0000000005.099161) vcan0 316#13AD01274E000000
(0000000005.104161) vcan0 320#20000000F0008200
(0000000005.109161) vcan0 342#03C2999994000390
(0000000005.114161) vcan0 516#0000000000000000
(0000000005.119161) vcan0 010#00FF6130000005AB
(0000000005.124161) vcan0 102#0000195051CD06D3
(0000000005.129161) vcan0 103#0200020000000606
(0000000005.134161) vcan0 122#D32300CA1CBB0895
(0000000005.139161) vcan0 231#0001000000000908
(0000000005.144161) vcan0 517#0100000000000000
(0000000005.149161) vcan0 400#000B56F0000104A8
(0000000005.154161) vcan0 408#0041330AFFFF047C
(0000000005.159161) vcan0 410#3B00C40000FF0404
(0000000005.164161) vcan0 411#3260000000000000
(0000000005.169161) vcan0 022#FFFFFFFF00000404
(0000000005.174161) vcan0 010#00FF6130000006A8
(0000000005.179161) vcan0 012#9999320001000330
(0000000005.184161) vcan0 102#0000195051CD07D2
(0000000005.189161) vcan0 103#0200020000000707
(0000000005.194161) vcan0 122#D32300CA1CBB0994
(0000000005.199161) vcan0 110#0000007B0105047B
(0000000005.204161) vcan0 308#0012000000008200
(0000000005.209161) vcan0 231#0001000000000A0B
(0000000005.214161) vcan0 300#00000D8C00660000
(0000000005.219161) vcan0 316#13AD01274E000000
(0000000005.224161) vcan0 320#20000000F0008200
(0000000005.229161) vcan0 342#03C2999994000390
(0000000005.234161) vcan0 516#0000000000000000
(0000000005.239161) vcan0 517#0100000000000000
(0000000005.244161) vcan0 010#00FF6130000007A9
(0000000005.249161) vcan0 102#0000195051CD08DD
(0000000005.254161) vcan0 103#0200020000000808
(0000000005.259161) vcan0 122#D32300CA1CBB0A97
(0000000005.264161) vcan0 231#0001000000000B0A
(0000000005.269161) vcan0 517#0000000000000000
(0000000005.274161) vcan0 400#000B56F0000105A9
(0000000005.279161) vcan0 408#0041330AFFFF057D
(0000000005.284161) vcan0 410#3B00C40000FF0505
(0000000005.289161) vcan0 411#3260000000000000
(0000000005.294161) vcan0 022#FFFFFFFF00000505
(0000000005.299161) vcan0 010#00FF6130000008A6
(0000000005.304161) vcan0 012#9999320000000436
(0000000005.309161) vcan0 102#0000195051CD09DC
(0000000005.314161) vcan0 103#0200020000000909
(0000000005.319161) vcan0 122#D32300CA1CBB0B96
(0000000005.324161) vcan0 110#0000007B0105057A
(0000000005.329161) vcan0 300#00000D8C00660000
(0000000005.334161) vcan0 308#0012000000008200
(0000000005.339161) vcan0 316#13AD01274E000000
(0000000005.344161) vcan0 320#20000000F0008200
(0000000005.349161) vcan0 342#03C2999994000390
(0000000005.354161) vcan0 516#0000000000000000
(0000000005.359161) vcan0 231#0001000000000C0D
(0000000005.364161) vcan0 517#0000000000000000
(0000000005.369161) vcan0 010#00FF6130000009A7
(0000000005.374161) vcan0 013#FF01090000000000
(0000000005.379161) vcan0 102#0000195051CD0ADF
(0000000005.384161) vcan0 103#0200020000000A0A
(0000000005.389161) vcan0 122#D32300CA1CBB0C91
(0000000005.394161) vcan0 231#0001000000000E0F
(0000000005.399161) vcan0 517#0100000000000000
(0000000005.404161) vcan0 400#000B56F0000106AA
(0000000005.409161) vcan0 408#0041330AFFFF067E
(0000000005.414161) vcan0 410#3B00C40000FF0606
(0000000005.419161) vcan0 411#3260000000000000
(0000000005.424161) vcan0 022#FFFFFFFF00000606
(0000000005.429161) vcan0 102#0000195051CD0BDE
(0000000005.434161) vcan0 010#00FF613000000AA4
(0000000005.439161) vcan0 103#0200020000000B0B
(0000000005.444161) vcan0 012#9999320001000536
(0000000005.449161) vcan0 122#D32300CA1CBB0D90
(0000000005.454161) vcan0 110#0000007B01050679
(0000000005.459161) vcan0 300#00000D8C00660000
(0000000005.464161) vcan0 308#0012000000008200
(0000000005.469161) vcan0 316#13AD01274E000000
(0000000005.474161) vcan0 320#20000000F0008200
(0000000005.479161) vcan0 342#03C2999994000390
(0000000005.484161) vcan0 516#0000000000000000
(0000000005.489161) vcan0 231#0001000000000E0F
(0000000005.494161) vcan0 517#0100000000000000
(0000000005.499161) vcan0 102#0000195051CD0CD9
(0000000005.504161) vcan0 103#0200020000000C0C
(0000000005.509161) vcan0 122#D32300CA1CBB0E93
(0000000005.514161) vcan0 010#00FF613000000BA5
(0000000005.519161) vcan0 231#0001000000000001
(0000000005.524161) vcan0 400#000B56F0000107AB
(0000000005.529161) vcan0 408#0041330AFFFF077F
(0000000005.534161) vcan0 410#3B00C40000FF0707
(0000000005.539161) vcan0 411#3260000000000000
(0000000005.544161) vcan0 022#FFFFFFFF00000707
(0000000005.549161) vcan0 517#0000000000000000
(0000000005.554161) vcan0 102#0000195051CD0DD8
(0000000005.559161) vcan0 103#0200020000000D0D
(0000000005.564161) vcan0 122#D32300CA1CBB0F92
(0000000005.569161) vcan0 110#0000007B01050778
(0000000005.574161) vcan0 300#00000D8C00660000
(0000000005.579161) vcan0 308#0012000000008200
(0000000005.584161) vcan0 316#13AD01274E000000
(0000000005.589161) vcan0 320#20000000F0008200
(0000000005.594161) vcan0 342#03C2999994000390
(0000000005.599161) vcan0 010#00FF613000000CA2
(0000000005.604161) vcan0 516#0000000000000000
(0000000005.609161) vcan0 012#9999320000000634
(0000000005.614161) vcan0 231#0001000000000100
(0000000005.619161) vcan0 517#0100000000000000
(0000000005.624161) vcan0 332#0100000000000D0C
(0000000005.629161) vcan0 530#FFFF6A5264044900
(0000000005.634161) vcan0 102#0000195051CD0EDB
(0000000005.639161) vcan0 103#0200020000000E0E
(0000000005.644161) vcan0 122#D32300CA1CBB009D
(0000000005.649161) vcan0 010#00FF613000000DA3
(0000000005.654161) vcan0 400#000B56F0000108A4
(0000000005.659161) vcan0 408#0041330AFFFF0870
(0000000005.664161) vcan0 410#3B00AA3000FF0856
(0000000005.669161) vcan0 411#3260000000000000
(0000000005.674161) vcan0 022#FFFFFFFF00000808
(0000000005.679161) vcan0 231#0001000000000203
(0000000005.684161) vcan0 517#0100000000000000
(0000000005.689161) vcan0 102#0000195051CD0FDA
(0000000005.694161) vcan0 103#0200020000000F0F
(0000000005.699161) vcan0 122#D32300CA1CBB019C
(0000000005.704161) vcan0 110#0000007B01050877
(0000000005.709161) vcan0 308#0012000000008200
(0000000005.714161) vcan0 300#00000D8C00660000
(0000000005.719161) vcan0 316#13AD01274E000000
(0000000005.724161) vcan0 320#20000000F0008200
(0000000005.729161) vcan0 342#03C2999994000390
(0000000005.734161) vcan0 516#0000000000000000
(0000000005.739161) vcan0 010#00FF613000000EA0
(0000000005.744161) vcan0 012#9999320001000734
(0000000005.749161) vcan0 013#FF01090000000000
(0000000005.754161) vcan0 231#0001000000000302
(0000000005.759161) vcan0 517#0000000000000000
(0000000005.764161) vcan0 102#0000195051CD00D5
(0000000005.769161) vcan0 103#0200020000000000
(0000000005.774161) vcan0 122#D32300CA1CBB029F
(0000000005.779161) vcan0 010#00FF613000000FA1
(0000000005.784161) vcan0 400#000B56F0000109A5
(0000000005.789161) vcan0 408#0041330AFFFF0971
(0000000005.794161) vcan0 410#3B00AA3000FF0957
(0000000005.799161) vcan0 411#3260000000000000
(0000000005.804161) vcan0 022#FFFFFFFF00000909
(0000000005.809161) vcan0 102#0000195051CD01D4
(0000000005.814161) vcan0 103#0200020000000101
(0000000005.819161) vcan0 122#D32300CA1CBB039E
(0000000005.824161) vcan0 110#0000007B01050976
(0000000005.829161) vcan0 231#0001000000000405
(0000000005.834161) vcan0 300#00000D8C00660000
(0000000005.839161) vcan0 308#0012000000008200
(0000000005.844161) vcan0 316#13AD01274E000000
(0000000005.849161) vcan0 320#20000000F0008200
(0000000005.854161) vcan0 342#03C2999994000390
(0000000005.859161) vcan0 516#0000000000000000
(0000000005.864161) vcan0 517#0000000000000000
(0000000005.869161) vcan0 010#00FF6130000000AE
(0000000005.874161) vcan0 012#999932000000083A
(0000000005.879161) vcan0 102#0000195051CD02D7
(0000000005.884161) vcan0 103#0200020000000202
(0000000005.889161) vcan0 122#D32300CA1CBB0499
(0000000005.894161) vcan0 231#0001000000000504
(0000000005.899161) vcan0 517#0100000000000000
(0000000005.904161) vcan0 010#00FF6130000001AF
(0000000005.909161) vcan0 400#000B56F000010AA6
(0000000005.914161) vcan0 408#0041330AFFFF0A72
(0000000005.919161) vcan0 410#3B00AA3000FF0A54
(0000000005.924161) vcan0 102#0000195051CD03D6
(0000000005.929161) vcan0 103#0200020000000303
(0000000005.934161) vcan0 122#D32300CA1CBB0598
(0000000005.939161) vcan0 411#3260000000000000
(0000000005.944161) vcan0 110#0000007B01050A75
(0000000005.949161) vcan0 022#FFFFFFFF00000A0A
(0000000005.954161) vcan0 300#00000D8C00660000
(0000000005.959161) vcan0 308#0012000000008200
(0000000005.964161) vcan0 316#13AD01274E000000
(0000000005.969161) vcan0 320#20000000F0008200
(0000000005.974161) vcan0 231#0001000000000607
(0000000005.979161) vcan0 342#03C2999994000390
(0000000005.984161) vcan0 516#0000000000000000
(0000000005.989161) vcan0 517#0100000000000000
(0000000005.994161) vcan0 010#00FF6130000002AC
(0000000005.999161) vcan0 012#999932000100093A
(0000000006.004161) vcan0 102#0000195051CD04D1
(0000000006.009161) vcan0 103#0200020000000404
(0000000006.014161) vcan0 122#D32300CA1CBB069B
(0000000006.019161) vcan0 231#0001000000000809
(0000000006.024161) vcan0 517#0000000000000000
(0000000006.029161) vcan0 010#00FF6130000003AD
(0000000006.034161) vcan0 013#FF01090000000000
(0000000006.039161) vcan0 102#0000195051CD05D0
(0000000006.044161) vcan0 103#0200020000000505
(0000000006.049161) vcan0 122#D32300CA1CBB079A
(0000000006.054161) vcan0 110#0000007B01050B74
(0000000006.059161) vcan0 300#00000D8C00660000
(0000000006.064161) vcan0 308#0012000000008200
(0000000006.069161) vcan0 316#13AD01274E000000
(0000000006.074161) vcan0 320#20000000F0008200
(0000000006.079161) vcan0 342#03C2999994000390
(0000000006.084161) vcan0 400#000B56F000010BA7
(0000000006.089161) vcan0 516#0000000000000000
(0000000006.094161) vcan0 408#0041330AFFFF0B73
(0000000006.099161) vcan0 410#3B00AA3000FF0B55
(0000000006.104161) vcan0 411#3260000000000000
(0000000006.109161) vcan0 022#FFFFFFFF00000B0B
(0000000006.114161) vcan0 231#0001000000000809
(0000000006.119161) vcan0 517#0000000000000000
(0000000006.124161) vcan0 102#0000195051CD06D3
(0000000006.129161) vcan0 010#00FF6130000004AA
(0000000006.134161) vcan0 103#0200020000000606
(0000000006.139161) vcan0 012#9999320000000A38
(0000000006.144161) vcan0 122#D32300CA1CBB0895
(0000000006.149161) vcan0 231#0001000000000A0B
(0000000006.154161) vcan0 517#0100000000000000
(0000000006.159161) vcan0 102#0000195051CD07D2
(0000000006.164161) vcan0 103#0200020000000707
(0000000006.169161) vcan0 122#D32300CA1CBB0994
(0000000006.174161) vcan0 110#0000007B01050C73
(0000000006.179161) vcan0 010#00FF6130000005AB
(0000000006.184161) vcan0 300#00000D8C00660000
(0000000006.189161) vcan0 308#0012000000008200
(0000000006.194161) vcan0 316#13AD01274E000000
(0000000006.199161) vcan0 320#20000000F0008200
(0000000006.204161) vcan0 342#03C2999994000390
(0000000006.209161) vcan0 400#000B56F000010CA0
(0000000006.214161) vcan0 516#0000000000000000
(0000000006.219161) vcan0 408#0041330AFFFF0C74
(0000000006.224161) vcan0 410#3F00AA3100FF0C57
(0000000006.229161) vcan0 411#3260000000000000
(0000000006.234161) vcan0 022#FFFFFFFF00000C0C
(0000000006.239161) vcan0 231#0001000000000A0B
(0000000006.244161) vcan0 517#0100000000000000
(0000000006.249161) vcan0 332#0100000000000E0F
(0000000006.254161) vcan0 530#FFFF6A5264044900
(0000000006.259161) vcan0 102#0000195051CD08DD
(0000000006.264161) vcan0 103#0200020000000808
(0000000006.269161) vcan0 122#D32300CA1CBB0A97
(0000000006.274161) vcan0 010#00FF6130000006A8
(0000000006.279161) vcan0 012#9999320001000B38
(0000000006.284161) vcan0 231#0001000000000C0D
(0000000006.289161) vcan0 517#0000000000000000
(0000000006.294161) vcan0 102#0000195051CD09DC
(0000000006.299161) vcan0 103#0200020000000909
(0000000006.304161) vcan0 122#D32300CA1CBB0B96
(0000000006.309161) vcan0 110#0000007B01050D72
(0000000006.314161) vcan0 300#00000D8C00660000
(0000000006.319161) vcan0 308#0012000000008200
(0000000006.324161) vcan0 316#13AD01274E000000
(0000000006.329161) vcan0 320#20000000F0008200
(0000000006.334161) vcan0 342#03C2999994000390
(0000000006.339161) vcan0 516#0000000000000000
(0000000006.344161) vcan0 400#000B56F000010DA1
(0000000006.349161) vcan0 408#0041330AFFFF0D75
(0000000006.354161) vcan0 410#3F00AA3100FF0D56
(0000000006.359161) vcan0 010#00FF6130000007A9
(0000000006.364161) vcan0 411#3260000000000000
(0000000006.369161) vcan0 022#FFFFFFFF00000D0D
(0000000006.374161) vcan0 231#0001000000000D0C
(0000000006.379161) vcan0 517#0100000000000000
(0000000006.384161) vcan0 102#0000195051CD0ADF
(0000000006.389161) vcan0 103#0200020000000A0A
(0000000006.394161) vcan0 122#D32300CA1CBB0C91
(0000000006.399161) vcan0 010#00FF6130000008A6
(0000000006.404161) vcan0 012#9999320000000C3E
(0000000006.409161) vcan0 013#FF01090000000000
(0000000006.414161) vcan0 231#0001000000000E0F
(0000000006.419161) vcan0 517#0100000000000000
(0000000006.424161) vcan0 102#0000195051CD0BDE
(0000000006.429161) vcan0 103#0200020000000B0B
(0000000006.434161) vcan0 122#D32300CA1CBB0D90
(0000000006.439161) vcan0 110#0000007B01050E71
(0000000006.444161) vcan0 308#0012000000008200
(0000000006.449161) vcan0 300#00000D8C00660000
(0000000006.454161) vcan0 316#13AD01274E000000
(0000000006.459161) vcan0 320#20000000F0008200
(0000000006.464161) vcan0 342#03C2999994000390
(0000000006.469161) vcan0 516#0000000000000000
(0000000006.474161) vcan0 400#000B56F000010EA2
(0000000006.479161) vcan0 408#0041330AFFFF0E76
(0000000006.484161) vcan0 410#3F00AA3100FF0E55
(0000000006.489161) vcan0 411#3260000000000000
(0000000006.494161) vcan0 022#FFFFFFFF00000E0E
(0000000006.499161) vcan0 010#00FF6130000009A7
(0000000006.504161) vcan0 102#0000195051CD0CD9
(0000000006.509161) vcan0 103#0200020000000C0C
(0000000006.514161) vcan0 122#D32300CA1CBB0E93
(0000000006.519161) vcan0 231#0001000000000F0E
(0000000006.524161) vcan0 517#0000000000000000
(0000000006.529161) vcan0 010#00FF613000000AA4
(0000000006.534161) vcan0 012#9999320001000D3E
(0000000006.539161) vcan0 102#0000195051CD0DD8
(0000000006.544161) vcan0 103#0200020000000D0D
(0000000006.549161) vcan0 122#D32300CA1CBB0F92
(0000000006.554161) vcan0 110#0000007B01050F70
(0000000006.559161) vcan0 300#00000D8C00660000
(0000000006.564161) vcan0 308#0012000000008200
(0000000006.569161) vcan0 231#0001000000000001
(0000000006.574161) vcan0 316#13AD01274E000000
(0000000006.579161) vcan0 320#20000000F0008200
(0000000006.584161) vcan0 342#03C2999994000390
(0000000006.589161) vcan0 516#0000000000000000
(0000000006.594161) vcan0 517#0000000000000000
(0000000006.599161) vcan0 400#000B56F000010FA3
(0000000006.604161) vcan0 408#0041330AFFFF0F77
(0000000006.609161) vcan0 410#3F00AA3100FF0F54
(0000000006.614161) vcan0 411#3260000000000000
(0000000006.619161) vcan0 022#FFFFFFFF00000F0F
(0000000006.624161) vcan0 010#00FF613000000BA5
(0000000006.629161) vcan0 102#0000195051CD0EDB
(0000000006.634161) vcan0 103#0200020000000E0E
(0000000006.639161) vcan0 122#D32300CA1CBB009D
(0000000006.644161) vcan0 231#0001000000000100
(0000000006.649161) vcan0 517#0100000000000000
(0000000006.654161) vcan0 010#00FF613000000CA2
(0000000006.659161) vcan0 012#9999320000000E3C
(0000000006.664161) vcan0 102#0000195051CD0FDA
(0000000006.669161) vcan0 103#0200020000000F0F
(0000000006.674161) vcan0 122#D32300CA1CBB019C
(0000000006.679161) vcan0 110#0000007B0105007F
(0000000006.684161) vcan0 308#0012000000008200
(0000000006.689161) vcan0 300#00000D8C00660000
(0000000006.694161) vcan0 316#13AD01274E000000
(0000000006.699161) vcan0 320#20000000F0008200
(0000000006.704161) vcan0 342#03C2999994000390
(0000000006.709161) vcan0 516#0000000000000000
(0000000006.714161) vcan0 231#0001000000000203
(0000000006.719161) vcan0 517#0100000000000000
(0000000006.724161) vcan0 400#000B56F0000100AC
(0000000006.729161) vcan0 408#0041330AFFFF0078
(0000000006.734161) vcan0 410#3F00C40000FF0004
(0000000006.739161) vcan0 411#3260000000000000
(0000000006.744161) vcan0 022#FFFFFFFF00000000
(0000000006.749161) vcan0 010#00FF613000000DA3
(0000000006.754161) vcan0 013#FF01090000000000
(0000000006.759161) vcan0 102#0000195051CD00D5
(0000000006.764161) vcan0 103#0200020000000000
(0000000006.769161) vcan0 122#D32300CA1CBB029F
(0000000006.774161) vcan0 231#0001000000000405
(0000000006.779161) vcan0 517#0000000000000000
(0000000006.784161) vcan0 010#00FF613000000EA0
(0000000006.789161) vcan0 102#0000195051CD01D4
(0000000006.794161) vcan0 012#9999320001000F3C
(0000000006.799161) vcan0 103#0200020000000101
(0000000006.804161) vcan0 110#0000007B0105017E
(0000000006.809161) vcan0 122#D32300CA1CBB039E
(0000000006.814161) vcan0 300#00000D8C00660000
(0000000006.819161) vcan0 308#0012000000008200
(0000000006.824161) vcan0 316#13AD01274E000000
(0000000006.829161) vcan0 320#20000000F0008200
(0000000006.834161) vcan0 342#03C2999994000390
(0000000006.839161) vcan0 516#0000000000000000
(0000000006.844161) vcan0 231#0001000000000405
(0000000006.849161) vcan0 517#0000000000000000
(0000000006.854161) vcan0 400#000B56F0000101AD
(0000000006.859161) vcan0 408#0041330AFFFF0179
(0000000006.864161) vcan0 410#3F00C40000FF0105
(0000000006.869161) vcan0 411#3260000000000000
(0000000006.874161) vcan0 022#FFFFFFFF00000101
(0000000006.879161) vcan0 102#0000195051CD02D7
(0000000006.884161) vcan0 103#0200020000000202
(0000000006.889161) vcan0 122#D32300CA1CBB0499
(0000000006.894161) vcan0 332#0100000000000F0E
(0000000006.899161) vcan0 010#00FF613000000FA1
(0000000006.904161) vcan0 530#FFFF6A5264044900
(0000000006.909161) vcan0 231#0001000000000607
(0000000006.914161) vcan0 517#0100000000000000
(0000000006.919161) vcan0 102#0000195051CD03D6
(0000000006.924161) vcan0 103#0200020000000303
(0000000006.929161) vcan0 122#D32300CA1CBB0598
(0000000006.934161) vcan0 110#0000007B0105027D
(0000000006.939161) vcan0 308#0012000000008200
(0000000006.944161) vcan0 300#00000D8C00660000
(0000000006.949161) vcan0 316#13AD01274E000000
(0000000006.954161) vcan0 010#00FF6130000000AE
(0000000006.959161) vcan0 320#20000000F0008200
(0000000006.964161) vcan0 012#9999320000000032
(0000000006.969161) vcan0 342#03C2999994000390
(0000000006.974161) vcan0 516#0000000000000000
(0000000006.979161) vcan0 231#0001000000000706
(0000000006.984161) vcan0 400#000B56F0000103AF
(0000000006.989161) vcan0 408#0041330AFFFF037B
(0000000006.994161) vcan0 410#3F00C40000FF0206
(0000000006.999161) vcan0 411#3260000000000000
(0000000007.004161) vcan0 022#FFFFFFFF00000202
(0000000007.009161) vcan0 517#0000000000000000
(0000000007.014161) vcan0 102#0000195051CD04D1
(0000000007.019161) vcan0 103#0200020000000404
(0000000007.024161) vcan0 122#D32300CA1CBB069B
(0000000007.029161) vcan0 010#00FF6130000001AF
(0000000007.034161) vcan0 231#0001000000000809
(0000000007.039161) vcan0 517#0000000000000000
(0000000007.044161) vcan0 102#0000195051CD05D0
(0000000007.049161) vcan0 103#0200020000000505
(0000000007.054161) vcan0 122#D32300CA1CBB079A
(0000000007.059161) vcan0 110#0000007B0105037C
(0000000007.064161) vcan0 300#00000D8C00660000
(0000000007.069161) vcan0 308#0012000000008200
(0000000007.074161) vcan0 316#13AD01274E000000
(0000000007.079161) vcan0 320#20000000F0008200
(0000000007.084161) vcan0 342#03C2999994000390
(0000000007.089161) vcan0 516#0000000000000000
(0000000007.094161) vcan0 010#00FF6130000002AC
(0000000007.099161) vcan0 012#9999320001000132
(0000000007.104161) vcan0 013#FF01090000000000
(0000000007.109161) vcan0 400#000B56F0000104A8
(0000000007.114161) vcan0 408#0041330AFFFF047C
(0000000007.119161) vcan0 410#3F00C40000FF0307
(0000000007.124161) vcan0 411#3260000000000000
(0000000007.129161) vcan0 022#FFFFFFFF00000303
(0000000007.134161) vcan0 231#0001000000000908
(0000000007.139161) vcan0 102#0000195051CD06D3
(0000000007.144161) vcan0 103#0200020000000606
(0000000007.149161) vcan0 122#D32300CA1CBB0895
(0000000007.154161) vcan0 517#0100000000000000
(0000000007.159161) vcan0 010#00FF6130000003AD
(0000000007.164161) vcan0 102#0000195051CD07D2
(0000000007.169161) vcan0 103#0200020000000707
(0000000007.174161) vcan0 122#D32300CA1CBB0994
(0000000007.179161) vcan0 231#0001000000000A0B
(0000000007.184161) vcan0 110#0000007B0105047B
(0000000007.189161) vcan0 300#00000D8C00660000
(0000000007.194161) vcan0 308#0012000000008200
(0000000007.199161) vcan0 316#13AD01274E000000
(0000000007.204161) vcan0 320#20000000F0008200
(0000000007.209161) vcan0 342#03C2999994000390
(0000000007.214161) vcan0 516#0000000000000000
(0000000007.219161) vcan0 517#0100000000000000
(0000000007.224161) vcan0 010#00FF6130000004AA
(0000000007.229161) vcan0 012#9999320000000230
(0000000007.234161) vcan0 400#000B56F0000105A9
(0000000007.239161) vcan0 408#0041330AFFFF057D
(0000000007.244161) vcan0 410#3F00AA3000FF045E
(0000000007.249161) vcan0 102#0000195051CD08DD
(0000000007.254161) vcan0 103#0200020000000808
(0000000007.259161) vcan0 122#D32300CA1CBB0A97
(0000000007.264161) vcan0 411#3260000000000000
(0000000007.269161) vcan0 022#FFFFFFFF00000404
(0000000007.274161) vcan0 231#0001000000000B0A
(0000000007.279161) vcan0 517#0000000000000000
(0000000007.284161) vcan0 010#00FF6130000005AB
(0000000007.289161) vcan0 102#0000195051CD09DC
(0000000007.294161) vcan0 103#0200020000000909
(0000000007.299161) vcan0 122#D32300CA1CBB0B96
(0000000007.304161) vcan0 110#0000007B0105057A
(0000000007.309161) vcan0 300#00000D8C00660000
(0000000007.314161) vcan0 308#0012000000008200
(0000000007.319161) vcan0 316#13AD01274E000000
(0000000007.324161) vcan0 320#20000000F0008200
(0000000007.329161) vcan0 342#03C2999994000390
(0000000007.334161) vcan0 516#0000000000000000
(0000000007.339161) vcan0 231#0001000000000C0D
(0000000007.344161) vcan0 517#0000000000000000
(0000000007.349161) vcan0 010#00FF6130000006A8
(0000000007.354161) vcan0 012#9999320001000330
(0000000007.359161) vcan0 102#0000195051CD0ADF
(0000000007.364161) vcan0 103#0200020000000A0A
(0000000007.369161) vcan0 122#D32300CA1CBB0C91
(0000000007.374161) vcan0 400#000B56F0000106AA
(0000000007.379161) vcan0 408#0041330AFFFF067E
(0000000007.384161) vcan0 410#3F00AA3000FF055F
(0000000007.389161) vcan0 411#3260000000000000
(0000000007.394161) vcan0 022#FFFFFFFF00000505
(0000000007.399161) vcan0 231#0001000000000E0F
(0000000007.404161) vcan0 517#0100000000000000
(0000000007.409161) vcan0 010#00FF6130000007A9
(0000000007.414161) vcan0 013#FF01090000000000
(0000000007.419161) vcan0 102#0000195051CD0BDE
(0000000007.424161) vcan0 103#0200020000000B0B
(0000000007.429161) vcan0 122#D32300CA1CBB0D90
(0000000007.434161) vcan0 110#0000007B01050679
(0000000007.439161) vcan0 308#0012000000008200
(0000000007.444161) vcan0 300#00000D8C00660000
(0000000007.449161) vcan0 316#13AD01274E000000
(0000000007.454161) vcan0 320#20000000F0008200
(0000000007.459161) vcan0 342#03C2999994000390
(0000000007.464161) vcan0 516#0000000000000000
(0000000007.469161) vcan0 231#0001000000000E0F
(0000000007.474161) vcan0 517#0100000000000000
(0000000007.479161) vcan0 010#00FF6130000008A6
(0000000007.484161) vcan0 102#0000195051CD0CD9
(0000000007.489161) vcan0 012#9999320000000436
(0000000007.494161) vcan0 103#0200020000000C0C
(0000000007.499161) vcan0 122#D32300CA1CBB0E93
(0000000007.504161) vcan0 400#000B56F0000107AB
(0000000007.509161) vcan0 408#0041330AFFFF077F
(0000000007.514161) vcan0 410#3300AA3000FF0650
(0000000007.519161) vcan0 411#3260000000000000
(0000000007.524161) vcan0 332#0100000000000001
(0000000007.529161) vcan0 022#FFFFFFFF00000606
(0000000007.534161) vcan0 530#FFFF6A5264044900
(0000000007.539161) vcan0 231#0001000000000001
(0000000007.544161) vcan0 517#0000000000000000
(0000000007.549161) vcan0 102#0000195051CD0DD8
(0000000007.554161) vcan0 103#0200020000000D0D
(0000000007.559161) vcan0 122#D32300CA1CBB0F92
(0000000007.564161) vcan0 110#0000007B01050778
(0000000007.569161) vcan0 010#00FF6130000009A7
(0000000007.574161) vcan0 300#00000D8C00660000
(0000000007.579161) vcan0 308#0012000000008200
(0000000007.584161) vcan0 316#13AD01274E000000
(0000000007.589161) vcan0 320#20000000F0008200
(0000000007.594161) vcan0 342#03C2999994000390
(0000000007.599161) vcan0 516#0000000000000000
(0000000007.604161) vcan0 231#0001000000000100
(0000000007.609161) vcan0 517#0000000000000000
(0000000007.614161) vcan0 102#0000195051CD0EDB
(0000000007.619161) vcan0 103#0200020000000E0E
(0000000007.624161) vcan0 122#D32300CA1CBB009D
(0000000007.629161) vcan0 010#00FF613000000AA4
(0000000007.634161) vcan0 012#9999320001000536
(0000000007.639161) vcan0 400#000B56F0000108A4
(0000000007.644161) vcan0 408#0041330AFFFF0870
(0000000007.649161) vcan0 410#3300AA3000FF0751
(0000000007.654161) vcan0 411#3260000000000000
(0000000007.659161) vcan0 022#FFFFFFFF00000707
(0000000007.664161) vcan0 231#0001000000000203
(0000000007.669161) vcan0 517#0100000000000000
(0000000007.674161) vcan0 102#0000195051CD0FDA
(0000000007.679161) vcan0 103#0200020000000F0F
(0000000007.684161) vcan0 122#D32300CA1CBB019C
(0000000007.689161) vcan0 110#0000007B01050877
(0000000007.694161) vcan0 308#0012000000008200
(0000000007.699161) vcan0 300#00000D8C00660000
(0000000007.704161) vcan0 316#13AD01274E000000
(0000000007.709161) vcan0 320#20000000F0008200
(0000000007.714161) vcan0 342#03C2999994000390
(0000000007.719161) vcan0 516#0000000000000000
(0000000007.724161) vcan0 010#00FF613000000BA5
(0000000007.729161) vcan0 231#0001000000000302
(0000000007.734161) vcan0 517#0000000000000000
(0000000007.739161) vcan0 102#0000195051CD00D5
(0000000007.744161) vcan0 103#0200020000000000
(0000000007.749161) vcan0 122#D32300CA1CBB029F
(0000000007.754161) vcan0 400#000B56F0000109A5
(0000000007.759161) vcan0 408#0041330AFFFF0971
(0000000007.764161) vcan0 010#00FF613000000CA2
(0000000007.769161) vcan0 410#3300AA3100FF095E
(0000000007.774161) vcan0 012#9999320000000634
(0000000007.779161) vcan0 411#3260000000000000
(0000000007.784161) vcan0 013#FF01090000000000
(0000000007.789161) vcan0 022#FFFFFFFF00000909
(0000000007.794161) vcan0 231#0001000000000405
(0000000007.799161) vcan0 517#0000000000000000
(0000000007.804161) vcan0 102#0000195051CD01D4
(0000000007.809161) vcan0 103#0200020000000101
(0000000007.814161) vcan0 122#D32300CA1CBB039E
(0000000007.819161) vcan0 110#0000007B01050976
(0000000007.824161) vcan0 300#00000D8C00660000
(0000000007.829161) vcan0 308#0012000000008200
(0000000007.834161) vcan0 316#13AD01274E000000
(0000000007.839161) vcan0 320#20000000F0008200
(0000000007.844161) vcan0 342#03C2999994000390
(0000000007.849161) vcan0 516#0000000000000000
(0000000007.854161) vcan0 010#00FF613000000DA3
(0000000007.859161) vcan0 102#0000195051CD02D7
(0000000007.864161) vcan0 103#0200020000000202
(0000000007.869161) vcan0 122#D32300CA1CBB0499
(0000000007.874161) vcan0 231#0001000000000504
(0000000007.879161) vcan0 517#0100000000000000
(0000000007.884161) vcan0 400#000B56F000010AA6
(0000000007.889161) vcan0 408#0041330AFFFF0A72
(0000000007.894161) vcan0 410#3300AA3100FF0A5D
(0000000007.899161) vcan0 411#3260000000000000
(0000000007.904161) vcan0 022#FFFFFFFF00000A0A
(0000000007.909161) vcan0 010#00FF613000000EA0
(0000000007.914161) vcan0 012#9999320001000734
(0000000007.919161) vcan0 102#0000195051CD03D6
(0000000007.924161) vcan0 103#0200020000000303
(0000000007.929161) vcan0 122#D32300CA1CBB0598
(0000000007.934161) vcan0 110#0000007B01050A75
(0000000007.939161) vcan0 308#0012000000008200
(0000000007.944161) vcan0 231#0001000000000607
(0000000007.949161) vcan0 300#00000D8C00660000
(0000000007.954161) vcan0 316#13AD01274E000000
(0000000007.959161) vcan0 320#20000000F0008200
(0000000007.964161) vcan0 342#03C2999994000390
(0000000007.969161) vcan0 516#0000000000000000
(0000000007.974161) vcan0 517#0100000000000000
(0000000007.979161) vcan0 010#00FF613000000FA1
(0000000007.984161) vcan0 102#0000195051CD04D1
(0000000007.989161) vcan0 103#0200020000000404
(0000000007.994161) vcan0 122#D32300CA1CBB069B
(0000000007.999161) vcan0 231#0001000000000706
(0000000008.004161) vcan0 517#0000000000000000
(0000000008.009161) vcan0 400#000B56F000010BA7
(0000000008.014161) vcan0 408#0041330AFFFF0B73
(0000000008.019161) vcan0 410#3300AA3100FF0B5C
(0000000008.024161) vcan0 411#3260000000000000
(0000000008.029161) vcan0 022#FFFFFFFF00000B0B
(0000000008.034161) vcan0 010#00FF6130000000AE
(0000000008.039161) vcan0 012#999932000000083A
(0000000008.044161) vcan0 102#0000195051CD05D0
(0000000008.049161) vcan0 103#0200020000000505
(0000000008.054161) vcan0 122#D32300CA1CBB079A
(0000000008.059161) vcan0 110#0000007B01050B74
(0000000008.064161) vcan0 300#00000D8C00660000
(0000000008.069161) vcan0 308#0012000000008200
(0000000008.074161) vcan0 316#13AD01274E000000
(0000000008.079161) vcan0 320#20000000F0008200
(0000000008.084161) vcan0 342#03C2999994000390
(0000000008.089161) vcan0 516#0000000000000000
(0000000008.094161) vcan0 231#0001000000000809
(0000000008.099161) vcan0 517#0000000000000000
(0000000008.104161) vcan0 010#00FF6130000001AF
(0000000008.109161) vcan0 013#FF01090000000000
(0000000008.114161) vcan0 102#0000195051CD06D3
(0000000008.119161) vcan0 103#0200020000000606
(0000000008.124161) vcan0 122#D32300CA1CBB0895
(0000000008.129161) vcan0 332#0100000000000100
(0000000008.134161) vcan0 530#FFFF6A5264044900
(0000000008.139161) vcan0 231#0001000000000A0B
(0000000008.144161) vcan0 517#0100000000000000
(0000000008.149161) vcan0 400#000B56F000010CA0
(0000000008.154161) vcan0 408#0041330AFFFF0C74
(0000000008.159161) vcan0 410#3300C40000FF0C04
(0000000008.164161) vcan0 411#3260000000000000
(0000000008.169161) vcan0 022#FFFFFFFF00000C0C
(0000000008.174161) vcan0 010#00FF6130000002AC
(0000000008.179161) vcan0 012#999932000100093A
(0000000008.184161) vcan0 102#0000195051CD07D2
(0000000008.189161) vcan0 103#0200020000000707
(0000000008.194161) vcan0 122#D32300CA1CBB0994
(0000000008.199161) vcan0 110#0000007B01050C73
(0000000008.204161) vcan0 308#0012000000008200
(0000000008.209161) vcan0 300#00000D8C00660000
(0000000008.214161) vcan0 316#13AD01274E000000
(0000000008.219161) vcan0 320#20000000F0008200
(0000000008.224161) vcan0 342#03C2999994000390
(0000000008.229161) vcan0 516#0000000000000000
(0000000008.234161) vcan0 231#0001000000000A0B
(0000000008.239161) vcan0 517#0100000000000000
(0000000008.244161) vcan0 102#0000195051CD08DD
(0000000008.249161) vcan0 103#0200020000000808
(0000000008.254161) vcan0 122#D32300CA1CBB0A97
(0000000008.259161) vcan0 010#00FF6130000003AD
(0000000008.264161) vcan0 231#0001000000000C0D
(0000000008.269161) vcan0 517#0000000000000000
(0000000008.274161) vcan0 400#000B56F000010DA1
(0000000008.279161) vcan0 408#0041330AFFFF0D75
(0000000008.284161) vcan0 410#3300C40000FF0D05
(0000000008.289161) vcan0 411#3260000000000000
(0000000008.294161) vcan0 022#FFFFFFFF00000D0D
(0000000008.299161) vcan0 102#0000195051CD09DC
(0000000008.304161) vcan0 103#0200020000000909
(0000000008.309161) vcan0 122#D32300CA1CBB0B96
(0000000008.314161) vcan0 110#0000007B01050D72
(0000000008.319161) vcan0 300#00000D8C00660000
(0000000008.324161) vcan0 308#0012000000008200
(0000000008.329161) vcan0 316#13AD01274E000000
(0000000008.334161) vcan0 320#20000000F0008200
(0000000008.339161) vcan0 010#00FF6130000004AA
(0000000008.344161) vcan0 342#03C2999994000390
(0000000008.349161) vcan0 012#9999320000000A38
(0000000008.354161) vcan0 516#0000000000000000
(0000000008.359161) vcan0 231#0001000000000D0C
(0000000008.364161) vcan0 517#0100000000000000
(0000000008.369161) vcan0 102#0000195051CD0ADF
(0000000008.374161) vcan0 103#0200020000000A0A
(0000000008.379161) vcan0 122#D32300CA1CBB0C91
(0000000008.384161) vcan0 010#00FF6130000005AB
(0000000008.389161) vcan0 231#0001000000000E0F
(0000000008.394161) vcan0 400#000B56F000010EA2
(0000000008.399161) vcan0 408#0041330AFFFF0E76
(0000000008.404161) vcan0 410#3300C40000FF0E06
(0000000008.409161) vcan0 411#3260000000000000
(0000000008.414161) vcan0 022#FFFFFFFF00000E0E
(0000000008.419161) vcan0 102#0000195051CD0BDE
(0000000008.424161) vcan0 103#0200020000000B0B
(0000000008.429161) vcan0 122#D32300CA1CBB0D90
(0000000008.434161) vcan0 517#0100000000000000
(0000000008.439161) vcan0 110#0000007B01050E71
(0000000008.444161) vcan0 300#00000D8C00660000
(0000000008.449161) vcan0 308#0012000000008200
(0000000008.454161) vcan0 316#13AD01274E000000
(0000000008.459161) vcan0 320#20000000F0008200
(0000000008.464161) vcan0 342#03C2999994000390
(0000000008.469161) vcan0 516#0000000000000000
(0000000008.474161) vcan0 010#00FF6130000006A8
(0000000008.479161) vcan0 012#9999320001000B38
(0000000008.484161) vcan0 013#FF01090000000000
(0000000008.489161) vcan0 231#0001000000000F0E
(0000000008.494161) vcan0 517#0000000000000000
(0000000008.499161) vcan0 102#0000195051CD0CD9
(0000000008.504161) vcan0 103#0200020000000C0C
(0000000008.509161) vcan0 122#D32300CA1CBB0E93
(0000000008.514161) vcan0 010#00FF6130000007A9
(0000000008.519161) vcan0 400#000B56F000010FA3
(0000000008.524161) vcan0 408#0041330AFFFF0F77
(0000000008.529161) vcan0 410#3300C40000FF0F07
(0000000008.534161) vcan0 102#0000195051CD0DD8
(0000000008.539161) vcan0 103#0200020000000D0D
(0000000008.544161) vcan0 122#D32300CA1CBB0F92
(0000000008.549161) vcan0 110#0000007B01050F70
(0000000008.554161) vcan0 300#00000D8C00660000
(0000000008.559161) vcan0 308#0012000000008200
(0000000008.564161) vcan0 316#13AD01274E000000
(0000000008.569161) vcan0 320#20000000F0008200
(0000000008.574161) vcan0 342#03C2999994000390
(0000000008.579161) vcan0 411#3260000000000000
(0000000008.584161) vcan0 516#0000000000000000
(0000000008.589161) vcan0 022#FFFFFFFF00000F0F
(0000000008.594161) vcan0 231#0001000000000001
(0000000008.599161) vcan0 517#0000000000000000
(0000000008.604161) vcan0 010#00FF6130000008A6
(0000000008.609161) vcan0 012#9999320000000C3E
(0000000008.614161) vcan0 102#0000195051CD0EDB
(0000000008.619161) vcan0 103#0200020000000E0E
(0000000008.624161) vcan0 122#D32300CA1CBB009D
(0000000008.629161) vcan0 231#0001000000000100
(0000000008.634161) vcan0 517#0100000000000000
(0000000008.639161) vcan0 010#00FF6130000009A7
(0000000008.644161) vcan0 102#0000195051CD0FDA
(0000000008.649161) vcan0 103#0200020000000F0F
(0000000008.654161) vcan0 122#D32300CA1CBB019C
(0000000008.659161) vcan0 400#000B56F0000100AC
(0000000008.664161) vcan0 110#0000007B0105007F
(0000000008.669161) vcan0 300#00000D8C00660000
(0000000008.674161) vcan0 308#0012000000008200
(0000000008.679161) vcan0 316#13AD01274E000000
(0000000008.684161) vcan0 320#20000000F0008200
(0000000008.689161) vcan0 342#03C2999994000390
(0000000008.694161) vcan0 408#0041330AFFFF0078
(0000000008.699161) vcan0 516#0000000000000000
(0000000008.704161) vcan0 410#3300AA3000FF0056
(0000000008.709161) vcan0 411#3260000000000000
(0000000008.714161) vcan0 022#FFFFFFFF00000000
(0000000008.719161) vcan0 231#0001000000000203
(0000000008.724161) vcan0 517#0100000000000000
(0000000008.729161) vcan0 010#00FF613000000AA4
(0000000008.734161) vcan0 012#9999320001000D3E
(0000000008.739161) vcan0 102#0000195051CD00D5
(0000000008.744161) vcan0 103#0200020000000000
(0000000008.749161) vcan0 122#D32300CA1CBB029F
(0000000008.754161) vcan0 231#0000000000000404
(0000000008.759161) vcan0 332#0100000000000302
(0000000008.764161) vcan0 517#0000000000000000
(0000000008.769161) vcan0 530#FFFF6A5264044900
(0000000008.774161) vcan0 010#00FF613000000BA5
(0000000008.779161) vcan0 013#FF01090000000000
(0000000008.784161) vcan0 102#0000195051CD01D4
(0000000008.789161) vcan0 103#0200020000000101
(0000000008.794161) vcan0 122#D32300CA1CBB039E
(0000000008.799161) vcan0 110#0000007B0105017E
(0000000008.804161) vcan0 300#00000D8C00660000
(0000000008.809161) vcan0 308#0012000000008200
(0000000008.814161) vcan0 316#13AD01274E000000
(0000000008.819161) vcan0 320#20000000F0008200
(0000000008.824161) vcan0 342#03C2999994000390
(0000000008.829161) vcan0 400#000B56F0000101AD
(0000000008.834161) vcan0 516#0000000000000000
(0000000008.839161) vcan0 408#0041330AFFFF0179
(0000000008.844161) vcan0 410#3300AA3000FF0157
(0000000008.849161) vcan0 411#3260000000000000
(0000000008.854161) vcan0 022#FFFFFFFF00000101
(0000000008.859161) vcan0 231#0000000000000404
(0000000008.864161) vcan0 517#0000000000000000
(0000000008.869161) vcan0 010#00FF613000000CA2
(0000000008.874161) vcan0 012#9999320000000E3C
(0000000008.879161) vcan0 102#0000195051CD02D7
(0000000008.884161) vcan0 103#0200020000000202
(0000000008.889161) vcan0 122#D32300CA1CBB0499
(0000000008.894161) vcan0 231#0000000000000606
(0000000008.899161) vcan0 517#0100000000000000
(0000000008.904161) vcan0 102#0000195051CD03D6
(0000000008.909161) vcan0 103#0200020000000303
(0000000008.914161) vcan0 122#D32300CA1CBB0598
(0000000008.919161) vcan0 010#00FF613000000DA3
(0000000008.924161) vcan0 110#0000007B0105027D
(0000000008.929161) vcan0 300#00000D8C00660000
(0000000008.934161) vcan0 308#0012000000008200
(0000000008.939161) vcan0 316#13AD01274E000000
(0000000008.944161) vcan0 320#20000000F0008200
(0000000008.949161) vcan0 342#03C2999994000390
(0000000008.954161) vcan0 400#000B56F0000102AE
(0000000008.959161) vcan0 516#0000000000000000
(0000000008.964161) vcan0 408#0041330AFFFF027A
(0000000008.969161) vcan0 410#3300AA3000FF0254
(0000000008.974161) vcan0 411#3260000000000000
(0000000008.979161) vcan0 022#FFFFFFFF00000202
(0000000008.984161) vcan0 231#0000000000000606
(0000000008.989161) vcan0 517#0100000000000000
(0000000008.994161) vcan0 102#0000195051CD04D1
(0000000008.999161) vcan0 103#0200020000000404
(0000000009.004161) vcan0 122#D32300CA1CBB069B
(0000000009.009161) vcan0 010#00FF613000000EA0
(0000000009.014161) vcan0 012#9999320001000F3C
(0000000009.019161) vcan0 231#0000000000000808
(0000000009.024161) vcan0 517#0000000000000000
(0000000009.029161) vcan0 102#0000195051CD05D0
(0000000009.034161) vcan0 103#0200020000000505
(0000000009.039161) vcan0 122#D32300CA1CBB079A
(0000000009.044161) vcan0 110#0000007B0105037C
(0000000009.049161) vcan0 300#00000D8C00660000
(0000000009.054161) vcan0 308#0012000000008200
(0000000009.059161) vcan0 316#13AD01274E000000
(0000000009.064161) vcan0 320#20000000F0008200
(0000000009.069161) vcan0 342#03C2999994000390
(0000000009.074161) vcan0 516#0000000000000000
(0000000009.079161) vcan0 010#00FF613000000FA1
(0000000009.084161) vcan0 400#000B56F0000103AF
(0000000009.089161) vcan0 408#0041330AFFFF037B
(0000000009.094161) vcan0 410#3300AA3000FF0355
(0000000009.099161) vcan0 411#3260000000000000
(0000000009.104161) vcan0 022#FFFFFFFF00000303
(0000000009.109161) vcan0 231#0000000000000909
(0000000009.114161) vcan0 517#0100000000000000
(0000000009.119161) vcan0 102#0000195051CD06D3
(0000000009.124161) vcan0 103#0200020000000606
(0000000009.129161) vcan0 122#D32300CA1CBB0895
(0000000009.134161) vcan0 010#00FF6130000000AE
(0000000009.139161) vcan0 012#9999320000000032
(0000000009.144161) vcan0 013#FF01090000000000
(0000000009.149161) vcan0 231#0000000000000A0A
(0000000009.154161) vcan0 517#0100000000000000
(0000000009.159161) vcan0 102#0000195051CD07D2
(0000000009.164161) vcan0 103#0200020000000707
(0000000009.169161) vcan0 122#D32300CA1CBB0994
(0000000009.174161) vcan0 110#0000007B0105047B
(0000000009.179161) vcan0 308#0012000000008200
(0000000009.184161) vcan0 300#00000D8C00660000
(0000000009.189161) vcan0 316#13AD01274E000000
(0000000009.194161) vcan0 320#20000000F0008200
(0000000009.199161) vcan0 342#03C2999994000390
(0000000009.204161) vcan0 516#0000000000000000
(0000000009.209161) vcan0 400#000B56F0000104A8
(0000000009.214161) vcan0 010#00FF6130000001AF
(0000000009.219161) vcan0 408#0041330AFFFF047C
(0000000009.224161) vcan0 410#3300AA3100FF0453
(0000000009.229161) vcan0 411#3260000000000000
(0000000009.234161) vcan0 022#FFFFFFFF00000404
(0000000009.239161) vcan0 102#0000195051CD08DD
(0000000009.244161) vcan0 103#0200020000000808
(0000000009.249161) vcan0 122#D32300CA1CBB0A97
(0000000009.254161) vcan0 231#0000000000000B0B
(0000000009.259161) vcan0 517#0000000000000000
(0000000009.264161) vcan0 010#00FF6130000002AC
(0000000009.269161) vcan0 012#9999320001000132
(0000000009.274161) vcan0 102#0000195051CD09DC
(0000000009.279161) vcan0 103#0200020000000909
(0000000009.284161) vcan0 122#D32300CA1CBB0B96
(0000000009.289161) vcan0 110#0000007B0105057A
(0000000009.294161) vcan0 300#00000D8C00660000
(0000000009.299161) vcan0 308#0012000000008200
(0000000009.304161) vcan0 231#0000000000000C0C
(0000000009.309161) vcan0 316#13AD01274E000000
(0000000009.314161) vcan0 320#20000000F0008200
(0000000009.319161) vcan0 342#03C2999994000390
(0000000009.324161) vcan0 516#0000000000000000
(0000000009.329161) vcan0 517#0000000000000000
(0000000009.334161) vcan0 400#000B56F0000105A9
(0000000009.339161) vcan0 408#0041330AFFFF057D
(0000000009.344161) vcan0 410#3300AA3100FF0552
(0000000009.349161) vcan0 411#3260000000000000
(0000000009.354161) vcan0 010#00FF6130000003AD
(0000000009.359161) vcan0 022#FFFFFFFF00000505
(0000000009.364161) vcan0 102#0000195051CD0ADF
(0000000009.369161) vcan0 103#0200020000000A0A
(0000000009.374161) vcan0 122#D32300CA1CBB0C91
(0000000009.379161) vcan0 231#0000000000000D0D
(0000000009.384161) vcan0 517#0100000000000000
(0000000009.389161) vcan0 332#0100000000000405
(0000000009.394161) vcan0 530#FFFF6A5264044900
(0000000009.399161) vcan0 010#00FF6130000004AA
(0000000009.404161) vcan0 012#9999320000000230
(0000000009.409161) vcan0 102#0000195051CD0BDE
(0000000009.414161) vcan0 103#0200020000000B0B
(0000000009.419161) vcan0 122#D32300CA1CBB0D90
(0000000009.424161) vcan0 110#0000007B01050679
(0000000009.429161) vcan0 308#0012000000008200
(0000000009.434161) vcan0 300#00000D8C00660000
(0000000009.439161) vcan0 316#13AD01274E000000
(0000000009.444161) vcan0 320#20000000F0008200
(0000000009.449161) vcan0 342#03C2999994000390
(0000000009.454161) vcan0 516#0000000000000000
(0000000009.459161) vcan0 231#0000000000000E0E
(0000000009.464161) vcan0 517#0100000000000000
(0000000009.469161) vcan0 400#000B56F0000106AA
(0000000009.474161) vcan0 408#0041330AFFFF067E
(0000000009.479161) vcan0 410#3300AA3100FF0651
(0000000009.484161) vcan0 411#3260000000000000
(0000000009.489161) vcan0 022#FFFFFFFF00000606
(0000000009.494161) vcan0 010#00FF6130000005AB
(0000000009.499161) vcan0 013#FF01090000000000
(0000000009.504161) vcan0 102#0000195051CD0CD9
(0000000009.509161) vcan0 103#0200020000000C0C
(0000000009.514161) vcan0 122#D32300CA1CBB0E93
(0000000009.519161) vcan0 231#0000000000000000
(0000000009.524161) vcan0 517#0000000000000000
(0000000009.529161) vcan0 010#00FF6130000006A8
(0000000009.534161) vcan0 012#9999320001000330
(0000000009.539161) vcan0 102#0000195051CD0DD8
(0000000009.544161) vcan0 103#0200020000000D0D
(0000000009.549161) vcan0 122#D32300CA1CBB0F92
(0000000009.554161) vcan0 110#0000007B01050778
(0000000009.559161) vcan0 300#00000D8C00660000
(0000000009.564161) vcan0 308#0012000000008200
(0000000009.569161) vcan0 316#13AD01274E000000
(0000000009.574161) vcan0 320#20000000F0008200
(0000000009.579161) vcan0 342#03C2999994000390
(0000000009.584161) vcan0 516#0000000000000000
(0000000009.589161) vcan0 231#0000000000000000
(0000000009.594161) vcan0 517#0000000000000000
(0000000009.599161) vcan0 400#000B56F0000108A4
(0000000009.604161) vcan0 408#0041330AFFFF0870
(0000000009.609161) vcan0 410#3300AA3100FF0750
(0000000009.614161) vcan0 411#3260000000000000
(0000000009.619161) vcan0 022#FFFFFFFF00000707
(0000000009.624161) vcan0 102#0000195051CD0EDB
(0000000009.629161) vcan0 103#0200020000000E0E
(0000000009.634161) vcan0 122#D32300CA1CBB009D
(0000000009.639161) vcan0 010#00FF6130000007A9
(0000000009.644161) vcan0 231#0000000000000202
(0000000009.649161) vcan0 517#0100000000000000
(0000000009.654161) vcan0 102#0000195051CD0FDA
(0000000009.659161) vcan0 103#0200020000000F0F
(0000000009.664161) vcan0 122#D32300CA1CBB019C
(0000000009.669161) vcan0 110#0000007B01050877
(0000000009.674161) vcan0 308#0012000000008200
(0000000009.679161) vcan0 300#00000D8C00660000
(0000000009.684161) vcan0 010#00FF6130000008A6
(0000000009.689161) vcan0 316#13AD01274E000000
(0000000009.694161) vcan0 012#9999320000000436
(0000000009.699161) vcan0 320#20000000F0008200
(0000000009.704161) vcan0 342#03C2999994000390
(0000000009.709161) vcan0 516#0000000000000000
(0000000009.714161) vcan0 231#0000000000000202
(0000000009.719161) vcan0 517#0100000000000000
(0000000009.724161) vcan0 400#000B56F0000109A5
(0000000009.729161) vcan0 408#0041330AFFFF0971
(0000000009.734161) vcan0 410#3300C40000FF0800
(0000000009.739161) vcan0 411#3260000000000000
(0000000009.744161) vcan0 022#FFFFFFFF00000808
(0000000009.749161) vcan0 102#0000195051CD00D5
(0000000009.754161) vcan0 103#0200020000000000
(0000000009.759161) vcan0 122#D32300CA1CBB029F
(0000000009.764161) vcan0 010#00FF6130000009A7
(0000000009.769161) vcan0 231#0000000000000404
(0000000009.774161) vcan0 517#0000000000000000
(0000000009.779161) vcan0 102#0000195051CD01D4
(0000000009.784161) vcan0 103#0200020000000101
(0000000009.789161) vcan0 122#D32300CA1CBB039E
(0000000009.794161) vcan0 110#0000007B01050976
(0000000009.799161) vcan0 300#00000D8C00660000
(0000000009.804161) vcan0 308#0012000000008200
(0000000009.809161) vcan0 316#13AD01274E000000
(0000000009.814161) vcan0 320#20000000F0008200
(0000000009.819161) vcan0 342#03C2999994000390
(0000000009.824161) vcan0 516#0000000000000000
(0000000009.829161) vcan0 010#00FF613000000AA4
(0000000009.834161) vcan0 012#9999320001000536
(0000000009.839161) vcan0 013#FF01090000000000
(0000000009.844161) vcan0 231#0000000000000505
(0000000009.849161) vcan0 400#000B56F000010AA6
(0000000009.854161) vcan0 408#0041330AFFFF0A72
(0000000009.859161) vcan0 102#0000195051CD02D7
(0000000009.864161) vcan0 103#0200020000000202
(0000000009.869161) vcan0 122#D32300CA1CBB0499
(0000000009.874161) vcan0 410#3300C40000FF0901
(0000000009.879161) vcan0 411#3260000000000000
(0000000009.884161) vcan0 022#FFFFFFFF00000909
(0000000009.889161) vcan0 517#0100000000000000
(0000000009.894161) vcan0 010#00FF613000000BA5
(0000000009.899161) vcan0 102#0000195051CD03D6
(0000000009.904161) vcan0 103#0200020000000303
(0000000009.909161) vcan0 122#D32300CA1CBB0598
(0000000009.914161) vcan0 231#0000000000000606
(0000000009.919161) vcan0 110#0000007B01050A75
(0000000009.924161) vcan0 300#00000D8C00660000
(0000000009.929161) vcan0 308#0012000000008200
(0000000009.934161) vcan0 316#13AD01274E000000
(0000000009.939161) vcan0 320#20000000F0008200
(0000000009.944161) vcan0 342#03C2999994000390
(0000000009.949161) vcan0 516#0000000000000000
(0000000009.954161) vcan0 517#0100000000000000
(0000000009.959161) vcan0 010#00FF613000000CA2
(0000000009.964161) vcan0 012#9999320000000634
(0000000009.969161) vcan0 102#0000195051CD04D1
(0000000009.974161) vcan0 103#0200020000000404
(0000000009.979161) vcan0 122#D32300CA1CBB069B
(0000000009.984161) vcan0 400#000B56F000010BA7
(0000000009.989161) vcan0 408#0041330AFFFF0B73
(0000000009.994161) vcan0 410#3300C40000FF0A02
(0000000009.999161) vcan0 411#3260000000000000
(0000000010.004161) vcan0 022#FFFFFFFF00000A0A
(0000000010.009161) vcan0 231#0000000000000707
(0000000010.014161) vcan0 517#0000000000000000
(0000000010.019161) vcan0 332#0100000000000504
(0000000010.024161) vcan0 530#FFFF6A5364044900
(0000000010.029161) vcan0 010#00FF613000000DA3
(0000000010.034161) vcan0 102#0000195051CD05D0
(0000000010.039161) vcan0 103#0200020000000505
(0000000010.044161) vcan0 122#D32300CA1CBB079A
(0000000010.049161) vcan0 110#0000007B01050B74
(0000000010.054161) vcan0 300#00000D8C00660000
(0000000010.059161) vcan0 308#0012000000008200
(0000000010.064161) vcan0 316#13AD01274E000000
(0000000010.069161) vcan0 320#20000000F0008200
(0000000010.074161) vcan0 342#03C2999994000390
(0000000010.079161) vcan0 516#0000000000000000
(0000000010.084161) vcan0 231#0000000000000808
(0000000010.089161) vcan0 517#0000000000000000
(0000000010.094161) vcan0 010#00FF613000000EA0
(0000000010.099161) vcan0 012#9999320001000734
(0000000010.104161) vcan0 102#0000195051CD06D3
(0000000010.109161) vcan0 103#0200020000000606
(0000000010.114161) vcan0 122#D32300CA1CBB0895
(0000000010.119161) vcan0 400#000B56F000010CA0
(0000000010.124161) vcan0 408#0041330AFFFF0C74
(0000000010.129161) vcan0 410#3300C40000FF0B03
(0000000010.134161) vcan0 411#3260000000000000
(0000000010.139161) vcan0 022#FFFFFFFF00000B0B
(0000000010.144161) vcan0 231#0000000000000A0A
(0000000010.149161) vcan0 517#0100000000000000
(0000000010.154161) vcan0 010#00FF613000000FA1
(0000000010.159161) vcan0 013#FF01090000000000
(0000000010.164161) vcan0 102#0000195051CD07D2
(0000000010.169161) vcan0 103#0200020000000707
(0000000010.174161) vcan0 122#D32300CA1CBB0994
(0000000010.179161) vcan0 110#0000007B01050C73
(0000000010.184161) vcan0 308#0012000000008200
(0000000010.189161) vcan0 300#00000D8C00660000
(0000000010.194161) vcan0 316#13AD01274E000000
(0000000010.199161) vcan0 320#20000000F0008200
(0000000010.204161) vcan0 342#03C2999994000390
(0000000010.209161) vcan0 516#0000000000000000
(0000000010.214161) vcan0 231#0000000000000A0A
(0000000010.219161) vcan0 517#0100000000000000
(0000000010.224161) vcan0 010#00FF6130000000AE
(0000000010.229161) vcan0 012#999932000000083A
(0000000010.234161) vcan0 102#0000195051CD08DD
(0000000010.239161) vcan0 103#0200020000000808
(0000000010.244161) vcan0 122#D32300CA1CBB0A97
(0000000010.249161) vcan0 400#000B56F000010DA1
(0000000010.254161) vcan0 408#0041330AFFFF0D75
(0000000010.259161) vcan0 410#3300AA3000FF0C5A
(0000000010.264161) vcan0 411#3260000000000000
(0000000010.269161) vcan0 022#FFFFFFFF00000C0C
(0000000010.274161) vcan0 231#0000000000000C0C
(0000000010.279161) vcan0 517#0000000000000000
(0000000010.284161) vcan0 102#0000195051CD09DC
(0000000010.289161) vcan0 103#0200020000000909
(0000000010.294161) vcan0 010#00FF6130000001AF
(0000000010.299161) vcan0 122#D32300CA1CBB0B96
(0000000010.304161) vcan0 110#0000007B01050D72
(0000000010.309161) vcan0 300#00000D8C00660000
(0000000010.314161) vcan0 308#0012000000008200
(0000000010.319161) vcan0 316#13AD01274E000000
(0000000010.324161) vcan0 320#20000000F0008200
(0000000010.329161) vcan0 342#03C2999994000390
(0000000010.334161) vcan0 516#0000000000000000
(0000000010.339161) vcan0 231#0000000000000C0C
(0000000010.344161) vcan0 517#0000000000000000
(0000000010.349161) vcan0 102#0000195051CD0ADF
(0000000010.354161) vcan0 103#0200020000000A0A
(0000000010.359161) vcan0 122#D32300CA1CBB0C91
(0000000010.364161) vcan0 010#00FF6130000002AC
(0000000010.369161) vcan0 012#999932000100093A
(0000000010.374161) vcan0 400#000B56F000010EA2
(0000000010.379161) vcan0 408#0041330AFFFF0E76
(0000000010.384161) vcan0 410#3300AA3000FF0D5B
(0000000010.389161) vcan0 411#3260000000000000
(0000000010.394161) vcan0 022#FFFFFFFF00000D0D
(0000000010.399161) vcan0 231#0000000000000E0E
(0000000010.404161) vcan0 517#0100000000000000
(0000000010.409161) vcan0 102#0000195051CD0BDE
(0000000010.414161) vcan0 103#0200020000000B0B
(0000000010.419161) vcan0 122#D32300CA1CBB0D90
(0000000010.424161) vcan0 110#0000007B01050E71
(0000000010.429161) vcan0 308#0012000000008200
(0000000010.434161) vcan0 300#00000D8C00660000
(0000000010.439161) vcan0 316#13AD01274E000000
(0000000010.444161) vcan0 320#20000000F0008200
(0000000010.449161) vcan0 342#03C2999994000390
(0000000010.454161) vcan0 010#00FF6130000003AD
(0000000010.459161) vcan0 516#0000000000000000
(0000000010.464161) vcan0 231#0000000000000F0F
(0000000010.469161) vcan0 517#0000000000000000
(0000000010.474161) vcan0 102#0000195051CD0CD9
(0000000010.479161) vcan0 103#0200020000000C0C
(0000000010.484161) vcan0 122#D32300CA1CBB0E93
(0000000010.489161) vcan0 010#00FF6130000004AA
(0000000010.494161) vcan0 012#9999320000000A38
(0000000010.499161) vcan0 013#FF01090000000000
(0000000010.504161) vcan0 400#000B56F000010FA3
(0000000010.509161) vcan0 408#0041330AFFFF0F77
(0000000010.514161) vcan0 410#3300AA3000FF0F59
(0000000010.519161) vcan0 411#3260000000000000
(0000000010.524161) vcan0 022#FFFFFFFF00000F0F
(0000000010.529161) vcan0 231#0000000000000000
(0000000010.534161) vcan0 517#0000000000000000
(0000000010.539161) vcan0 102#0000195051CD0DD8
(0000000010.544161) vcan0 103#0200020000000D0D
(0000000010.549161) vcan0 122#D32300CA1CBB0F92
(0000000010.554161) vcan0 110#0000007B01050F70
(0000000010.559161) vcan0 300#00000D8C00660000
(0000000010.564161) vcan0 308#0012000000008200
(0000000010.569161) vcan0 316#13AD01274E000000
(0000000010.574161) vcan0 320#20000000F0008200
(0000000010.579161) vcan0 342#03C2999994000390
(0000000010.584161) vcan0 516#0000000000000000
(0000000010.589161) vcan0 010#00FF6130000005AB
(0000000010.594161) vcan0 102#0000195051CD0EDB
(0000000010.599161) vcan0 103#0200020000000E0E
(0000000010.604161) vcan0 122#D32300CA1CBB009D
(0000000010.609161) vcan0 231#0000000000000101
(0000000010.614161) vcan0 517#0100000000000000
(0000000010.619161) vcan0 010#00FF6130000006A8
(0000000010.624161) vcan0 400#000B56F0000100AC
(0000000010.629161) vcan0 012#9999320001000B38
(0000000010.634161) vcan0 408#0041330AFFFF0078
(0000000010.639161) vcan0 410#3300AA3100FF0057
(0000000010.644161) vcan0 411#3260000000000000
(0000000010.649161) vcan0 022#FFFFFFFF00000000
(0000000010.654161) vcan0 332#0100000000000607
(0000000010.659161) vcan0 530#FFFF6A5364044900
(0000000010.664161) vcan0 102#0000195051CD0FDA
(0000000010.669161) vcan0 103#0200020000000F0F
(0000000010.674161) vcan0 122#D32300CA1CBB019C
(0000000010.679161) vcan0 110#0000007B0105007F
(0000000010.684161) vcan0 308#0012000000008200
(0000000010.689161) vcan0 231#0000000000000202
(0000000010.694161) vcan0 300#00000D8C00660000
(0000000010.699161) vcan0 316#13AD01274E000000
(0000000010.704161) vcan0 320#20000000F0008200
(0000000010.709161) vcan0 342#03C2999994000390
(0000000010.714161) vcan0 516#0000000000000000
(0000000010.719161) vcan0 517#0100000000000000
