Time Stamp,ID,Extended,Dir,Bus,LEN,D1,D2,D3,D4,D5,D6,D7,D8
89161,00000103,false,Rx,0,8,02,00,02,00,00,00,05,05,
94161,00000122,false,Rx,0,8,D3,23,00,CA,1C,BB,07,9A,
99161,00000110,false,Rx,0,8,00,00,00,7B,01,05,0B,74,
104161,00000300,false,Rx,0,8,00,00,0D,8C,00,66,00,00,
109161,00000308,false,Rx,0,8,00,12,00,00,00,00,82,00,
114161,00000316,false,Rx,0,8,13,AD,01,27,4E,00,00,00,
119161,00000320,false,Rx,0,8,20,00,00,00,F0,00,82,00,
124161,00000342,false,Rx,0,8,03,C2,99,99,94,00,03,90,
129161,00000516,false,Rx,0,8,00,00,00,00,00,00,00,00,
134161,00000010,false,Rx,0,8,00,FF,61,30,00,00,0C,A2,
139161,00000012,false,Rx,0,8,99,99,32,00,00,00,0E,3C,
144161,00000231,false,Rx,0,8,00,01,00,00,00,00,09,08,
149161,00000517,false,Rx,0,8,01,00,00,00,00,00,00,00,
154161,00000102,false,Rx,0,8,00,00,19,50,51,CD,06,D3,
159161,00000103,false,Rx,0,8,02,00,02,00,00,00,06,06,
164161,00000122,false,Rx,0,8,D3,23,00,CA,1C,BB,08,95,
169161,00000010,false,Rx,0,8,00,FF,61,30,00,00,0D,A3,
174161,00000400,false,Rx,0,8,00,0B,56,F0,00,01,0C,A0,
179161,00000408,false,Rx,0,8,00,41,33,0A,FF,FF,0C,74,
184161,00000410,false,Rx,0,8,3B,00,AA,31,00,FF,0C,53,
189161,00000411,false,Rx,0,8,32,60,00,00,00,00,00,00,
194161,00000022,false,Rx,0,8,FF,FF,FF,FF,00,00,0C,0C,
199161,00000231,false,Rx,0,8,00,01,00,00,00,00,0A,0B,
204161,00000517,false,Rx,0,8,01,00,00,00,00,00,00,00,
209161,00000102,false,Rx,0,8,00,00,19,50,51,CD,07,D2,
214161,00000103,false,Rx,0,8,02,00,02,00,00,00,07,07,
219161,00000122,false,Rx,0,8,D3,23,00,CA,1C,BB,09,94,
224161,00000110,false,Rx,0,8,00,00,00,7B,01,05,0C,73,
229161,00000308,false,Rx,0,8,00,12,00,00,00,00,82,00,
234161,00000300,false,Rx,0,8,00,00,0D,8C,00,66,00,00,
239161,00000316,false,Rx,0,8,13,AD,01,27,4E,00,00,00,
244161,00000320,false,Rx,0,8,20,00,00,00,F0,00,82,00,
249161,00000342,false,Rx,0,8,03,C2,99,99,94,00,03,90,
254161,00000516,false,Rx,0,8,00,00,00,00,00,00,00,00,
259161,00000010,false,Rx,0,8,00,FF,61,30,00,00,0E,A0,
264161,00000012,false,Rx,0,8,99,99,32,00,01,00,0F,3C,
269161,00000013,false,Rx,0,8,FF,01,09,00,00,00,00,00,
274161,00000231,false,Rx,0,8,00,01,00,00,00,00,0B,0A,
279161,00000517,false,Rx,0,8,00,00,00,00,00,00,00,00,
284161,00000102,false,Rx,0,8,00,00,19,50,51,CD,08,DD,
289161,00000103,false,Rx,0,8,02,00,02,00,00,00,08,08,
294161,00000122,false,Rx,0,8,D3,23,00,CA,1C,BB,0A,97,
299161,00000010,false,Rx,0,8,00,FF,61,30,00,00,0F,A1,
304161,00000400,false,Rx,0,8,00,0B,56,F0,00,01,0D,A1,
309161,00000408,false,Rx,0,8,00,41,33,0A,FF,FF,0D,75,
314161,00000410,false,Rx,0,8,3B,00,AA,31,00,FF,0D,52,
319161,00000411,false,Rx,0,8,32,60,00,00,00,00,00,00,
324161,00000022,false,Rx,0,8,FF,FF,FF,FF,00,00,0D,0D,
329161,00000102,false,Rx,0,8,00,00,19,50,51,CD,09,DC,
334161,00000103,false,Rx,0,8,02,00,02,00,00,00,09,09,
339161,00000122,false,Rx,0,8,D3,23,00,CA,1C,BB,0B,96,
344161,00000110,false,Rx,0,8,00,00,00,7B,01,05,0D,72,
349161,00000231,false,Rx,0,8,00,01,00,00,00,00,0C,0D,
354161,00000300,false,Rx,0,8,00,00,0D,8C,00,66,00,00,
359161,00000308,false,Rx,0,8,00,12,00,00,00,00,82,00,
364161,00000316,false,Rx,0,8,13,AD,01,27,4E,00,00,00,
369161,00000320,false,Rx,0,8,20,00,00,00,F0,00,82,00,
374161,00000342,false,Rx,0,8,03,C2,99,99,94,00,03,90,
379161,00000516,false,Rx,0,8,00,00,00,00,00,00,00,00,
384161,00000517,false,Rx,0,8,00,00,00,00,00,00,00,00,
389161,00000010,false,Rx,0,8,00,FF,61,30,00,00,00,AE,
394161,00000012,false,Rx,0,8,99,99,32,00,00,00,00,32,
399161,00000102,false,Rx,0,8,00,00,19,50,51,CD,0A,DF,
404161,00000103,false,Rx,0,8,02,00,02,00,00,00,0A,0A,
409161,00000122,false,Rx,0,8,D3,23,00,CA,1C,BB,0C,91,
414161,00000231,false,Rx,0,8,00,01,00,00,00,00,0D,0C,
419161,00000517,false,Rx,0,8,01,00,00,00,00,00,00,00,
424161,00000400,false,Rx,0,8,00,0B,56,F0,00,01,0E,A2,
429161,00000408,false,Rx,0,8,00,41,33,0A,FF,FF,0E,76,
434161,00000010,false,Rx,0,8,00,FF,61,30,00,00,01,AF,
439161,00000410,false,Rx,0,8,3B,00,AA,31,00,FF,0E,51,
444161,00000411,false,Rx,0,8,32,60,00,00,00,00,00,00,
449161,00000022,false,Rx,0,8,FF,FF,FF,FF,00,00,0E,0E,
454161,00000102,false,Rx,0,8,00,00,19,50,51,CD,0B,DE,
459161,00000103,false,Rx,0,8,02,00,02,00,00,00,0B,0B,
464161,00000122,false,Rx,0,8,D3,23,00,CA,1C,BB,0D,90,
469161,00000110,false,Rx,0,8,00,00,00,7B,01,05,0E,71,
474161,00000308,false,Rx,0,8,00,12,00,00,00,00,82,00,
479161,00000300,false,Rx,0,8,00,00,0D,8C,00,66,00,00,
484161,00000316,false,Rx,0,8,13,AD,01,27,4E,00,00,00,
489161,00000320,false,Rx,0,8,20,00,00,00,F0,00,82,00,
494161,00000342,false,Rx,0,8,03,C2,99,99,94,00,03,90,
499161,00000231,false,Rx,0,8,00,01,00,00,00,00,0E,0F,
504161,00000516,false,Rx,0,8,00,00,00,00,00,00,00,00,
509161,00000517,false,Rx,0,8,01,00,00,00,00,00,00,00,
514161,00000010,false,Rx,0,8,00,FF,61,30,00,00,02,AC,
519161,00000012,false,Rx,0,8,99,99,32,00,01,00,01,32,
524161,00000102,false,Rx,0,8,00,00,19,50,51,CD,0C,D9,
529161,00000103,false,Rx,0,8,02,00,02,00,00,00,0C,0C,
534161,00000122,false,Rx,0,8,D3,23,00,CA,1C,BB,0E,93,
539161,00000231,false,Rx,0,8,00,01,00,00,00,00,00,01,
544161,00000517,false,Rx,0,8,00,00,00,00,00,00,00,00,
549161,00000400,false,Rx,0,8,00,0B,56,F0,00,01,0F,A3,
554161,00000408,false,Rx,0,8,00,41,33,0A,FF,FF,0F,77,
559161,00000410,false,Rx,0,8,3B,00,AA,31,00,FF,0F,50,
564161,00000411,false,Rx,0,8,32,60,00,00,00,00,00,00,
569161,00000022,false,Rx,0,8,FF,FF,FF,FF,00,00,0F,0F,
574161,00000010,false,Rx,0,8,00,FF,61,30,00,00,03,AD,
579161,00000013,false,Rx,0,8,FF,01,09,00,00,00,00,00,
584161,00000102,false,Rx,0,8,00,00,19,50,51,CD,0D,D8,
589161,00000103,false,Rx,0,8,02,00,02,00,00,00,0D,0D,
594161,00000122,false,Rx,0,8,D3,23,00,CA,1C,BB,0F,92,
599161,00000110,false,Rx,0,8,00,00,00,7B,01,05,0F,70,
604161,00000300,false,Rx,0,8,00,00,0D,8C,00,66,00,00,
609161,00000308,false,Rx,0,8,00,12,00,00,00,00,82,00,
614161,00000316,false,Rx,0,8,13,AD,01,27,4E,00,00,00,
619161,00000320,false,Rx,0,8,20,00,00,00,F0,00,82,00,
624161,00000332,false,Rx,0,8,01,00,00,00,00,00,05,04,
629161,00000342,false,Rx,0,8,03,C2,99,99,94,00,03,90,
634161,00000516,false,Rx,0,8,00,00,00,00,00,00,00,00,
639161,00000530,false,Rx,0,8,FF,FF,6A,51,64,04,49,00,
644161,00000231,false,Rx,0,8,00,01,00,00,00,00,00,01,
649161,00000517,false,Rx,0,8,00,00,00,00,00,00,00,00,
654161,00000102,false,Rx,0,8,00,00,19,50,51,CD,0E,DB,
659161,00000103,false,Rx,0,8,02,00,02,00,00,00,0E,0E,
664161,00000122,false,Rx,0,8,D3,23,00,CA,1C,BB,00,9D,
669161,00000010,false,Rx,0,8,00,FF,61,30,00,00,04,AA,
674161,00000012,false,Rx,0,8,99,99,32,00,00,00,02,30,
679161,00000231,false,Rx,0,8,00,01,00,00,00,00,02,03,
684161,00000517,false,Rx,0,8,01,00,00,00,00,00,00,00,
689161,00000400,false,Rx,0,8,00,0B,56,F0,00,01,00,AC,
694161,00000408,false,Rx,0,8,00,41,33,0A,FF,FF,00,78,
699161,00000410,false,Rx,0,8,3B,00,C4,00,00,FF,00,00,
704161,00000102,false,Rx,0,8,00,00,19,50,51,CD,0F,DA,
709161,00000103,false,Rx,0,8,02,00,02,00,00,00,0F,0F,
714161,00000122,false,Rx,0,8,D3,23,00,CA,1C,BB,01,9C,
719161,00000411,false,Rx,0,8,32,60,00,00,00,00,00,00,
724161,00000110,false,Rx,0,8,00,00,00,7B,01,05,00,7F,
729161,00000022,false,Rx,0,8,FF,FF,FF,FF,00,00,00,00,
734161,00000300,false,Rx,0,8,00,00,0D,8C,00,66,00,00,
739161,00000010,false,Rx,0,8,00,FF,61,30,00,00,05,AB,
744161,00000308,false,Rx,0,8,00,12,00,00,00,00,82,00,
749161,00000316,false,Rx,0,8,13,AD,01,27,4E,00,00,00,
754161,00000320,false,Rx,0,8,20,00,00,00,F0,00,82,00,
759161,00000342,false,Rx,0,8,03,C2,99,99,94,00,03,90,
764161,00000516,false,Rx,0,8,00,00,00,00,00,00,00,00,
769161,00000231,false,Rx,0,8,00,01,00,00,00,00,02,03,
774161,00000517,false,Rx,0,8,01,00,00,00,00,00,00,00,
779161,00000102,false,Rx,0,8,00,00,19,50,51,CD,00,D5,
784161,00000103,false,Rx,0,8,02,00,02,00,00,00,00,00,
789161,00000122,false,Rx,0,8,D3,23,00,CA,1C,BB,02,9F,
794161,00000010,false,Rx,0,8,00,FF,61,30,00,00,06,A8,
799161,00000012,false,Rx,0,8,99,99,32,00,01,00,03,30,
804161,00000231,false,Rx,0,8,00,01,00,00,00,00,04,05,
809161,00000517,false,Rx,0,8,00,00,00,00,00,00,00,00,
814161,00000102,false,Rx,0,8,00,00,19,50,51,CD,01,D4,
819161,00000103,false,Rx,0,8,02,00,02,00,00,00,01,01,
824161,00000122,false,Rx,0,8,D3,23,00,CA,1C,BB,03,9E,
829161,00000110,false,Rx,0,8,00,00,00,7B,01,05,01,7E,
834161,00000300,false,Rx,0,8,00,00,0D,8C,00,66,00,00,
839161,00000308,false,Rx,0,8,00,12,00,00,00,00,82,00,
844161,00000316,false,Rx,0,8,13,AD,01,27,4E,00,00,00,
849161,00000320,false,Rx,0,8,20,00,00,00,F0,00,82,00,
854161,00000342,false,Rx,0,8,03,C2,99,99,94,00,03,90,
859161,00000400,false,Rx,0,8,00,0B,56,F0,00,01,01,AD,
864161,00000516,false,Rx,0,8,00,00,00,00,00,00,00,00,
869161,00000408,false,Rx,0,8,00,41,33,0A,FF,FF,01,79,
874161,00000410,false,Rx,0,8,3B,00,C4,00,00,FF,01,01,
879161,00000411,false,Rx,0,8,32,60,00,00,00,00,00,00,
884161,00000022,false,Rx,0,8,FF,FF,FF,FF,00,00,01,01,
889161,00000010,false,Rx,0,8,00,FF,61,30,00,00,07,A9,
894161,00000231,false,Rx,0,8,00,01,00,00,00,00,05,04,
899161,00000517,false,Rx,0,8,01,00,00,00,00,00,00,00,
904161,00000102,false,Rx,0,8,00,00,19,50,51,CD,02,D7,
909161,00000103,false,Rx,0,8,02,00,02,00,00,00,02,02,
914161,00000122,false,Rx,0,8,D3,23,00,CA,1C,BB,04,99,
919161,00000010,false,Rx,0,8,00,FF,61,30,00,00,08,A6,
924161,00000012,false,Rx,0,8,99,99,32,00,00,00,04,36,
929161,00000013,false,Rx,0,8,FF,01,09,00,00,00,00,00,
934161,00000231,false,Rx,0,8,00,01,00,00,00,00,06,07,
939161,00000517,false,Rx,0,8,01,00,00,00,00,00,00,00,
944161,00000102,false,Rx,0,8,00,00,19,50,51,CD,03,D6,
949161,00000103,false,Rx,0,8,02,00,02,00,00,00,03,03,
954161,00000122,false,Rx,0,8,D3,23,00,CA,1C,BB,05,98,
959161,00000110,false,Rx,0,8,00,00,00,7B,01,05,02,7D,
964161,00000308,false,Rx,0,8,00,12,00,00,00,00,82,00,
969161,00000300,false,Rx,0,8,00,00,0D,8C,00,66,00,00,
974161,00000316,false,Rx,0,8,13,AD,01,27,4E,00,00,00,
979161,00000320,false,Rx,0,8,20,00,00,00,F0,00,82,00,
984161,00000342,false,Rx,0,8,03,C2,99,99,94,00,03,90,
989161,00000400,false,Rx,0,8,00,0B,56,F0,00,01,02,AE,
994161,00000516,false,Rx,0,8,00,00,00,00,00,00,00,00,
999161,00000408,false,Rx,0,8,00,41,33,0A,FF,FF,02,7A,
1004161,00000410,false,Rx,0,8,3B,00,C4,00,00,FF,02,02,
1009161,00000411,false,Rx,0,8,32,60,00,00,00,00,00,00,
1014161,00000022,false,Rx,0,8,FF,FF,FF,FF,00,00,02,02,
1019161,00000010,false,Rx,0,8,00,FF,61,30,00,00,09,A7,
1024161,00000102,false,Rx,0,8,00,00,19,50,51,CD,04,D1,
1029161,00000103,false,Rx,0,8,02,00,02,00,00,00,04,04,
1034161,00000122,false,Rx,0,8,D3,23,00,CA,1C,BB,06,9B,
1039161,00000231,false,Rx,0,8,00,01,00,00,00,00,07,06,
1044161,00000517,false,Rx,0,8,00,00,00,00,00,00,00,00,
1049161,00000010,false,Rx,0,8,00,FF,61,30,00,00,0A,A4,
1054161,00000012,false,Rx,0,8,99,99,32,00,01,00,05,36,
1059161,00000102,false,Rx,0,8,00,00,19,50,51,CD,05,D0,
1064161,00000103,false,Rx,0,8,02,00,02,00,00,00,05,05,
1069161,00000122,false,Rx,0,8,D3,23,00,CA,1C,BB,07,9A,
1074161,00000110,false,Rx,0,8,00,00,00,7B,01,05,03,7C,
1079161,00000300,false,Rx,0,8,00,00,0D,8C,00,66,00,00,
1084161,00000308,false,Rx,0,8,00,12,00,00,00,00,82,00,
1089161,00000231,false,Rx,0,8,00,01,00,00,00,00,08,09,
1094161,00000316,false,Rx,0,8,13,AD,01,27,4E,00,00,00,
1099161,00000320,false,Rx,0,8,20,00,00,00,F0,00,82,00,
1104161,00000342,false,Rx,0,8,03,C2,99,99,94,00,03,90,
1109161,00000516,false,Rx,0,8,00,00,00,00,00,00,00,00,
1114161,00000517,false,Rx,0,8,00,00,00,00,00,00,00,00,
1119161,00000400,false,Rx,0,8,00,0B,56,F0,00,01,03,AF,
1124161,00000408,false,Rx,0,8,00,41,33,0A,FF,FF,03,7B,
1129161,00000410,false,Rx,0,8,3B,00,C4,00,00,FF,03,03,
1134161,00000411,false,Rx,0,8,32,60,00,00,00,00,00,00,
1139161,00000022,false,Rx,0,8,FF,FF,FF,FF,00,00,03,03,
1144161,00000010,false,Rx,0,8,00,FF,61,30,00,00,0B,A5,
1149161,00000102,false,Rx,0,8,00,00,19,50,51,CD,06,D3,
1154161,00000103,false,Rx,0,8,02,00,02,00,00,00,06,06,
1159161,00000122,false,Rx,0,8,D3,23,00,CA,1C,BB,08,95,
1164161,00000231,false,Rx,0,8,00,01,00,00,00,00,09,08,
1169161,00000517,false,Rx,0,8,01,00,00,00,00,00,00,00,
1174161,00000010,false,Rx,0,8,00,FF,61,30,00,00,0C,A2,
1179161,00000012,false,Rx,0,8,99,99,32,00,00,00,06,34,
1184161,00000102,false,Rx,0,8,00,00,19,50,51,CD,07,D2,
1189161,00000103,false,Rx,0,8,02,00,02,00,00,00,07,07,
1194161,00000122,false,Rx,0,8,D3,23,00,CA,1C,BB,09,94,
1199161,00000110,false,Rx,0,8,00,00,00,7B,01,05,04,7B,
1204161,00000308,false,Rx,0,8,00,12,00,00,00,00,82,00,
1209161,00000300,false,Rx,0,8,00,00,0D,8C,00,66,00,00,
1214161,00000316,false,Rx,0,8,13,AD,01,27,4E,00,00,00,
1219161,00000320,false,Rx,0,8,20,00,00,00,F0,00,82,00,
1224161,00000332,false,Rx,0,8,01,00,00,00,00,00,06,07,
1229161,00000342,false,Rx,0,8,03,C2,99,99,94,00,03,90,
1234161,00000516,false,Rx,0,8,00,00,00,00,00,00,00,00,
1239161,00000530,false,Rx,0,8,FF,FF,6A,51,64,04,49,00,
1244161,00000231,false,Rx,0,8,00,01,00,00,00,00,0A,0B,
1249161,00000400,false,Rx,0,8,00,0B,56,F0,00,01,04,A8,
1254161,00000408,false,Rx,0,8,00,41,33,0A,FF,FF,04,7C,
1259161,00000410,false,Rx,0,8,3B,00,AA,30,00,FF,04,5A,
1264161,00000411,false,Rx,0,8,32,60,00,00,00,00,00,00,
1269161,00000022,false,Rx,0,8,FF,FF,FF,FF,00,00,04,04,
1274161,00000517,false,Rx,0,8,01,00,00,00,00,00,00,00,
1279161,00000010,false,Rx,0,8,00,FF,61,30,00,00,0D,A3,
1284161,00000013,false,Rx,0,8,FF,01,09,00,00,00,00,00,
1289161,00000102,false,Rx,0,8,00,00,19,50,51,CD,08,DD,
1294161,00000103,false,Rx,0,8,02,00,02,00,00,00,08,08,
1299161,00000122,false,Rx,0,8,D3,23,00,CA,1C,BB,0A,97,
1304161,00000231,false,Rx,0,8,00,01,00,00,00,00,0C,0D,
1309161,00000517,false,Rx,0,8,00,00,00,00,00,00,00,00,
1314161,00000102,false,Rx,0,8,00,00,19,50,51,CD,09,DC,
1319161,00000103,false,Rx,0,8,02,00,02,00,00,00,09,09,
1324161,00000122,false,Rx,0,8,D3,23,00,CA,1C,BB,0B,96,
1329161,00000010,false,Rx,0,8,00,FF,61,30,00,00,0E,A0,
1334161,00000110,false,Rx,0,8,00,00,00,7B,01,05,05,7A,
1339161,00000012,false,Rx,0,8,99,99,32,00,01,00,07,34,
1344161,00000300,false,Rx,0,8,00,00,0D,8C,00,66,00,00,
1349161,00000308,false,Rx,0,8,00,12,00,00,00,00,82,00,
1354161,00000316,false,Rx,0,8,13,AD,01,27,4E,00,00,00,
1359161,00000320,false,Rx,0,8,20,00,00,00,F0,00,82,00,
1364161,00000342,false,Rx,0,8,03,C2,99,99,94,00,03,90,
1369161,00000516,false,Rx,0,8,00,00,00,00,00,00,00,00,
1374161,00000400,false,Rx,0,8,00,0B,56,F0,00,01,05,A9,
1379161,00000408,false,Rx,0,8,00,41,33,0A,FF,FF,05,7D,
1384161,00000410,false,Rx,0,8,3B,00,AA,30,00,FF,05,5B,
1389161,00000411,false,Rx,0,8,32,60,00,00,00,00,00,00,
1394161,00000022,false,Rx,0,8,FF,FF,FF,FF,00,00,05,05,
1399161,00000231,false,Rx,0,8,00,01,00,00,00,00,0C,0D,
1404161,00000517,false,Rx,0,8,00,00,00,00,00,00,00,00,
1409161,00000102,false,Rx,0,8,00,00,19,50,51,CD,0A,DF,
1414161,00000103,false,Rx,0,8,02,00,02,00,00,00,0A,0A,
1419161,00000122,false,Rx,0,8,D3,23,00,CA,1C,BB,0C,91,
1424161,00000010,false,Rx,0,8,00,FF,61,30,00,00,0F,A1,
1429161,00000231,false,Rx,0,8,00,01,00,00,00,00,0E,0F,
1434161,00000517,false,Rx,0,8,01,00,00,00,00,00,00,00,
1439161,00000102,false,Rx,0,8,00,00,19,50,51,CD,0B,DE,
1444161,00000103,false,Rx,0,8,02,00,02,00,00,00,0B,0B,
1449161,00000122,false,Rx,0,8,D3,23,00,CA,1C,BB,0D,90,
1454161,00000110,false,Rx,0,8,00,00,00,7B,01,05,06,79,
1459161,00000308,false,Rx,0,8,00,12,00,00,00,00,82,00,
1464161,00000300,false,Rx,0,8,00,00,0D,8C,00,66,00,00,
1469161,00000316,false,Rx,0,8,13,AD,01,27,4E,00,00,00,
1474161,00000320,false,Rx,0,8,20,00,00,00,F0,00,82,00,
1479161,00000342,false,Rx,0,8,03,C2,99,99,94,00,03,90,
1484161,00000516,false,Rx,0,8,00,00,00,00,00,00,00,00,
1489161,00000010,false,Rx,0,8,00,FF,61,30,00,00,00,AE,
1494161,00000012,false,Rx,0,8,99,99,32,00,00,00,08,3A,
1499161,00000400,false,Rx,0,8,00,0B,56,F0,00,01,06,AA,
1504161,00000408,false,Rx,0,8,00,41,33,0A,FF,FF,06,7E,
1509161,00000410,false,Rx,0,8,3B,00,AA,30,00,FF,06,58,
1514161,00000411,false,Rx,0,8,32,60,00,00,00,00,00,00,
1519161,00000022,false,Rx,0,8,FF,FF,FF,FF,00,00,06,06,
1524161,00000231,false,Rx,0,8,00,01,00,00,00,00,0F,0E,
1529161,00000517,false,Rx,0,8,00,00,00,00,00,00,00,00,
1534161,00000102,false,Rx,0,8,00,00,19,50,51,CD,0C,D9,
1539161,00000103,false,Rx,0,8,02,00,02,00,00,00,0C,0C,
1544161,00000122,false,Rx,0,8,D3,23,00,CA,1C,BB,0E,93,
1549161,00000010,false,Rx,0,8,00,FF,61,30,00,00,01,AF,
1554161,00000231,false,Rx,0,8,00,01,00,00,00,00,00,01,
1559161,00000517,false,Rx,0,8,00,00,00,00,00,00,00,00,
1564161,00000102,false,Rx,0,8,00,00,19,50,51,CD,0D,D8,
1569161,00000103,false,Rx,0,8,02,00,02,00,00,00,0D,0D,
1574161,00000122,false,Rx,0,8,D3,23,00,CA,1C,BB,0F,92,
1579161,00000110,false,Rx,0,8,00,00,00,7B,01,05,07,78,
1584161,00000300,false,Rx,0,8,00,00,0D,8C,00,66,00,00,
1589161,00000308,false,Rx,0,8,00,12,00,00,00,00,82,00,
1594161,00000316,false,Rx,0,8,13,AD,01,27,4E,00,00,00,
1599161,00000320,false,Rx,0,8,20,00,00,00,F0,00,82,00,
1604161,00000342,false,Rx,0,8,03,C2,99,99,94,00,03,90,
1609161,00000516,false,Rx,0,8,00,00,00,00,00,00,00,00,
1614161,00000010,false,Rx,0,8,00,FF,61,30,00,00,02,AC,
1619161,00000012,false,Rx,0,8,99,99,32,00,01,00,09,3A,
1624161,00000013,false,Rx,0,8,FF,01,09,00,00,00,00,00,
1629161,00000400,false,Rx,0,8,00,0B,56,F0,00,01,07,AB,
1634161,00000408,false,Rx,0,8,00,41,33,0A,FF,FF,07,7F,
1639161,00000410,false,Rx,0,8,3B,00,AA,30,00,FF,07,59,
1644161,00000411,false,Rx,0,8,32,60,00,00,00,00,00,00,
1649161,00000022,false,Rx,0,8,FF,FF,FF,FF,00,00,07,07,
1654161,00000231,false,Rx,0,8,00,01,00,00,00,00,01,00,
1659161,00000517,false,Rx,0,8,01,00,00,00,00,00,00,00,
1664161,00000102,false,Rx,0,8,00,00,19,50,51,CD,0E,DB,
1669161,00000103,false,Rx,0,8,02,00,02,00,00,00,0E,0E,
1674161,00000122,false,Rx,0,8,D3,23,00,CA,1C,BB,00,9D,
1679161,00000010,false,Rx,0,8,00,FF,61,30,00,00,03,AD,
1684161,00000102,false,Rx,0,8,00,00,19,50,51,CD,0F,DA,
1689161,00000103,false,Rx,0,8,02,00,02,00,00,00,0F,0F,
1694161,00000122,false,Rx,0,8,D3,23,00,CA,1C,BB,01,9C,
1699161,00000231,false,Rx,0,8,00,01,00,00,00,00,02,03,
1704161,00000110,false,Rx,0,8,00,00,00,7B,01,05,08,77,
1709161,00000300,false,Rx,0,8,00,00,0D,8C,00,66,00,00,
1714161,00000308,false,Rx,0,8,00,12,00,00,00,00,82,00,
1719161,00000316,false,Rx,0,8,13,AD,01,27,4E,00,00,00,
1724161,00000320,false,Rx,0,8,20,00,00,00,F0,00,82,00,
1729161,00000342,false,Rx,0,8,03,C2,99,99,94,00,03,90,
1734161,00000516,false,Rx,0,8,00,00,00,00,00,00,00,00,
1739161,00000517,false,Rx,0,8,01,00,00,00,00,00,00,00,
1744161,00000010,false,Rx,0,8,00,FF,61,30,00,00,04,AA,
1749161,00000012,false,Rx,0,8,99,99,32,00,00,00,0A,38,
1754161,00000400,false,Rx,0,8,00,0B,56,F0,00,01,09,A5,
1759161,00000408,false,Rx,0,8,00,41,33,0A,FF,FF,08,70,
1764161,00000410,false,Rx,0,8,3B,00,AA,31,00,FF,08,57,
1769161,00000411,false,Rx,0,8,32,60,00,00,00,00,00,00,
1774161,00000022,false,Rx,0,8,FF,FF,FF,FF,00,00,08,08,
1779161,00000102,false,Rx,0,8,00,00,19,50,51,CD,00,D5,
1784161,00000103,false,Rx,0,8,02,00,02,00,00,00,00,00,
1789161,00000122,false,Rx,0,8,D3,23,00,CA,1C,BB,02,9F,
1794161,00000231,false,Rx,0,8,00,01,00,00,00,00,03,02,
1799161,00000517,false,Rx,0,8,00,00,00,00,00,00,00,00,
1804161,00000010,false,Rx,0,8,00,FF,61,30,00,00,05,AB,
1809161,00000102,false,Rx,0,8,00,00,19,50,51,CD,01,D4,
1814161,00000103,false,Rx,0,8,02,00,02,00,00,00,01,01,
1819161,00000122,false,Rx,0,8,D3,23,00,CA,1C,BB,03,9E,
1824161,00000110,false,Rx,0,8,00,00,00,7B,01,05,09,76,
1829161,00000300,false,Rx,0,8,00,00,0D,8C,00,66,00,00,
1834161,00000308,false,Rx,0,8,00,12,00,00,00,00,82,00,
1839161,00000316,false,Rx,0,8,13,AD,01,27,4E,00,00,00,
1844161,00000320,false,Rx,0,8,20,00,00,00,F0,00,82,00,
1849161,00000342,false,Rx,0,8,03,C2,99,99,94,00,03,90,
1854161,00000516,false,Rx,0,8,00,00,00,00,00,00,00,00,
1859161,00000231,false,Rx,0,8,00,01,00,00,00,00,04,05,
1864161,00000332,false,Rx,0,8,01,00,00,00,00,00,07,06,
1869161,00000517,false,Rx,0,8,00,00,00,00,00,00,00,00,
1874161,00000530,false,Rx,0,8,FF,FF,6A,51,64,04,49,00,
1879161,00000400,false,Rx,0,8,00,0B,56,F0,00,01,0A,A6,
1884161,00000408,false,Rx,0,8,00,41,33,0A,FF,FF,0A,72,
1889161,00000010,false,Rx,0,8,00,FF,61,30,00,00,06,A8,
1894161,00000410,false,Rx,0,8,3B,00,AA,31,00,FF,09,56,
1899161,00000012,false,Rx,0,8,99,99,32,00,01,00,0B,38,
1904161,00000411,false,Rx,0,8,32,60,00,00,00,00,00,00,
1909161,00000022,false,Rx,0,8,FF,FF,FF,FF,00,00,09,09,
1914161,00000102,false,Rx,0,8,00,00,19,50,51,CD,02,D7,
1919161,00000103,false,Rx,0,8,02,00,02,00,00,00,02,02,
1924161,00000122,false,Rx,0,8,D3,23,00,CA,1C,BB,04,99,
1929161,00000231,false,Rx,0,8,00,01,00,00,00,00,06,07,
1934161,00000517,false,Rx,0,8,01,00,00,00,00,00,00,00,
1939161,00000010,false,Rx,0,8,00,FF,61,30,00,00,07,A9,
1944161,00000013,false,Rx,0,8,FF,01,09,00,00,00,00,00,
1949161,00000102,false,Rx,0,8,00,00,19,50,51,CD,03,D6,
1954161,00000103,false,Rx,0,8,02,00,02,00,00,00,03,03,
1959161,00000122,false,Rx,0,8,D3,23,00,CA,1C,BB,05,98,
1964161,00000110,false,Rx,0,8,00,00,00,7B,01,05,0A,75,
1969161,00000308,false,Rx,0,8,00,12,00,00,00,00,82,00,
1974161,00000300,false,Rx,0,8,00,00,0D,8C,00,66,00,00,
1979161,00000316,false,Rx,0,8,13,AD,01,27,4E,00,00,00,
1984161,00000320,false,Rx,0,8,20,00,00,00,F0,00,82,00,
1989161,00000342,false,Rx,0,8,03,C2,99,99,94,00,03,90,
1994161,00000516,false,Rx,0,8,00,00,00,00,00,00,00,00,
1999161,00000231,false,Rx,0,8,00,01,00,00,00,00,06,07,
2004161,00000517,false,Rx,0,8,01,00,00,00,00,00,00,00,
2009161,00000400,false,Rx,0,8,00,0B,56,F0,00,01,0B,A7,
2014161,00000408,false,Rx,0,8,00,41,33,0A,FF,FF,0B,73,
2019161,00000410,false,Rx,0,8,3B,00,AA,31,00,FF,0A,55,
2024161,00000102,false,Rx,0,8,00,00,19,50,51,CD,04,D1,
2029161,00000103,false,Rx,0,8,02,00,02,00,00,00,04,04,
2034161,00000122,false,Rx,0,8,D3,23,00,CA,1C,BB,06,9B,
2039161,00000010,false,Rx,0,8,00,FF,61,30,00,00,08,A6,
2044161,00000411,false,Rx,0,8,32,60,00,00,00,00,00,00,
2049161,00000012,false,Rx,0,8,99,99,32,00,00,00,0C,3E,
2054161,00000022,false,Rx,0,8,FF,FF,FF,FF,00,00,0A,0A,
2059161,00000231,false,Rx,0,8,00,01,00,00,00,00,08,09,
2064161,00000517,false,Rx,0,8,00,00,00,00,00,00,00,00,
2069161,00000102,false,Rx,0,8,00,00,19,50,51,CD,05,D0,
2074161,00000103,false,Rx,0,8,02,00,02,00,00,00,05,05,
2079161,00000122,false,Rx,0,8,D3,23,00,CA,1C,BB,07,9A,
2084161,00000110,false,Rx,0,8,00,00,00,7B,01,05,0B,74,
2089161,00000300,false,Rx,0,8,00,00,0D,8C,00,66,00,00,
2094161,00000308,false,Rx,0,8,00,12,00,00,00,00,82,00,
2099161,00000316,false,Rx,0,8,13,AD,01,27,4E,00,00,00,
2104161,00000010,false,Rx,0,8,00,FF,61,30,00,00,09,A7,
2109161,00000320,false,Rx,0,8,20,00,00,00,F0,00,82,00,
2114161,00000342,false,Rx,0,8,03,C2,99,99,94,00,03,90,
2119161,00000516,false,Rx,0,8,00,00,00,00,00,00,00,00,
2124161,00000231,false,Rx,0,8,00,01,00,00,00,00,09,08,
2129161,00000517,false,Rx,0,8,00,00,00,00,00,00,00,00,
2134161,00000102,false,Rx,0,8,00,00,19,50,51,CD,06,D3,
2139161,00000103,false,Rx,0,8,02,00,02,00,00,00,06,06,
2144161,00000122,false,Rx,0,8,D3,23,00,CA,1C,BB,08,95,
2149161,00000400,false,Rx,0,8,00,0B,56,F0,00,01,0C,A0,
2154161,00000408,false,Rx,0,8,00,41,33,0A,FF,FF,0C,74,
2159161,00000410,false,Rx,0,8,3B,00,AA,31,00,FF,0B,54,
2164161,00000411,false,Rx,0,8,32,60,00,00,00,00,00,00,
2169161,00000022,false,Rx,0,8,FF,FF,FF,FF,00,00,0B,0B,
2174161,00000010,false,Rx,0,8,00,FF,61,30,00,00,0A,A4,
2179161,00000012,false,Rx,0,8,99,99,32,00,01,00,0D,3E,
2184161,00000231,false,Rx,0,8,00,01,00,00,00,00,0A,0B,
2189161,00000517,false,Rx,0,8,01,00,00,00,00,00,00,00,
2194161,00000102,false,Rx,0,8,00,00,19,50,51,CD,07,D2,
2199161,00000103,false,Rx,0,8,02,00,02,00,00,00,07,07,
2204161,00000122,false,Rx,0,8,D3,23,00,CA,1C,BB,09,94,
2209161,00000110,false,Rx,0,8,00,00,00,7B,01,05,0C,73,
2214161,00000308,false,Rx,0,8,00,12,00,00,00,00,82,00,
2219161,00000300,false,Rx,0,8,00,00,0D,8C,00,66,00,00,
2224161,00000316,false,Rx,0,8,13,AD,01,27,4E,00,00,00,
2229161,00000320,false,Rx,0,8,20,00,00,00,F0,00,82,00,
2234161,00000342,false,Rx,0,8,03,C2,99,99,94,00,03,90,
2239161,00000516,false,Rx,0,8,00,00,00,00,00,00,00,00,
2244161,00000010,false,Rx,0,8,00,FF,61,30,00,00,0B,A5,
2249161,00000231,false,Rx,0,8,00,01,00,00,00,00,0B,0A,
2254161,00000517,false,Rx,0,8,00,00,00,00,00,00,00,00,
2259161,00000102,false,Rx,0,8,00,00,19,50,51,CD,08,DD,
2264161,00000103,false,Rx,0,8,02,00,02,00,00,00,08,08,
2269161,00000122,false,Rx,0,8,D3,23,00,CA,1C,BB,0A,97,
2274161,00000400,false,Rx,0,8,00,0B,56,F0,00,01,0D,A1,
2279161,00000408,false,Rx,0,8,00,41,33,0A,FF,FF,0D,75,
2284161,00000410,false,Rx,0,8,3B,00,C4,00,00,FF,0C,0C,
2289161,00000411,false,Rx,0,8,32,60,00,00,00,00,00,00,
2294161,00000022,false,Rx,0,8,FF,FF,FF,FF,00,00,0C,0C,
2299161,00000010,false,Rx,0,8,00,FF,61,30,00,00,0C,A2,
2304161,00000012,false,Rx,0,8,99,99,32,00,00,00,0E,3C,
2309161,00000013,false,Rx,0,8,FF,01,09,00,00,00,00,00,
2314161,00000231,false,Rx,0,8,00,01,00,00,00,00,0C,0D,
2319161,00000517,false,Rx,0,8,00,00,00,00,00,00,00,00,
2324161,00000102,false,Rx,0,8,00,00,19,50,51,CD,09,DC,
2329161,00000103,false,Rx,0,8,02,00,02,00,00,00,09,09,
2334161,00000122,false,Rx,0,8,D3,23,00,CA,1C,BB,0B,96,
2339161,00000110,false,Rx,0,8,00,00,00,7B,01,05,0D,72,
2344161,00000300,false,Rx,0,8,00,00,0D,8C,00,66,00,00,
2349161,00000308,false,Rx,0,8,00,12,00,00,00,00,82,00,
2354161,00000316,false,Rx,0,8,13,AD,01,27,4E,00,00,00,
2359161,00000320,false,Rx,0,8,20,00,00,00,F0,00,82,00,
2364161,00000342,false,Rx,0,8,03,C2,99,99,94,00,03,90,
2369161,00000516,false,Rx,0,8,00,00,00,00,00,00,00,00,
2374161,00000010,false,Rx,0,8,00,FF,61,30,00,00,0D,A3,
2379161,00000102,false,Rx,0,8,00,00,19,50,51,CD,0A,DF,
2384161,00000103,false,Rx,0,8,02,00,02,00,00,00,0A,0A,
2389161,00000122,false,Rx,0,8,D3,23,00,CA,1C,BB,0C,91,
2394161,00000231,false,Rx,0,8,00,01,00,00,00,00,0D,0C,
2399161,00000517,false,Rx,0,8,01,00,00,00,00,00,00,00,
2404161,00000400,false,Rx,0,8,00,0B,56,F0,00,01,0E,A2,
2409161,00000408,false,Rx,0,8,00,41,33,0A,FF,FF,0E,76,
2414161,00000410,false,Rx,0,8,3B,00,C4,00,00,FF,0D,0D,
2419161,00000411,false,Rx,0,8,32,60,00,00,00,00,00,00,
2424161,00000022,false,Rx,0,8,FF,FF,FF,FF,00,00,0D,0D,
2429161,00000010,false,Rx,0,8,00,FF,61,30,00,00,0E,A0,
2434161,00000012,false,Rx,0,8,99,99,32,00,01,00,0F,3C,
2439161,00000102,false,Rx,0,8,00,00,19,50,51,CD,0B,DE,
2444161,00000103,false,Rx,0,8,02,00,02,00,00,00,0B,0B,
2449161,00000122,false,Rx,0,8,D3,23,00,CA,1C,BB,0D,90,
2454161,00000110,false,Rx,0,8,00,00,00,7B,01,05,0E,71,
2459161,00000308,false,Rx,0,8,00,12,00,00,00,00,82,00,
2464161,00000231,false,Rx,0,8,00,01,00,00,00,00,0E,0F,
2469161,00000300,false,Rx,0,8,00,00,0D,8C,00,66,00,00,
2474161,00000316,false,Rx,0,8,13,AD,01,27,4E,00,00,00,
2479161,00000320,false,Rx,0,8,20,00,00,00,F0,00,82,00,
2484161,00000342,false,Rx,0,8,03,C2,99,99,94,00,03,90,
2489161,00000516,false,Rx,0,8,00,00,00,00,00,00,00,00,
2494161,00000517,false,Rx,0,8,01,00,00,00,00,00,00,00,
2499161,00000332,false,Rx,0,8,01,00,00,00,00,00,08,09,
2504161,00000530,false,Rx,0,8,FF,FF,6A,51,64,04,49,00,
2509161,00000010,false,Rx,0,8,00,FF,61,30,00,00,0F,A1,
2514161,00000102,false,Rx,0,8,00,00,19,50,51,CD,0C,D9,
2519161,00000103,false,Rx,0,8,02,00,02,00,00,00,0C,0C,
2524161,00000122,false,Rx,0,8,D3,23,00,CA,1C,BB,0E,93,
2529161,00000231,false,Rx,0,8,00,01,00,00,00,00,0F,0E,
2534161,00000517,false,Rx,0,8,00,00,00,00,00,00,00,00,
2539161,00000400,false,Rx,0,8,00,0B,56,F0,00,01,0F,A3,
2544161,00000408,false,Rx,0,8,00,41,33,0A,FF,FF,0F,77,
2549161,00000410,false,Rx,0,8,3B,00,C4,00,00,FF,0F,0F,
2554161,00000411,false,Rx,0,8,32,60,00,00,00,00,00,00,
2559161,00000022,false,Rx,0,8,FF,FF,FF,FF,00,00,0F,0F,
2564161,00000010,false,Rx,0,8,00,FF,61,30,00,00,00,AE,
2569161,00000012,false,Rx,0,8,99,99,32,00,00,00,00,32,
2574161,00000102,false,Rx,0,8,00,00,19,50,51,CD,0D,D8,
2579161,00000103,false,Rx,0,8,02,00,02,00,00,00,0D,0D,
2584161,00000122,false,Rx,0,8,D3,23,00,CA,1C,BB,0F,92,
2589161,00000110,false,Rx,0,8,00,00,00,7B,01,05,0F,70,
2594161,00000300,false,Rx,0,8,00,00,0D,8C,00,66,00,00,
2599161,00000308,false,Rx,0,8,00,12,00,00,00,00,82,00,
2604161,00000316,false,Rx,0,8,13,AD,01,27,4E,00,00,00,
2609161,00000320,false,Rx,0,8,20,00,00,00,F0,00,82,00,
2614161,00000342,false,Rx,0,8,03,C2,99,99,94,00,03,90,
2619161,00000516,false,Rx,0,8,00,00,00,00,00,00,00,00,
2624161,00000231,false,Rx,0,8,00,01,00,00,00,00,00,01,
2629161,00000517,false,Rx,0,8,00,00,00,00,00,00,00,00,
2634161,00000010,false,Rx,0,8,00,FF,61,30,00,00,01,AF,
2639161,00000013,false,Rx,0,8,FF,01,09,00,00,00,00,00,
2644161,00000102,false,Rx,0,8,00,00,19,50,51,CD,0E,DB,
2649161,00000103,false,Rx,0,8,02,00,02,00,00,00,0E,0E,
2654161,00000122,false,Rx,0,8,D3,23,00,CA,1C,BB,00,9D,
2659161,00000231,false,Rx,0,8,00,01,00,00,00,00,02,03,
2664161,00000400,false,Rx,0,8,00,0B,56,F0,00,01,00,AC,
2669161,00000408,false,Rx,0,8,00,41,33,0A,FF,FF,00,78,
2674161,00000410,false,Rx,0,8,3B,00,AA,30,00,FF,00,5E,
2679161,00000411,false,Rx,0,8,32,60,00,00,00,00,00,00,
2684161,00000022,false,Rx,0,8,FF,FF,FF,FF,00,00,00,00,
2689161,00000517,false,Rx,0,8,01,00,00,00,00,00,00,00,
2694161,00000102,false,Rx,0,8,00,00,19,50,51,CD,0F,DA,
2699161,00000103,false,Rx,0,8,02,00,02,00,00,00,0F,0F,
2704161,00000122,false,Rx,0,8,D3,23,00,CA,1C,BB,01,9C,
2709161,00000010,false,Rx,0,8,00,FF,61,30,00,00,02,AC,
2714161,00000110,false,Rx,0,8,00,00,00,7B,01,05,00,7F,
2719161,00000012,false,Rx,0,8,99,99,32,00,01,00,01,32,
2724161,00000300,false,Rx,0,8,00,00,0D,8C,00,66,00,00,
2729161,00000308,false,Rx,0,8,00,12,00,00,00,00,82,00,
2734161,00000316,false,Rx,0,8,13,AD,01,27,4E,00,00,00,
2739161,00000320,false,Rx,0,8,20,00,00,00,F0,00,82,00,
2744161,00000342,false,Rx,0,8,03,C2,99,99,94,00,03,90,
2749161,00000516,false,Rx,0,8,00,00,00,00,00,00,00,00,
2754161,00000231,false,Rx,0,8,00,01,00,00,00,00,02,03,
2759161,00000517,false,Rx,0,8,01,00,00,00,00,00,00,00,
2764161,00000102,false,Rx,0,8,00,00,19,50,51,CD,00,D5,
2769161,00000103,false,Rx,0,8,02,00,02,00,00,00,00,00,
2774161,00000122,false,Rx,0,8,D3,23,00,CA,1C,BB,02,9F,
2779161,00000010,false,Rx,0,8,00,FF,61,30,00,00,03,AD,
2784161,00000400,false,Rx,0,8,00,0B,56,F0,00,01,01,AD,
2789161,00000408,false,Rx,0,8,00,41,33,0A,FF,FF,01,79,
2794161,00000410,false,Rx,0,8,3B,00,AA,30,00,FF,01,5F,
2799161,00000411,false,Rx,0,8,32,60,00,00,00,00,00,00,
2804161,00000022,false,Rx,0,8,FF,FF,FF,FF,00,00,01,01,
2809161,00000231,false,Rx,0,8,00,01,00,00,00,00,04,05,
2814161,00000517,false,Rx,0,8,00,00,00,00,00,00,00,00,
2819161,00000102,false,Rx,0,8,00,00,19,50,51,CD,01,D4,
2824161,00000103,false,Rx,0,8,02,00,02,00,00,00,01,01,
2829161,00000122,false,Rx,0,8,D3,23,00,CA,1C,BB,03,9E,
2834161,00000110,false,Rx,0,8,00,00,00,7B,01,05,01,7E,
2839161,00000300,false,Rx,0,8,00,00,0D,8C,00,66,00,00,
2844161,00000308,false,Rx,0,8,00,12,00,00,00,00,82,00,
2849161,00000316,false,Rx,0,8,13,AD,01,27,4E,00,00,00,
2854161,00000320,false,Rx,0,8,20,00,00,00,F0,00,82,00,
2859161,00000342,false,Rx,0,8,03,C2,99,99,94,00,03,90,
2864161,00000516,false,Rx,0,8,00,00,00,00,00,00,00,00,
2869161,00000010,false,Rx,0,8,00,FF,61,30,00,00,04,AA,
2874161,00000012,false,Rx,0,8,99,99,32,00,00,00,02,30,
2879161,00000231,false,Rx,0,8,00,01,00,00,00,00,04,05,
2884161,00000517,false,Rx,0,8,00,00,00,00,00,00,00,00,
2889161,00000102,false,Rx,0,8,00,00,19,50,51,CD,02,D7,
2894161,00000103,false,Rx,0,8,02,00,02,00,00,00,02,02,
2899161,00000122,false,Rx,0,8,D3,23,00,CA,1C,BB,04,99,
2904161,00000010,false,Rx,0,8,00,FF,61,30,00,00,05,AB,
2909161,00000400,false,Rx,0,8,00,0B,56,F0,00,01,02,AE,
2914161,00000408,false,Rx,0,8,00,41,33,0A,FF,FF,02,7A,
2919161,00000410,false,Rx,0,8,3B,00,AA,30,00,FF,02,5C,
2924161,00000411,false,Rx,0,8,32,60,00,00,00,00,00,00,
2929161,00000022,false,Rx,0,8,FF,FF,FF,FF,00,00,02,02,
2934161,00000231,false,Rx,0,8,00,01,00,00,00,00,06,07,
2939161,00000517,false,Rx,0,8,01,00,00,00,00,00,00,00,
2944161,00000102,false,Rx,0,8,00,00,19,50,51,CD,03,D6,
2949161,00000103,false,Rx,0,8,02,00,02,00,00,00,03,03,
2954161,00000122,false,Rx,0,8,D3,23,00,CA,1C,BB,05,98,
2959161,00000110,false,Rx,0,8,00,00,00,7B,01,05,02,7D,
2964161,00000308,false,Rx,0,8,00,12,00,00,00,00,82,00,
2969161,00000300,false,Rx,0,8,00,00,0D,8C,00,66,00,00,
2974161,00000316,false,Rx,0,8,13,AD,01,27,4E,00,00,00,
2979161,00000320,false,Rx,0,8,20,00,00,00,F0,00,82,00,
2984161,00000342,false,Rx,0,8,03,C2,99,99,94,00,03,90,
2989161,00000516,false,Rx,0,8,00,00,00,00,00,00,00,00,
2994161,00000010,false,Rx,0,8,00,FF,61,30,00,00,06,A8,
2999161,00000012,false,Rx,0,8,99,99,32,00,01,00,03,30,
3004161,00000013,false,Rx,0,8,FF,01,09,00,00,00,00,00,
3009161,00000231,false,Rx,0,8,00,01,00,00,00,00,07,06,
3014161,00000517,false,Rx,0,8,00,00,00,00,00,00,00,00,
3019161,00000102,false,Rx,0,8,00,00,19,50,51,CD,04,D1,
3024161,00000103,false,Rx,0,8,02,00,02,00,00,00,04,04,
3029161,00000122,false,Rx,0,8,D3,23,00,CA,1C,BB,06,9B,
3034161,00000010,false,Rx,0,8,00,FF,61,30,00,00,07,A9,
3039161,00000400,false,Rx,0,8,00,0B,56,F0,00,01,03,AF,
3044161,00000408,false,Rx,0,8,00,41,33,0A,FF,FF,03,7B,
3049161,00000410,false,Rx,0,8,3B,00,AA,30,00,FF,03,5D,
3054161,00000411,false,Rx,0,8,32,60,00,00,00,00,00,00,
3059161,00000022,false,Rx,0,8,FF,FF,FF,FF,00,00,03,03,
3064161,00000102,false,Rx,0,8,00,00,19,50,51,CD,05,D0,
3069161,00000103,false,Rx,0,8,02,00,02,00,00,00,05,05,
3074161,00000122,false,Rx,0,8,D3,23,00,CA,1C,BB,07,9A,
3079161,00000110,false,Rx,0,8,00,00,00,7B,01,05,03,7C,
3084161,00000231,false,Rx,0,8,00,01,00,00,00,00,08,09,
3089161,00000300,false,Rx,0,8,00,00,0D,8C,00,66,00,00,
3094161,00000308,false,Rx,0,8,00,12,00,00,00,00,82,00,
3099161,00000316,false,Rx,0,8,13,AD,01,27,4E,00,00,00,
3104161,00000320,false,Rx,0,8,20,00,00,00,F0,00,82,00,
3109161,00000342,false,Rx,0,8,03,C2,99,99,94,00,03,90,
3114161,00000516,false,Rx,0,8,00,00,00,00,00,00,00,00,
3119161,00000517,false,Rx,0,8,00,00,00,00,00,00,00,00,
3124161,00000332,false,Rx,0,8,01,00,00,00,00,00,09,08,
3129161,00000530,false,Rx,0,8,FF,FF,6A,51,64,04,49,00,
3134161,00000010,false,Rx,0,8,00,FF,61,30,00,00,08,A6,
3139161,00000012,false,Rx,0,8,99,99,32,00,00,00,04,36,
3144161,00000102,false,Rx,0,8,00,00,19,50,51,CD,06,D3,
3149161,00000103,false,Rx,0,8,02,00,02,00,00,00,06,06,
3154161,00000122,false,Rx,0,8,D3,23,00,CA,1C,BB,08,95,
3159161,00000231,false,Rx,0,8,00,01,00,00,00,00,09,08,
3164161,00000517,false,Rx,0,8,01,00,00,00,00,00,00,00,
3169161,00000010,false,Rx,0,8,00,FF,61,30,00,00,09,A7,
3174161,00000400,false,Rx,0,8,00,0B,56,F0,00,01,04,A8,
3179161,00000408,false,Rx,0,8,00,41,33,0A,FF,FF,04,7C,
3184161,00000410,false,Rx,0,8,3B,00,AA,31,00,FF,04,5B,
3189161,00000411,false,Rx,0,8,32,60,00,00,00,00,00,00,
3194161,00000022,false,Rx,0,8,FF,FF,FF,FF,00,00,04,04,
3199161,00000102,false,Rx,0,8,00,00,19,50,51,CD,07,D2,
3204161,00000103,false,Rx,0,8,02,00,02,00,00,00,07,07,
3209161,00000122,false,Rx,0,8,D3,23,00,CA,1C,BB,09,94,
3214161,00000110,false,Rx,0,8,00,00,00,7B,01,05,04,7B,
3219161,00000308,false,Rx,0,8,00,12,00,00,00,00,82,00,
3224161,00000300,false,Rx,0,8,00,00,0D,8C,00,66,00,00,
3229161,00000316,false,Rx,0,8,13,AD,01,27,4E,00,00,00,
3234161,00000320,false,Rx,0,8,20,00,00,00,F0,00,82,00,
3239161,00000342,false,Rx,0,8,03,C2,99,99,94,00,03,90,
3244161,00000231,false,Rx,0,8,00,01,00,00,00,00,0A,0B,
3249161,00000516,false,Rx,0,8,00,00,00,00,00,00,00,00,
3254161,00000517,false,Rx,0,8,01,00,00,00,00,00,00,00,
3259161,00000010,false,Rx,0,8,00,FF,61,30,00,00,0A,A4,
3264161,00000012,false,Rx,0,8,99,99,32,00,01,00,05,36,
3269161,00000102,false,Rx,0,8,00,00,19,50,51,CD,08,DD,
3274161,00000103,false,Rx,0,8,02,00,02,00,00,00,08,08,
3279161,00000122,false,Rx,0,8,D3,23,00,CA,1C,BB,0A,97,
3284161,00000231,false,Rx,0,8,00,01,00,00,00,00,0C,0D,
3289161,00000517,false,Rx,0,8,00,00,00,00,00,00,00,00,
3294161,00000400,false,Rx,0,8,00,0B,56,F0,00,01,05,A9,
3299161,00000010,false,Rx,0,8,00,FF,61,30,00,00,0B,A5,
3304161,00000408,false,Rx,0,8,00,41,33,0A,FF,FF,05,7D,
3309161,00000013,false,Rx,0,8,FF,01,09,00,00,00,00,00,
3314161,00000102,false,Rx,0,8,00,00,19,50,51,CD,09,DC,
3319161,00000103,false,Rx,0,8,02,00,02,00,00,00,09,09,
3324161,00000122,false,Rx,0,8,D3,23,00,CA,1C,BB,0B,96,
3329161,00000110,false,Rx,0,8,00,00,00,7B,01,05,05,7A,
3334161,00000300,false,Rx,0,8,00,00,0D,8C,00,66,00,00,
3339161,00000308,false,Rx,0,8,00,12,00,00,00,00,82,00,
3344161,00000316,false,Rx,0,8,13,AD,01,27,4E,00,00,00,
3349161,00000320,false,Rx,0,8,20,00,00,00,F0,00,82,00,
3354161,00000342,false,Rx,0,8,03,C2,99,99,94,00,03,90,
3359161,00000410,false,Rx,0,8,3B,00,AA,31,00,FF,05,5A,
3364161,00000516,false,Rx,0,8,00,00,00,00,00,00,00,00,
3369161,00000411,false,Rx,0,8,32,60,00,00,00,00,00,00,
3374161,00000022,false,Rx,0,8,FF,FF,FF,FF,00,00,05,05,
3379161,00000231,false,Rx,0,8,00,01,00,00,00,00,0C,0D,
3384161,00000517,false,Rx,0,8,00,00,00,00,00,00,00,00,
3389161,00000102,false,Rx,0,8,00,00,19,50,51,CD,0A,DF,
3394161,00000103,false,Rx,0,8,02,00,02,00,00,00,0A,0A,
3399161,00000010,false,Rx,0,8,00,FF,61,30,00,00,0C,A2,
3404161,00000122,false,Rx,0,8,D3,23,00,CA,1C,BB,0C,91,
3409161,00000012,false,Rx,0,8,99,99,32,00,00,00,06,34,
3414161,00000231,false,Rx,0,8,00,02,00,00,00,00,0E,0C,
3419161,00000517,false,Rx,0,8,01,00,00,00,00,00,00,00,
3424161,00000102,false,Rx,0,8,00,00,19,50,51,CD,0B,DE,
3429161,00000103,false,Rx,0,8,02,00,02,00,00,00,0B,0B,
3434161,00000122,false,Rx,0,8,D3,23,00,CA,1C,BB,0D,90,
3439161,00000400,false,Rx,0,8,00,0B,56,F0,00,01,06,AA,
3444161,00000110,false,Rx,0,8,00,00,00,7B,01,05,06,79,
3449161,00000300,false,Rx,0,8,00,00,0D,8C,00,66,00,00,
3454161,00000010,false,Rx,0,8,00,FF,61,30,00,00,0D,A3,
3459161,00000308,false,Rx,0,8,00,12,00,00,00,00,82,00,
3464161,00000316,false,Rx,0,8,13,AD,01,27,4E,00,00,00,
3469161,00000320,false,Rx,0,8,20,00,00,00,F0,00,82,00,
3474161,00000342,false,Rx,0,8,03,C2,99,99,94,00,03,90,
3479161,00000408,false,Rx,0,8,00,41,33,0A,FF,FF,06,7E,
3484161,00000516,false,Rx,0,8,00,00,00,00,00,00,00,00,
3489161,00000410,false,Rx,0,8,3B,00,AA,31,00,FF,06,59,
3494161,00000411,false,Rx,0,8,32,60,00,00,00,00,00,00,
3499161,00000022,false,Rx,0,8,FF,FF,FF,FF,00,00,06,06,
3504161,00000231,false,Rx,0,8,00,02,00,00,00,00,0E,0C,
3509161,00000517,false,Rx,0,8,01,00,00,00,00,00,00,00,
3514161,00000102,false,Rx,0,8,00,00,19,50,51,CD,0C,D9,
3519161,00000103,false,Rx,0,8,02,00,02,00,00,00,0C,0C,
3524161,00000122,false,Rx,0,8,D3,23,00,CA,1C,BB,0E,93,
3529161,00000010,false,Rx,0,8,00,FF,61,30,00,00,0E,A0,
3534161,00000012,false,Rx,0,8,99,99,32,00,01,00,07,34,
3539161,00000231,false,Rx,0,8,00,02,00,00,00,00,00,02,
3544161,00000517,false,Rx,0,8,00,00,00,00,00,00,00,00,
3549161,00000102,false,Rx,0,8,00,00,19,50,51,CD,0D,D8,
3554161,00000103,false,Rx,0,8,02,00,02,00,00,00,0D,0D,
3559161,00000122,false,Rx,0,8,D3,23,00,CA,1C,BB,0F,92,
3564161,00000110,false,Rx,0,8,00,00,00,7B,01,05,07,78,
3569161,00000300,false,Rx,0,8,00,00,0D,8C,00,66,00,00,
3574161,00000308,false,Rx,0,8,00,12,00,00,00,00,82,00,
3579161,00000316,false,Rx,0,8,13,AD,01,27,4E,00,00,00,
3584161,00000320,false,Rx,0,8,20,00,00,00,F0,00,82,00,
3589161,00000342,false,Rx,0,8,03,C2,99,99,94,00,03,90,
3594161,00000400,false,Rx,0,8,00,0B,56,F0,00,01,07,AB,
3599161,00000516,false,Rx,0,8,00,00,00,00,00,00,00,00,
3604161,00000408,false,Rx,0,8,00,41,33,0A,FF,FF,07,7F,
3609161,00000410,false,Rx,0,8,3B,00,AA,31,00,FF,07,58,
3614161,00000411,false,Rx,0,8,32,60,00,00,00,00,00,00,
3619161,00000010,false,Rx,0,8,00,FF,61,30,00,00,0F,A1,
3624161,00000022,false,Rx,0,8,FF,FF,FF,FF,00,00,07,07,
3629161,00000231,false,Rx,0,8,00,02,00,00,00,00,01,03,
3634161,00000517,false,Rx,0,8,01,00,00,00,00,00,00,00,
3639161,00000102,false,Rx,0,8,00,00,19,50,51,CD,0E,DB,
3644161,00000103,false,Rx,0,8,02,00,02,00,00,00,0E,0E,
3649161,00000122,false,Rx,0,8,D3,23,00,CA,1C,BB,00,9D,
3654161,00000010,false,Rx,0,8,00,FF,61,30,00,00,00,AE,
3659161,00000012,false,Rx,0,8,99,99,32,00,00,00,08,3A,
3664161,00000013,false,Rx,0,8,FF,01,09,00,00,00,00,00,
3669161,00000231,false,Rx,0,8,00,02,00,00,00,00,02,00,
3674161,00000517,false,Rx,0,8,01,00,00,00,00,00,00,00,
3679161,00000102,false,Rx,0,8,00,00,19,50,51,CD,0F,DA,
3684161,00000103,false,Rx,0,8,02,00,02,00,00,00,0F,0F,
3689161,00000122,false,Rx,0,8,D3,23,00,CA,1C,BB,01,9C,
3694161,00000110,false,Rx,0,8,00,00,00,7B,01,05,08,77,
3699161,00000308,false,Rx,0,8,00,12,00,00,00,00,82,00,
3704161,00000300,false,Rx,0,8,00,00,0D,8C,00,66,00,00,
3709161,00000316,false,Rx,0,8,13,AD,01,27,4E,00,00,00,
3714161,00000320,false,Rx,0,8,20,00,00,00,F0,00,82,00,
3719161,00000342,false,Rx,0,8,03,C2,99,99,94,00,03,90,
3724161,00000400,false,Rx,0,8,00,0B,56,F0,00,01,08,A4,
3729161,00000516,false,Rx,0,8,00,00,00,00,00,00,00,00,
3734161,00000408,false,Rx,0,8,00,41,33,0A,FF,FF,08,70,
3739161,00000410,false,Rx,0,8,3B,00,C4,00,00,FF,08,08,
3744161,00000411,false,Rx,0,8,32,60,00,00,00,00,00,00,
3749161,00000022,false,Rx,0,8,FF,FF,FF,FF,00,00,08,08,
3754161,00000332,false,Rx,0,8,01,00,00,00,00,00,0A,0B,
3759161,00000010,false,Rx,0,8,00,FF,61,30,00,00,01,AF,
3764161,00000530,false,Rx,0,8,FF,FF,6A,52,64,04,49,00,
3769161,00000102,false,Rx,0,8,00,00,19,50,51,CD,00,D5,
3774161,00000103,false,Rx,0,8,02,00,02,00,00,00,00,00,
3779161,00000122,false,Rx,0,8,D3,23,00,CA,1C,BB,02,9F,
3784161,00000231,false,Rx,0,8,00,02,00,00,00,00,03,01,
3789161,00000517,false,Rx,0,8,00,00,00,00,00,00,00,00,
3794161,00000010,false,Rx,0,8,00,FF,61,30,00,00,02,AC,
3799161,00000012,false,Rx,0,8,99,99,32,00,01,00,09,3A,
3804161,00000102,false,Rx,0,8,00,00,19,50,51,CD,01,D4,
3809161,00000103,false,Rx,0,8,02,00,02,00,00,00,01,01,
3814161,00000122,false,Rx,0,8,D3,23,00,CA,1C,BB,03,9E,
3819161,00000110,false,Rx,0,8,00,00,00,7B,01,05,09,76,
3824161,00000300,false,Rx,0,8,00,00,0D,8C,00,66,00,00,
3829161,00000308,false,Rx,0,8,00,12,00,00,00,00,82,00,
3834161,00000231,false,Rx,0,8,00,02,00,00,00,00,04,06,
3839161,00000316,false,Rx,0,8,13,AD,01,27,4E,00,00,00,
3844161,00000320,false,Rx,0,8,20,00,00,00,F0,00,82,00,
3849161,00000342,false,Rx,0,8,03,C2,99,99,94,00,03,90,
3854161,00000516,false,Rx,0,8,00,00,00,00,00,00,00,00,
3859161,00000517,false,Rx,0,8,00,00,00,00,00,00,00,00,
3864161,00000400,false,Rx,0,8,00,0B,56,F0,00,01,09,A5,
3869161,00000408,false,Rx,0,8,00,41,33,0A,FF,FF,09,71,
3874161,00000410,false,Rx,0,8,3B,00,C4,00,00,FF,09,09,
3879161,00000411,false,Rx,0,8,32,60,00,00,00,00,00,00,
3884161,00000022,false,Rx,0,8,FF,FF,FF,FF,00,00,09,09,
3889161,00000010,false,Rx,0,8,00,FF,61,30,00,00,03,AD,
3894161,00000102,false,Rx,0,8,00,00,19,50,51,CD,02,D7,
3899161,00000103,false,Rx,0,8,02,00,02,00,00,00,02,02,
3904161,00000122,false,Rx,0,8,D3,23,00,CA,1C,BB,04,99,
3909161,00000231,false,Rx,0,8,00,02,00,00,00,00,05,07,
3914161,00000517,false,Rx,0,8,01,00,00,00,00,00,00,00,
3919161,00000010,false,Rx,0,8,00,FF,61,30,00,00,04,AA,
3924161,00000012,false,Rx,0,8,99,99,32,00,00,00,0A,38,
3929161,00000102,false,Rx,0,8,00,00,19,50,51,CD,03,D6,
3934161,00000103,false,Rx,0,8,02,00,02,00,00,00,03,03,
3939161,00000122,false,Rx,0,8,D3,23,00,CA,1C,BB,05,98,
3944161,00000110,false,Rx,0,8,00,00,00,7B,01,05,0A,75,
3949161,00000308,false,Rx,0,8,00,12,00,00,00,00,82,00,
3954161,00000300,false,Rx,0,8,00,00,0D,8C,00,66,00,00,
3959161,00000316,false,Rx,0,8,13,AD,01,27,4E,00,00,00,
3964161,00000320,false,Rx,0,8,20,00,00,00,F0,00,82,00,
3969161,00000342,false,Rx,0,8,03,C2,99,99,94,00,03,90,
3974161,00000516,false,Rx,0,8,00,00,00,00,00,00,00,00,
3979161,00000231,false,Rx,0,8,00,02,00,00,00,00,06,04,
3984161,00000517,false,Rx,0,8,01,00,00,00,00,00,00,00,
3989161,00000400,false,Rx,0,8,00,0B,56,F0,00,01,0A,A6,
3994161,00000408,false,Rx,0,8,00,41,33,0A,FF,FF,0A,72,
3999161,00000410,false,Rx,0,8,3B,00,C4,00,00,FF,0A,0A,
4004161,00000411,false,Rx,0,8,32,60,00,00,00,00,00,00,
4009161,00000022,false,Rx,0,8,FF,FF,FF,FF,00,00,0A,0A,
4014161,00000010,false,Rx,0,8,00,FF,61,30,00,00,05,AB,
4019161,00000013,false,Rx,0,8,FF,01,09,00,00,00,00,00,
4024161,00000102,false,Rx,0,8,00,00,19,50,51,CD,04,D1,
4029161,00000103,false,Rx,0,8,02,00,02,00,00,00,04,04,
4034161,00000122,false,Rx,0,8,D3,23,00,CA,1C,BB,06,9B,
4039161,00000231,false,Rx,0,8,00,02,00,00,00,00,08,0A,
4044161,00000517,false,Rx,0,8,00,00,00,00,00,00,00,00,
4049161,00000102,false,Rx,0,8,00,00,19,50,51,CD,05,D0,
4054161,00000103,false,Rx,0,8,02,00,02,00,00,00,05,05,
4059161,00000010,false,Rx,0,8,00,FF,61,30,00,00,06,A8,
4064161,00000122,false,Rx,0,8,D3,23,00,CA,1C,BB,07,9A,
4069161,00000012,false,Rx,0,8,99,99,32,00,01,00,0B,38,
4074161,00000110,false,Rx,0,8,00,00,00,7B,01,05,0B,74,
4079161,00000300,false,Rx,0,8,00,00,0D,8C,00,66,00,00,
4084161,00000308,false,Rx,0,8,00,12,00,00,00,00,82,00,
4089161,00000316,false,Rx,0,8,13,AD,01,27,4E,00,00,00,
4094161,00000320,false,Rx,0,8,20,00,00,00,F0,00,82,00,
4099161,00000342,false,Rx,0,8,03,C2,99,99,94,00,03,90,
4104161,00000516,false,Rx,0,8,00,00,00,00,00,00,00,00,
4109161,00000231,false,Rx,0,8,00,02,00,00,00,00,08,0A,
4114161,00000400,false,Rx,0,8,00,0B,56,F0,00,01,0B,A7,
4119161,00000408,false,Rx,0,8,00,41,33,0A,FF,FF,0B,73,
4124161,00000410,false,Rx,0,8,3B,00,C4,00,00,FF,0B,0B,
4129161,00000411,false,Rx,0,8,32,60,00,00,00,00,00,00,
4134161,00000022,false,Rx,0,8,FF,FF,FF,FF,00,00,0B,0B,
4139161,00000517,false,Rx,0,8,00,00,00,00,00,00,00,00,
4144161,00000102,false,Rx,0,8,00,00,19,50,51,CD,06,D3,
4149161,00000103,false,Rx,0,8,02,00,02,00,00,00,06,06,
4154161,00000122,false,Rx,0,8,D3,23,00,CA,1C,BB,08,95,
4159161,00000010,false,Rx,0,8,00,FF,61,30,00,00,07,A9,
4164161,00000231,false,Rx,0,8,00,02,00,00,00,00,0A,08,
4169161,00000517,false,Rx,0,8,01,00,00,00,00,00,00,00,
4174161,00000102,false,Rx,0,8,00,00,19,50,51,CD,07,D2,
4179161,00000103,false,Rx,0,8,02,00,02,00,00,00,07,07,
4184161,00000122,false,Rx,0,8,D3,23,00,CA,1C,BB,09,94,
4189161,00000110,false,Rx,0,8,00,00,00,7B,01,05,0C,73,
4194161,00000308,false,Rx,0,8,00,12,00,00,00,00,82,00,
4199161,00000300,false,Rx,0,8,00,00,0D,8C,00,66,00,00,
4204161,00000316,false,Rx,0,8,13,AD,01,27,4E,00,00,00,
4209161,00000320,false,Rx,0,8,20,00,00,00,F0,00,82,00,
4214161,00000342,false,Rx,0,8,03,C2,99,99,94,00,03,90,
4219161,00000010,false,Rx,0,8,00,FF,61,30,00,00,08,A6,
4224161,00000516,false,Rx,0,8,00,00,00,00,00,00,00,00,
4229161,00000012,false,Rx,0,8,99,99,32,00,00,00,0C,3E,
4234161,00000400,false,Rx,0,8,00,0B,56,F0,00,01,0C,A0,
4239161,00000408,false,Rx,0,8,00,41,33,0A,FF,FF,0C,74,
4244161,00000410,false,Rx,0,8,3B,00,AA,30,00,FF,0C,52,
4249161,00000411,false,Rx,0,8,32,60,00,00,00,00,00,00,
4254161,00000022,false,Rx,0,8,FF,FF,FF,FF,00,00,0C,0C,
4259161,00000231,false,Rx,0,8,00,02,00,00,00,00,0A,08,
4264161,00000517,false,Rx,0,8,01,00,00,00,00,00,00,00,
4269161,00000102,false,Rx,0,8,00,00,19,50,51,CD,08,DD,
4274161,00000103,false,Rx,0,8,02,00,02,00,00,00,08,08,
4279161,00000122,false,Rx,0,8,D3,23,00,CA,1C,BB,0A,97,
4284161,00000010,false,Rx,0,8,00,FF,61,30,00,00,09,A7,
4289161,00000231,false,Rx,0,8,00,02,00,00,00,00,0C,0E,
4294161,00000517,false,Rx,0,8,00,00,00,00,00,00,00,00,
4299161,00000102,false,Rx,0,8,00,00,19,50,51,CD,09,DC,
4304161,00000103,false,Rx,0,8,02,00,02,00,00,00,09,09,
4309161,00000122,false,Rx,0,8,D3,23,00,CA,1C,BB,0B,96,
4314161,00000110,false,Rx,0,8,00,00,00,7B,01,05,0D,72,
4319161,00000300,false,Rx,0,8,00,00,0D,8C,00,66,00,00,
4324161,00000308,false,Rx,0,8,00,12,00,00,00,00,82,00,
4329161,00000316,false,Rx,0,8,13,AD,01,27,4E,00,00,00,
4334161,00000320,false,Rx,0,8,20,00,00,00,F0,00,82,00,
4339161,00000342,false,Rx,0,8,03,C2,99,99,94,00,03,90,
4344161,00000516,false,Rx,0,8,00,00,00,00,00,00,00,00,
4349161,00000010,false,Rx,0,8,00,FF,61,30,00,00,0A,A4,
4354161,00000012,false,Rx,0,8,99,99,32,00,01,00,0D,3E,
4359161,00000013,false,Rx,0,8,FF,01,09,00,00,00,00,00,
4364161,00000332,false,Rx,0,8,01,00,00,00,00,00,0B,0A,
4369161,00000530,false,Rx,0,8,FF,FF,6A,52,64,04,49,00,
4374161,00000400,false,Rx,0,8,00,0B,56,F0,00,01,0E,A2,
4379161,00000408,false,Rx,0,8,00,41,33,0A,FF,FF,0E,76,
4384161,00000410,false,Rx,0,8,3B,00,AA,30,00,FF,0D,53,
4389161,00000411,false,Rx,0,8,32,60,00,00,00,00,00,00,
4394161,00000022,false,Rx,0,8,FF,FF,FF,FF,00,00,0D,0D,
4399161,00000231,false,Rx,0,8,00,02,00,00,00,00,0D,0F,
4404161,00000517,false,Rx,0,8,01,00,00,00,00,00,00,00,
4409161,00000102,false,Rx,0,8,00,00,19,50,51,CD,0A,DF,
4414161,00000103,false,Rx,0,8,02,00,02,00,00,00,0A,0A,
4419161,00000122,false,Rx,0,8,D3,23,00,CA,1C,BB,0C,91,
4424161,00000010,false,Rx,0,8,00,FF,61,30,00,00,0B,A5,
4429161,00000102,false,Rx,0,8,00,00,19,50,51,CD,0B,DE,
4434161,00000103,false,Rx,0,8,02,00,02,00,00,00,0B,0B,
4439161,00000122,false,Rx,0,8,D3,23,00,CA,1C,BB,0D,90,
4444161,00000231,false,Rx,0,8,00,01,00,00,00,00,0E,0F,
4449161,00000110,false,Rx,0,8,00,00,00,7B,01,05,0E,71,
4454161,00000300,false,Rx,0,8,00,00,0D,8C,00,66,00,00,
4459161,00000308,false,Rx,0,8,00,12,00,00,00,00,82,00,
4464161,00000316,false,Rx,0,8,13,AD,01,27,4E,00,00,00,
4469161,00000320,false,Rx,0,8,20,00,00,00,F0,00,82,00,
4474161,00000342,false,Rx,0,8,03,C2,99,99,94,00,03,90,
4479161,00000516,false,Rx,0,8,00,00,00,00,00,00,00,00,
4484161,00000517,false,Rx,0,8,01,00,00,00,00,00,00,00,
4489161,00000010,false,Rx,0,8,00,FF,61,30,00,00,0C,A2,
4494161,00000012,false,Rx,0,8,99,99,32,00,00,00,0E,3C,
4499161,00000400,false,Rx,0,8,00,0B,56,F0,00,01,0F,A3,
4504161,00000408,false,Rx,0,8,00,41,33,0A,FF,FF,0F,77,
4509161,00000410,false,Rx,0,8,3B,00,AA,30,00,FF,0E,50,
4514161,00000411,false,Rx,0,8,32,60,00,00,00,00,00,00,
4519161,00000022,false,Rx,0,8,FF,FF,FF,FF,00,00,0E,0E,
4524161,00000102,false,Rx,0,8,00,00,19,50,51,CD,0C,D9,
4529161,00000103,false,Rx,0,8,02,00,02,00,00,00,0C,0C,
4534161,00000122,false,Rx,0,8,D3,23,00,CA,1C,BB,0E,93,
4539161,00000231,false,Rx,0,8,00,01,00,00,00,00,0F,0E,
4544161,00000517,false,Rx,0,8,00,00,00,00,00,00,00,00,
4549161,00000010,false,Rx,0,8,00,FF,61,30,00,00,0D,A3,
4554161,00000102,false,Rx,0,8,00,00,19,50,51,CD,0D,D8,
4559161,00000103,false,Rx,0,8,02,00,02,00,00,00,0D,0D,
4564161,00000122,false,Rx,0,8,D3,23,00,CA,1C,BB,0F,92,
4569161,00000110,false,Rx,0,8,00,00,00,7B,01,05,0F,70,
4574161,00000300,false,Rx,0,8,00,00,0D,8C,00,66,00,00,
4579161,00000308,false,Rx,0,8,00,12,00,00,00,00,82,00,
4584161,00000316,false,Rx,0,8,13,AD,01,27,4E,00,00,00,
4589161,00000320,false,Rx,0,8,20,00,00,00,F0,00,82,00,
4594161,00000342,false,Rx,0,8,03,C2,99,99,94,00,03,90,
4599161,00000516,false,Rx,0,8,00,00,00,00,00,00,00,00,
4604161,00000231,false,Rx,0,8,00,01,00,00,00,00,00,01,
4609161,00000517,false,Rx,0,8,00,00,00,00,00,00,00,00,
4614161,00000010,false,Rx,0,8,00,FF,61,30,00,00,0E,A0,
4619161,00000012,false,Rx,0,8,99,99,32,00,01,00,0F,3C,
4624161,00000400,false,Rx,0,8,00,0B,56,F0,00,01,00,AC,
4629161,00000408,false,Rx,0,8,00,41,33,0A,FF,FF,00,78,
4634161,00000410,false,Rx,0,8,3B,00,AA,30,00,FF,0F,51,
4639161,00000102,false,Rx,0,8,00,00,19,50,51,CD,0E,DB,
4644161,00000103,false,Rx,0,8,02,00,02,00,00,00,0E,0E,
4649161,00000122,false,Rx,0,8,D3,23,00,CA,1C,BB,00,9D,
4654161,00000411,false,Rx,0,8,32,60,00,00,00,00,00,00,
4659161,00000022,false,Rx,0,8,FF,FF,FF,FF,00,00,0F,0F,
4664161,00000231,false,Rx,0,8,00,01,00,00,00,00,02,03,
4669161,00000517,false,Rx,0,8,01,00,00,00,00,00,00,00,
4674161,00000010,false,Rx,0,8,00,FF,61,30,00,00,0F,A1,
4679161,00000013,false,Rx,0,8,FF,01,09,00,00,00,00,00,
4684161,00000102,false,Rx,0,8,00,00,19,50,51,CD,0F,DA,
4689161,00000103,false,Rx,0,8,02,00,02,00,00,00,0F,0F,
4694161,00000122,false,Rx,0,8,D3,23,00,CA,1C,BB,01,9C,
4699161,00000110,false,Rx,0,8,00,00,00,7B,01,05,00,7F,
4704161,00000308,false,Rx,0,8,00,12,00,00,00,00,82,00,
4709161,00000300,false,Rx,0,8,00,00,0D,8C,00,66,00,00,
4714161,00000316,false,Rx,0,8,13,AD,01,27,4E,00,00,00,
4719161,00000320,false,Rx,0,8,20,00,00,00,F0,00,82,00,
4724161,00000342,false,Rx,0,8,03,C2,99,99,94,00,03,90,
4729161,00000516,false,Rx,0,8,00,00,00,00,00,00,00,00,
4734161,00000231,false,Rx,0,8,00,01,00,00,00,00,02,03,
4739161,00000517,false,Rx,0,8,01,00,00,00,00,00,00,00,
4744161,00000102,false,Rx,0,8,00,00,19,50,51,CD,00,D5,
4749161,00000010,false,Rx,0,8,00,FF,61,30,00,00,00,AE,
4754161,00000103,false,Rx,0,8,02,00,02,00,00,00,00,00,
4759161,00000012,false,Rx,0,8,99,99,32,00,00,00,00,32,
4764161,00000122,false,Rx,0,8,D3,23,00,CA,1C,BB,02,9F,
4769161,00000400,false,Rx,0,8,00,0B,56,F0,00,01,01,AD,
4774161,00000408,false,Rx,0,8,00,41,33,0A,FF,FF,01,79,
4779161,00000410,false,Rx,0,8,3B,00,AA,31,00,FF,00,5F,
4784161,00000411,false,Rx,0,8,32,60,00,00,00,00,00,00,
4789161,00000022,false,Rx,0,8,FF,FF,FF,FF,00,00,00,00,
4794161,00000231,false,Rx,0,8,00,01,00,00,00,00,04,05,
4799161,00000517,false,Rx,0,8,00,00,00,00,00,00,00,00,
4804161,00000102,false,Rx,0,8,00,00,19,50,51,CD,01,D4,
4809161,00000103,false,Rx,0,8,02,00,02,00,00,00,01,01,
4814161,00000122,false,Rx,0,8,D3,23,00,CA,1C,BB,03,9E,
4819161,00000110,false,Rx,0,8,00,00,00,7B,01,05,01,7E,
4824161,00000300,false,Rx,0,8,00,00,0D,8C,00,66,00,00,
4829161,00000010,false,Rx,0,8,00,FF,61,30,00,00,01,AF,
4834161,00000308,false,Rx,0,8,00,12,00,00,00,00,82,00,
4839161,00000316,false,Rx,0,8,13,AD,01,27,4E,00,00,00,
4844161,00000320,false,Rx,0,8,20,00,00,00,F0,00,82,00,
4849161,00000342,false,Rx,0,8,03,C2,99,99,94,00,03,90,
4854161,00000516,false,Rx,0,8,00,00,00,00,00,00,00,00,
4859161,00000231,false,Rx,0,8,00,01,00,00,00,00,04,05,
4864161,00000517,false,Rx,0,8,00,00,00,00,00,00,00,00,
4869161,00000102,false,Rx,0,8,00,00,19,50,51,CD,02,D7,
4874161,00000103,false,Rx,0,8,02,00,02,00,00,00,02,02,
4879161,00000122,false,Rx,0,8,D3,23,00,CA,1C,BB,04,99,
4884161,00000400,false,Rx,0,8,00,0B,56,F0,00,01,02,AE,
4889161,00000408,false,Rx,0,8,00,41,33,0A,FF,FF,02,7A,
4894161,00000410,false,Rx,0,8,3B,00,AA,31,00,FF,01,5E,
4899161,00000411,false,Rx,0,8,32,60,00,00,00,00,00,00,
4904161,00000010,false,Rx,0,8,00,FF,61,30,00,00,02,AC,
4909161,00000022,false,Rx,0,8,FF,FF,FF,FF,00,00,01,01,
4914161,00000012,false,Rx,0,8,99,99,32,00,01,00,01,32,
4919161,00000231,false,Rx,0,8,00,01,00,00,00,00,06,07,
4924161,00000517,false,Rx,0,8,01,00,00,00,00,00,00,00,
4929161,00000102,false,Rx,0,8,00,00,19,50,51,CD,03,D6,
4934161,00000103,false,Rx,0,8,02,00,02,00,00,00,03,03,
4939161,00000122,false,Rx,0,8,D3,23,00,CA,1C,BB,05,98,
4944161,00000110,false,Rx,0,8,00,00,00,7B,01,05,02,7D,
4949161,00000308,false,Rx,0,8,00,12,00,00,00,00,82,00,
4954161,00000300,false,Rx,0,8,00,00,0D,8C,00,66,00,00,
4959161,00000316,false,Rx,0,8,13,AD,01,27,4E,00,00,00,
4964161,00000320,false,Rx,0,8,20,00,00,00,F0,00,82,00,
4969161,00000342,false,Rx,0,8,03,C2,99,99,94,00,03,90,
4974161,00000516,false,Rx,0,8,00,00,00,00,00,00,00,00,
4979161,00000010,false,Rx,0,8,00,FF,61,30,00,00,03,AD,
4984161,00000332,false,Rx,0,8,01,00,00,00,00,00,0C,0D,
4989161,00000530,false,Rx,0,8,FF,FF,6A,52,64,04,49,00,
4994161,00000231,false,Rx,0,8,00,01,00,00,00,00,07,06,
4999161,00000517,false,Rx,0,8,00,00,00,00,00,00,00,00,
5004161,00000102,false,Rx,0,8,00,00,19,50,51,CD,04,D1,
5009161,00000103,false,Rx,0,8,02,00,02,00,00,00,04,04,
5014161,00000122,false,Rx,0,8,D3,23,00,CA,1C,BB,06,9B,
5019161,00000400,false,Rx,0,8,00,0B,56,F0,00,01,03,AF,
5024161,00000408,false,Rx,0,8,00,41,33,0A,FF,FF,03,7B,
5029161,00000410,false,Rx,0,8,3B,00,AA,31,00,FF,02,5D,
5034161,00000411,false,Rx,0,8,32,60,00,00,00,00,00,00,
5039161,00000022,false,Rx,0,8,FF,FF,FF,FF,00,00,02,02,
5044161,00000010,false,Rx,0,8,00,FF,61,30,00,00,04,AA,
5049161,00000012,false,Rx,0,8,99,99,32,00,00,00,02,30,
5054161,00000013,false,Rx,0,8,FF,01,09,00,00,00,00,00,
5059161,00000231,false,Rx,0,8,00,01,00,00,00,00,08,09,
5064161,00000517,false,Rx,0,8,00,00,00,00,00,00,00,00,
5069161,00000102,false,Rx,0,8,00,00,19,50,51,CD,05,D0,
5074161,00000103,false,Rx,0,8,02,00,02,00,00,00,05,05,
5079161,00000122,false,Rx,0,8,D3,23,00,CA,1C,BB,07,9A,
5084161,00000110,false,Rx,0,8,00,00,00,7B,01,05,03,7C,
5089161,00000300,false,Rx,0,8,00,00,0D,8C,00,66,00,00,
5094161,00000308,false,Rx,0,8,00,12,00,00,00,00,82,00,
5099161,00000316,false,Rx,0,8,13,AD,01,27,4E,00,00,00,
5104161,00000320,false,Rx,0,8,20,00,00,00,F0,00,82,00,
5109161,00000342,false,Rx,0,8,03,C2,99,99,94,00,03,90,
5114161,00000516,false,Rx,0,8,00,00,00,00,00,00,00,00,
5119161,00000010,false,Rx,0,8,00,FF,61,30,00,00,05,AB,
5124161,00000102,false,Rx,0,8,00,00,19,50,51,CD,06,D3,
5129161,00000103,false,Rx,0,8,02,00,02,00,00,00,06,06,
5134161,00000122,false,Rx,0,8,D3,23,00,CA,1C,BB,08,95,
5139161,00000231,false,Rx,0,8,00,01,00,00,00,00,09,08,
5144161,00000517,false,Rx,0,8,01,00,00,00,00,00,00,00,
5149161,00000400,false,Rx,0,8,00,0B,56,F0,00,01,04,A8,
5154161,00000408,false,Rx,0,8,00,41,33,0A,FF,FF,04,7C,
5159161,00000410,false,Rx,0,8,3B,00,C4,00,00,FF,04,04,
5164161,00000411,false,Rx,0,8,32,60,00,00,00,00,00,00,
5169161,00000022,false,Rx,0,8,FF,FF,FF,FF,00,00,04,04,
5174161,00000010,false,Rx,0,8,00,FF,61,30,00,00,06,A8,
5179161,00000012,false,Rx,0,8,99,99,32,00,01,00,03,30,
5184161,00000102,false,Rx,0,8,00,00,19,50,51,CD,07,D2,
5189161,00000103,false,Rx,0,8,02,00,02,00,00,00,07,07,
5194161,00000122,false,Rx,0,8,D3,23,00,CA,1C,BB,09,94,
5199161,00000110,false,Rx,0,8,00,00,00,7B,01,05,04,7B,
5204161,00000308,false,Rx,0,8,00,12,00,00,00,00,82,00,
5209161,00000231,false,Rx,0,8,00,01,00,00,00,00,0A,0B,
5214161,00000300,false,Rx,0,8,00,00,0D,8C,00,66,00,00,
5219161,00000316,false,Rx,0,8,13,AD,01,27,4E,00,00,00,
5224161,00000320,false,Rx,0,8,20,00,00,00,F0,00,82,00,
5229161,00000342,false,Rx,0,8,03,C2,99,99,94,00,03,90,
5234161,00000516,false,Rx,0,8,00,00,00,00,00,00,00,00,
5239161,00000517,false,Rx,0,8,01,00,00,00,00,00,00,00,
5244161,00000010,false,Rx,0,8,00,FF,61,30,00,00,07,A9,
5249161,00000102,false,Rx,0,8,00,00,19,50,51,CD,08,DD,
5254161,00000103,false,Rx,0,8,02,00,02,00,00,00,08,08,
5259161,00000122,false,Rx,0,8,D3,23,00,CA,1C,BB,0A,97,
5264161,00000231,false,Rx,0,8,00,01,00,00,00,00,0B,0A,
5269161,00000517,false,Rx,0,8,00,00,00,00,00,00,00,00,
5274161,00000400,false,Rx,0,8,00,0B,56,F0,00,01,05,A9,
5279161,00000408,false,Rx,0,8,00,41,33,0A,FF,FF,05,7D,
5284161,00000410,false,Rx,0,8,3B,00,C4,00,00,FF,05,05,
5289161,00000411,false,Rx,0,8,32,60,00,00,00,00,00,00,
5294161,00000022,false,Rx,0,8,FF,FF,FF,FF,00,00,05,05,
5299161,00000010,false,Rx,0,8,00,FF,61,30,00,00,08,A6,
5304161,00000012,false,Rx,0,8,99,99,32,00,00,00,04,36,
5309161,00000102,false,Rx,0,8,00,00,19,50,51,CD,09,DC,
5314161,00000103,false,Rx,0,8,02,00,02,00,00,00,09,09,
5319161,00000122,false,Rx,0,8,D3,23,00,CA,1C,BB,0B,96,
5324161,00000110,false,Rx,0,8,00,00,00,7B,01,05,05,7A,
5329161,00000300,false,Rx,0,8,00,00,0D,8C,00,66,00,00,
5334161,00000308,false,Rx,0,8,00,12,00,00,00,00,82,00,
5339161,00000316,false,Rx,0,8,13,AD,01,27,4E,00,00,00,
5344161,00000320,false,Rx,0,8,20,00,00,00,F0,00,82,00,
5349161,00000342,false,Rx,0,8,03,C2,99,99,94,00,03,90,
5354161,00000516,false,Rx,0,8,00,00,00,00,00,00,00,00,
5359161,00000231,false,Rx,0,8,00,01,00,00,00,00,0C,0D,
5364161,00000517,false,Rx,0,8,00,00,00,00,00,00,00,00,
5369161,00000010,false,Rx,0,8,00,FF,61,30,00,00,09,A7,
5374161,00000013,false,Rx,0,8,FF,01,09,00,00,00,00,00,
5379161,00000102,false,Rx,0,8,00,00,19,50,51,CD,0A,DF,
5384161,00000103,false,Rx,0,8,02,00,02,00,00,00,0A,0A,
5389161,00000122,false,Rx,0,8,D3,23,00,CA,1C,BB,0C,91,
5394161,00000231,false,Rx,0,8,00,01,00,00,00,00,0E,0F,
5399161,00000517,false,Rx,0,8,01,00,00,00,00,00,00,00,
5404161,00000400,false,Rx,0,8,00,0B,56,F0,00,01,06,AA,
5409161,00000408,false,Rx,0,8,00,41,33,0A,FF,FF,06,7E,
5414161,00000410,false,Rx,0,8,3B,00,C4,00,00,FF,06,06,
5419161,00000411,false,Rx,0,8,32,60,00,00,00,00,00,00,
5424161,00000022,false,Rx,0,8,FF,FF,FF,FF,00,00,06,06,
5429161,00000102,false,Rx,0,8,00,00,19,50,51,CD,0B,DE,
5434161,00000010,false,Rx,0,8,00,FF,61,30,00,00,0A,A4,
5439161,00000103,false,Rx,0,8,02,00,02,00,00,00,0B,0B,
5444161,00000012,false,Rx,0,8,99,99,32,00,01,00,05,36,
5449161,00000122,false,Rx,0,8,D3,23,00,CA,1C,BB,0D,90,
5454161,00000110,false,Rx,0,8,00,00,00,7B,01,05,06,79,
5459161,00000300,false,Rx,0,8,00,00,0D,8C,00,66,00,00,
5464161,00000308,false,Rx,0,8,00,12,00,00,00,00,82,00,
5469161,00000316,false,Rx,0,8,13,AD,01,27,4E,00,00,00,
5474161,00000320,false,Rx,0,8,20,00,00,00,F0,00,82,00,
5479161,00000342,false,Rx,0,8,03,C2,99,99,94,00,03,90,
5484161,00000516,false,Rx,0,8,00,00,00,00,00,00,00,00,
5489161,00000231,false,Rx,0,8,00,01,00,00,00,00,0E,0F,
5494161,00000517,false,Rx,0,8,01,00,00,00,00,00,00,00,
5499161,00000102,false,Rx,0,8,00,00,19,50,51,CD,0C,D9,
5504161,00000103,false,Rx,0,8,02,00,02,00,00,00,0C,0C,
5509161,00000122,false,Rx,0,8,D3,23,00,CA,1C,BB,0E,93,
5514161,00000010,false,Rx,0,8,00,FF,61,30,00,00,0B,A5,
5519161,00000231,false,Rx,0,8,00,01,00,00,00,00,00,01,
5524161,00000400,false,Rx,0,8,00,0B,56,F0,00,01,07,AB,
5529161,00000408,false,Rx,0,8,00,41,33,0A,FF,FF,07,7F,
5534161,00000410,false,Rx,0,8,3B,00,C4,00,00,FF,07,07,
5539161,00000411,false,Rx,0,8,32,60,00,00,00,00,00,00,
5544161,00000022,false,Rx,0,8,FF,FF,FF,FF,00,00,07,07,
5549161,00000517,false,Rx,0,8,00,00,00,00,00,00,00,00,
5554161,00000102,false,Rx,0,8,00,00,19,50,51,CD,0D,D8,
5559161,00000103,false,Rx,0,8,02,00,02,00,00,00,0D,0D,
5564161,00000122,false,Rx,0,8,D3,23,00,CA,1C,BB,0F,92,
5569161,00000110,false,Rx,0,8,00,00,00,7B,01,05,07,78,
5574161,00000300,false,Rx,0,8,00,00,0D,8C,00,66,00,00,
5579161,00000308,false,Rx,0,8,00,12,00,00,00,00,82,00,
5584161,00000316,false,Rx,0,8,13,AD,01,27,4E,00,00,00,
5589161,00000320,false,Rx,0,8,20,00,00,00,F0,00,82,00,
5594161,00000342,false,Rx,0,8,03,C2,99,99,94,00,03,90,
5599161,00000010,false,Rx,0,8,00,FF,61,30,00,00,0C,A2,
5604161,00000516,false,Rx,0,8,00,00,00,00,00,00,00,00,
5609161,00000012,false,Rx,0,8,99,99,32,00,00,00,06,34,
5614161,00000231,false,Rx,0,8,00,01,00,00,00,00,01,00,
5619161,00000517,false,Rx,0,8,01,00,00,00,00,00,00,00,
5624161,00000332,false,Rx,0,8,01,00,00,00,00,00,0D,0C,
5629161,00000530,false,Rx,0,8,FF,FF,6A,52,64,04,49,00,
5634161,00000102,false,Rx,0,8,00,00,19,50,51,CD,0E,DB,
5639161,00000103,false,Rx,0,8,02,00,02,00,00,00,0E,0E,
5644161,00000122,false,Rx,0,8,D3,23,00,CA,1C,BB,00,9D,
5649161,00000010,false,Rx,0,8,00,FF,61,30,00,00,0D,A3,
5654161,00000400,false,Rx,0,8,00,0B,56,F0,00,01,08,A4,
5659161,00000408,false,Rx,0,8,00,41,33,0A,FF,FF,08,70,
5664161,00000410,false,Rx,0,8,3B,00,AA,30,00,FF,08,56,
5669161,00000411,false,Rx,0,8,32,60,00,00,00,00,00,00,
5674161,00000022,false,Rx,0,8,FF,FF,FF,FF,00,00,08,08,
5679161,00000231,false,Rx,0,8,00,01,00,00,00,00,02,03,
5684161,00000517,false,Rx,0,8,01,00,00,00,00,00,00,00,
5689161,00000102,false,Rx,0,8,00,00,19,50,51,CD,0F,DA,
5694161,00000103,false,Rx,0,8,02,00,02,00,00,00,0F,0F,
5699161,00000122,false,Rx,0,8,D3,23,00,CA,1C,BB,01,9C,
5704161,00000110,false,Rx,0,8,00,00,00,7B,01,05,08,77,
5709161,00000308,false,Rx,0,8,00,12,00,00,00,00,82,00,
5714161,00000300,false,Rx,0,8,00,00,0D,8C,00,66,00,00,
5719161,00000316,false,Rx,0,8,13,AD,01,27,4E,00,00,00,
5724161,00000320,false,Rx,0,8,20,00,00,00,F0,00,82,00,
5729161,00000342,false,Rx,0,8,03,C2,99,99,94,00,03,90,
5734161,00000516,false,Rx,0,8,00,00,00,00,00,00,00,00,
5739161,00000010,false,Rx,0,8,00,FF,61,30,00,00,0E,A0,
5744161,00000012,false,Rx,0,8,99,99,32,00,01,00,07,34,
5749161,00000013,false,Rx,0,8,FF,01,09,00,00,00,00,00,
5754161,00000231,false,Rx,0,8,00,01,00,00,00,00,03,02,
5759161,00000517,false,Rx,0,8,00,00,00,00,00,00,00,00,
5764161,00000102,false,Rx,0,8,00,00,19,50,51,CD,00,D5,
5769161,00000103,false,Rx,0,8,02,00,02,00,00,00,00,00,
5774161,00000122,false,Rx,0,8,D3,23,00,CA,1C,BB,02,9F,
5779161,00000010,false,Rx,0,8,00,FF,61,30,00,00,0F,A1,
5784161,00000400,false,Rx,0,8,00,0B,56,F0,00,01,09,A5,
5789161,00000408,false,Rx,0,8,00,41,33,0A,FF,FF,09,71,
5794161,00000410,false,Rx,0,8,3B,00,AA,30,00,FF,09,57,
5799161,00000411,false,Rx,0,8,32,60,00,00,00,00,00,00,
5804161,00000022,false,Rx,0,8,FF,FF,FF,FF,00,00,09,09,
5809161,00000102,false,Rx,0,8,00,00,19,50,51,CD,01,D4,
5814161,00000103,false,Rx,0,8,02,00,02,00,00,00,01,01,
5819161,00000122,false,Rx,0,8,D3,23,00,CA,1C,BB,03,9E,
5824161,00000110,false,Rx,0,8,00,00,00,7B,01,05,09,76,
5829161,00000231,false,Rx,0,8,00,01,00,00,00,00,04,05,
5834161,00000300,false,Rx,0,8,00,00,0D,8C,00,66,00,00,
5839161,00000308,false,Rx,0,8,00,12,00,00,00,00,82,00,
5844161,00000316,false,Rx,0,8,13,AD,01,27,4E,00,00,00,
5849161,00000320,false,Rx,0,8,20,00,00,00,F0,00,82,00,
5854161,00000342,false,Rx,0,8,03,C2,99,99,94,00,03,90,
5859161,00000516,false,Rx,0,8,00,00,00,00,00,00,00,00,
5864161,00000517,false,Rx,0,8,00,00,00,00,00,00,00,00,
5869161,00000010,false,Rx,0,8,00,FF,61,30,00,00,00,AE,
5874161,00000012,false,Rx,0,8,99,99,32,00,00,00,08,3A,
5879161,00000102,false,Rx,0,8,00,00,19,50,51,CD,02,D7,
5884161,00000103,false,Rx,0,8,02,00,02,00,00,00,02,02,
5889161,00000122,false,Rx,0,8,D3,23,00,CA,1C,BB,04,99,
5894161,00000231,false,Rx,0,8,00,01,00,00,00,00,05,04,
5899161,00000517,false,Rx,0,8,01,00,00,00,00,00,00,00,
5904161,00000010,false,Rx,0,8,00,FF,61,30,00,00,01,AF,
5909161,00000400,false,Rx,0,8,00,0B,56,F0,00,01,0A,A6,
5914161,00000408,false,Rx,0,8,00,41,33,0A,FF,FF,0A,72,
5919161,00000410,false,Rx,0,8,3B,00,AA,30,00,FF,0A,54,
5924161,00000102,false,Rx,0,8,00,00,19,50,51,CD,03,D6,
5929161,00000103,false,Rx,0,8,02,00,02,00,00,00,03,03,
5934161,00000122,false,Rx,0,8,D3,23,00,CA,1C,BB,05,98,
5939161,00000411,false,Rx,0,8,32,60,00,00,00,00,00,00,
5944161,00000110,false,Rx,0,8,00,00,00,7B,01,05,0A,75,
5949161,00000022,false,Rx,0,8,FF,FF,FF,FF,00,00,0A,0A,
5954161,00000300,false,Rx,0,8,00,00,0D,8C,00,66,00,00,
5959161,00000308,false,Rx,0,8,00,12,00,00,00,00,82,00,
5964161,00000316,false,Rx,0,8,13,AD,01,27,4E,00,00,00,
5969161,00000320,false,Rx,0,8,20,00,00,00,F0,00,82,00,
5974161,00000231,false,Rx,0,8,00,01,00,00,00,00,06,07,
5979161,00000342,false,Rx,0,8,03,C2,99,99,94,00,03,90,
5984161,00000516,false,Rx,0,8,00,00,00,00,00,00,00,00,
5989161,00000517,false,Rx,0,8,01,00,00,00,00,00,00,00,
5994161,00000010,false,Rx,0,8,00,FF,61,30,00,00,02,AC,
5999161,00000012,false,Rx,0,8,99,99,32,00,01,00,09,3A,
6004161,00000102,false,Rx,0,8,00,00,19,50,51,CD,04,D1,
6009161,00000103,false,Rx,0,8,02,00,02,00,00,00,04,04,
6014161,00000122,false,Rx,0,8,D3,23,00,CA,1C,BB,06,9B,
6019161,00000231,false,Rx,0,8,00,01,00,00,00,00,08,09,
6024161,00000517,false,Rx,0,8,00,00,00,00,00,00,00,00,
6029161,00000010,false,Rx,0,8,00,FF,61,30,00,00,03,AD,
6034161,00000013,false,Rx,0,8,FF,01,09,00,00,00,00,00,
6039161,00000102,false,Rx,0,8,00,00,19,50,51,CD,05,D0,
6044161,00000103,false,Rx,0,8,02,00,02,00,00,00,05,05,
6049161,00000122,false,Rx,0,8,D3,23,00,CA,1C,BB,07,9A,
6054161,00000110,false,Rx,0,8,00,00,00,7B,01,05,0B,74,
6059161,00000300,false,Rx,0,8,00,00,0D,8C,00,66,00,00,
6064161,00000308,false,Rx,0,8,00,12,00,00,00,00,82,00,
6069161,00000316,false,Rx,0,8,13,AD,01,27,4E,00,00,00,
6074161,00000320,false,Rx,0,8,20,00,00,00,F0,00,82,00,
6079161,00000342,false,Rx,0,8,03,C2,99,99,94,00,03,90,
6084161,00000400,false,Rx,0,8,00,0B,56,F0,00,01,0B,A7,
6089161,00000516,false,Rx,0,8,00,00,00,00,00,00,00,00,
6094161,00000408,false,Rx,0,8,00,41,33,0A,FF,FF,0B,73,
6099161,00000410,false,Rx,0,8,3B,00,AA,30,00,FF,0B,55,
6104161,00000411,false,Rx,0,8,32,60,00,00,00,00,00,00,
6109161,00000022,false,Rx,0,8,FF,FF,FF,FF,00,00,0B,0B,
6114161,00000231,false,Rx,0,8,00,01,00,00,00,00,08,09,
6119161,00000517,false,Rx,0,8,00,00,00,00,00,00,00,00,
6124161,00000102,false,Rx,0,8,00,00,19,50,51,CD,06,D3,
6129161,00000010,false,Rx,0,8,00,FF,61,30,00,00,04,AA,
6134161,00000103,false,Rx,0,8,02,00,02,00,00,00,06,06,
6139161,00000012,false,Rx,0,8,99,99,32,00,00,00,0A,38,
6144161,00000122,false,Rx,0,8,D3,23,00,CA,1C,BB,08,95,
6149161,00000231,false,Rx,0,8,00,01,00,00,00,00,0A,0B,
6154161,00000517,false,Rx,0,8,01,00,00,00,00,00,00,00,
6159161,00000102,false,Rx,0,8,00,00,19,50,51,CD,07,D2,
6164161,00000103,false,Rx,0,8,02,00,02,00,00,00,07,07,
6169161,00000122,false,Rx,0,8,D3,23,00,CA,1C,BB,09,94,
6174161,00000110,false,Rx,0,8,00,00,00,7B,01,05,0C,73,
6179161,00000010,false,Rx,0,8,00,FF,61,30,00,00,05,AB,
6184161,00000300,false,Rx,0,8,00,00,0D,8C,00,66,00,00,
6189161,00000308,false,Rx,0,8,00,12,00,00,00,00,82,00,
6194161,00000316,false,Rx,0,8,13,AD,01,27,4E,00,00,00,
6199161,00000320,false,Rx,0,8,20,00,00,00,F0,00,82,00,
6204161,00000342,false,Rx,0,8,03,C2,99,99,94,00,03,90,
6209161,00000400,false,Rx,0,8,00,0B,56,F0,00,01,0C,A0,
6214161,00000516,false,Rx,0,8,00,00,00,00,00,00,00,00,
6219161,00000408,false,Rx,0,8,00,41,33,0A,FF,FF,0C,74,
6224161,00000410,false,Rx,0,8,3F,00,AA,31,00,FF,0C,57,
6229161,00000411,false,Rx,0,8,32,60,00,00,00,00,00,00,
6234161,00000022,false,Rx,0,8,FF,FF,FF,FF,00,00,0C,0C,
6239161,00000231,false,Rx,0,8,00,01,00,00,00,00,0A,0B,
6244161,00000517,false,Rx,0,8,01,00,00,00,00,00,00,00,
6249161,00000332,false,Rx,0,8,01,00,00,00,00,00,0E,0F,
6254161,00000530,false,Rx,0,8,FF,FF,6A,52,64,04,49,00,
6259161,00000102,false,Rx,0,8,00,00,19,50,51,CD,08,DD,
6264161,00000103,false,Rx,0,8,02,00,02,00,00,00,08,08,
6269161,00000122,false,Rx,0,8,D3,23,00,CA,1C,BB,0A,97,
6274161,00000010,false,Rx,0,8,00,FF,61,30,00,00,06,A8,
6279161,00000012,false,Rx,0,8,99,99,32,00,01,00,0B,38,
6284161,00000231,false,Rx,0,8,00,01,00,00,00,00,0C,0D,
6289161,00000517,false,Rx,0,8,00,00,00,00,00,00,00,00,
6294161,00000102,false,Rx,0,8,00,00,19,50,51,CD,09,DC,
6299161,00000103,false,Rx,0,8,02,00,02,00,00,00,09,09,
6304161,00000122,false,Rx,0,8,D3,23,00,CA,1C,BB,0B,96,
6309161,00000110,false,Rx,0,8,00,00,00,7B,01,05,0D,72,
6314161,00000300,false,Rx,0,8,00,00,0D,8C,00,66,00,00,
6319161,00000308,false,Rx,0,8,00,12,00,00,00,00,82,00,
6324161,00000316,false,Rx,0,8,13,AD,01,27,4E,00,00,00,
6329161,00000320,false,Rx,0,8,20,00,00,00,F0,00,82,00,
6334161,00000342,false,Rx,0,8,03,C2,99,99,94,00,03,90,
6339161,00000516,false,Rx,0,8,00,00,00,00,00,00,00,00,
6344161,00000400,false,Rx,0,8,00,0B,56,F0,00,01,0D,A1,
6349161,00000408,false,Rx,0,8,00,41,33,0A,FF,FF,0D,75,
6354161,00000410,false,Rx,0,8,3F,00,AA,31,00,FF,0D,56,
6359161,00000010,false,Rx,0,8,00,FF,61,30,00,00,07,A9,
6364161,00000411,false,Rx,0,8,32,60,00,00,00,00,00,00,
6369161,00000022,false,Rx,0,8,FF,FF,FF,FF,00,00,0D,0D,
6374161,00000231,false,Rx,0,8,00,01,00,00,00,00,0D,0C,
6379161,00000517,false,Rx,0,8,01,00,00,00,00,00,00,00,
6384161,00000102,false,Rx,0,8,00,00,19,50,51,CD,0A,DF,
6389161,00000103,false,Rx,0,8,02,00,02,00,00,00,0A,0A,
6394161,00000122,false,Rx,0,8,D3,23,00,CA,1C,BB,0C,91,
6399161,00000010,false,Rx,0,8,00,FF,61,30,00,00,08,A6,
6404161,00000012,false,Rx,0,8,99,99,32,00,00,00,0C,3E,
6409161,00000013,false,Rx,0,8,FF,01,09,00,00,00,00,00,
6414161,00000231,false,Rx,0,8,00,01,00,00,00,00,0E,0F,
6419161,00000517,false,Rx,0,8,01,00,00,00,00,00,00,00,
6424161,00000102,false,Rx,0,8,00,00,19,50,51,CD,0B,DE,
6429161,00000103,false,Rx,0,8,02,00,02,00,00,00,0B,0B,
6434161,00000122,false,Rx,0,8,D3,23,00,CA,1C,BB,0D,90,
6439161,00000110,false,Rx,0,8,00,00,00,7B,01,05,0E,71,
6444161,00000308,false,Rx,0,8,00,12,00,00,00,00,82,00,
6449161,00000300,false,Rx,0,8,00,00,0D,8C,00,66,00,00,
6454161,00000316,false,Rx,0,8,13,AD,01,27,4E,00,00,00,
6459161,00000320,false,Rx,0,8,20,00,00,00,F0,00,82,00,
6464161,00000342,false,Rx,0,8,03,C2,99,99,94,00,03,90,
6469161,00000516,false,Rx,0,8,00,00,00,00,00,00,00,00,
6474161,00000400,false,Rx,0,8,00,0B,56,F0,00,01,0E,A2,
6479161,00000408,false,Rx,0,8,00,41,33,0A,FF,FF,0E,76,
6484161,00000410,false,Rx,0,8,3F,00,AA,31,00,FF,0E,55,
6489161,00000411,false,Rx,0,8,32,60,00,00,00,00,00,00,
6494161,00000022,false,Rx,0,8,FF,FF,FF,FF,00,00,0E,0E,
6499161,00000010,false,Rx,0,8,00,FF,61,30,00,00,09,A7,
6504161,00000102,false,Rx,0,8,00,00,19,50,51,CD,0C,D9,
6509161,00000103,false,Rx,0,8,02,00,02,00,00,00,0C,0C,
6514161,00000122,false,Rx,0,8,D3,23,00,CA,1C,BB,0E,93,
6519161,00000231,false,Rx,0,8,00,01,00,00,00,00,0F,0E,
6524161,00000517,false,Rx,0,8,00,00,00,00,00,00,00,00,
6529161,00000010,false,Rx,0,8,00,FF,61,30,00,00,0A,A4,
6534161,00000012,false,Rx,0,8,99,99,32,00,01,00,0D,3E,
6539161,00000102,false,Rx,0,8,00,00,19,50,51,CD,0D,D8,
6544161,00000103,false,Rx,0,8,02,00,02,00,00,00,0D,0D,
6549161,00000122,false,Rx,0,8,D3,23,00,CA,1C,BB,0F,92,
6554161,00000110,false,Rx,0,8,00,00,00,7B,01,05,0F,70,
6559161,00000300,false,Rx,0,8,00,00,0D,8C,00,66,00,00,
6564161,00000308,false,Rx,0,8,00,12,00,00,00,00,82,00,
6569161,00000231,false,Rx,0,8,00,01,00,00,00,00,00,01,
6574161,00000316,false,Rx,0,8,13,AD,01,27,4E,00,00,00,
6579161,00000320,false,Rx,0,8,20,00,00,00,F0,00,82,00,
6584161,00000342,false,Rx,0,8,03,C2,99,99,94,00,03,90,
6589161,00000516,false,Rx,0,8,00,00,00,00,00,00,00,00,
6594161,00000517,false,Rx,0,8,00,00,00,00,00,00,00,00,
6599161,00000400,false,Rx,0,8,00,0B,56,F0,00,01,0F,A3,
6604161,00000408,false,Rx,0,8,00,41,33,0A,FF,FF,0F,77,
6609161,00000410,false,Rx,0,8,3F,00,AA,31,00,FF,0F,54,
6614161,00000411,false,Rx,0,8,32,60,00,00,00,00,00,00,
6619161,00000022,false,Rx,0,8,FF,FF,FF,FF,00,00,0F,0F,
6624161,00000010,false,Rx,0,8,00,FF,61,30,00,00,0B,A5,
6629161,00000102,false,Rx,0,8,00,00,19,50,51,CD,0E,DB,
6634161,00000103,false,Rx,0,8,02,00,02,00,00,00,0E,0E,
6639161,00000122,false,Rx,0,8,D3,23,00,CA,1C,BB,00,9D,
6644161,00000231,false,Rx,0,8,00,01,00,00,00,00,01,00,
6649161,00000517,false,Rx,0,8,01,00,00,00,00,00,00,00,
6654161,00000010,false,Rx,0,8,00,FF,61,30,00,00,0C,A2,
6659161,00000012,false,Rx,0,8,99,99,32,00,00,00,0E,3C,
6664161,00000102,false,Rx,0,8,00,00,19,50,51,CD,0F,DA,
6669161,00000103,false,Rx,0,8,02,00,02,00,00,00,0F,0F,
6674161,00000122,false,Rx,0,8,D3,23,00,CA,1C,BB,01,9C,
6679161,00000110,false,Rx,0,8,00,00,00,7B,01,05,00,7F,
6684161,00000308,false,Rx,0,8,00,12,00,00,00,00,82,00,
6689161,00000300,false,Rx,0,8,00,00,0D,8C,00,66,00,00,
6694161,00000316,false,Rx,0,8,13,AD,01,27,4E,00,00,00,
6699161,00000320,false,Rx,0,8,20,00,00,00,F0,00,82,00,
6704161,00000342,false,Rx,0,8,03,C2,99,99,94,00,03,90,
6709161,00000516,false,Rx,0,8,00,00,00,00,00,00,00,00,
6714161,00000231,false,Rx,0,8,00,01,00,00,00,00,02,03,
6719161,00000517,false,Rx,0,8,01,00,00,00,00,00,00,00,
6724161,00000400,false,Rx,0,8,00,0B,56,F0,00,01,00,AC,
6729161,00000408,false,Rx,0,8,00,41,33,0A,FF,FF,00,78,
6734161,00000410,false,Rx,0,8,3F,00,C4,00,00,FF,00,04,
6739161,00000411,false,Rx,0,8,32,60,00,00,00,00,00,00,
6744161,00000022,false,Rx,0,8,FF,FF,FF,FF,00,00,00,00,
6749161,00000010,false,Rx,0,8,00,FF,61,30,00,00,0D,A3,
6754161,00000013,false,Rx,0,8,FF,01,09,00,00,00,00,00,
6759161,00000102,false,Rx,0,8,00,00,19,50,51,CD,00,D5,
6764161,00000103,false,Rx,0,8,02,00,02,00,00,00,00,00,
6769161,00000122,false,Rx,0,8,D3,23,00,CA,1C,BB,02,9F,
6774161,00000231,false,Rx,0,8,00,01,00,00,00,00,04,05,
6779161,00000517,false,Rx,0,8,00,00,00,00,00,00,00,00,
6784161,00000010,false,Rx,0,8,00,FF,61,30,00,00,0E,A0,
6789161,00000102,false,Rx,0,8,00,00,19,50,51,CD,01,D4,
6794161,00000012,false,Rx,0,8,99,99,32,00,01,00,0F,3C,
6799161,00000103,false,Rx,0,8,02,00,02,00,00,00,01,01,
6804161,00000110,false,Rx,0,8,00,00,00,7B,01,05,01,7E,
6809161,00000122,false,Rx,0,8,D3,23,00,CA,1C,BB,03,9E,
6814161,00000300,false,Rx,0,8,00,00,0D,8C,00,66,00,00,
6819161,00000308,false,Rx,0,8,00,12,00,00,00,00,82,00,
6824161,00000316,false,Rx,0,8,13,AD,01,27,4E,00,00,00,
6829161,00000320,false,Rx,0,8,20,00,00,00,F0,00,82,00,
6834161,00000342,false,Rx,0,8,03,C2,99,99,94,00,03,90,
6839161,00000516,false,Rx,0,8,00,00,00,00,00,00,00,00,
6844161,00000231,false,Rx,0,8,00,01,00,00,00,00,04,05,
6849161,00000517,false,Rx,0,8,00,00,00,00,00,00,00,00,
6854161,00000400,false,Rx,0,8,00,0B,56,F0,00,01,01,AD,
6859161,00000408,false,Rx,0,8,00,41,33,0A,FF,FF,01,79,
6864161,00000410,false,Rx,0,8,3F,00,C4,00,00,FF,01,05,
6869161,00000411,false,Rx,0,8,32,60,00,00,00,00,00,00,
6874161,00000022,false,Rx,0,8,FF,FF,FF,FF,00,00,01,01,
6879161,00000102,false,Rx,0,8,00,00,19,50,51,CD,02,D7,
6884161,00000103,false,Rx,0,8,02,00,02,00,00,00,02,02,
6889161,00000122,false,Rx,0,8,D3,23,00,CA,1C,BB,04,99,
6894161,00000332,false,Rx,0,8,01,00,00,00,00,00,0F,0E,
6899161,00000010,false,Rx,0,8,00,FF,61,30,00,00,0F,A1,
6904161,00000530,false,Rx,0,8,FF,FF,6A,52,64,04,49,00,
6909161,00000231,false,Rx,0,8,00,01,00,00,00,00,06,07,
6914161,00000517,false,Rx,0,8,01,00,00,00,00,00,00,00,
6919161,00000102,false,Rx,0,8,00,00,19,50,51,CD,03,D6,
6924161,00000103,false,Rx,0,8,02,00,02,00,00,00,03,03,
6929161,00000122,false,Rx,0,8,D3,23,00,CA,1C,BB,05,98,
6934161,00000110,false,Rx,0,8,00,00,00,7B,01,05,02,7D,
6939161,00000308,false,Rx,0,8,00,12,00,00,00,00,82,00,
6944161,00000300,false,Rx,0,8,00,00,0D,8C,00,66,00,00,
6949161,00000316,false,Rx,0,8,13,AD,01,27,4E,00,00,00,
6954161,00000010,false,Rx,0,8,00,FF,61,30,00,00,00,AE,
6959161,00000320,false,Rx,0,8,20,00,00,00,F0,00,82,00,
6964161,00000012,false,Rx,0,8,99,99,32,00,00,00,00,32,
6969161,00000342,false,Rx,0,8,03,C2,99,99,94,00,03,90,
6974161,00000516,false,Rx,0,8,00,00,00,00,00,00,00,00,
6979161,00000231,false,Rx,0,8,00,01,00,00,00,00,07,06,
6984161,00000400,false,Rx,0,8,00,0B,56,F0,00,01,03,AF,
6989161,00000408,false,Rx,0,8,00,41,33,0A,FF,FF,03,7B,
6994161,00000410,false,Rx,0,8,3F,00,C4,00,00,FF,02,06,
6999161,00000411,false,Rx,0,8,32,60,00,00,00,00,00,00,
7004161,00000022,false,Rx,0,8,FF,FF,FF,FF,00,00,02,02,
7009161,00000517,false,Rx,0,8,00,00,00,00,00,00,00,00,
7014161,00000102,false,Rx,0,8,00,00,19,50,51,CD,04,D1,
7019161,00000103,false,Rx,0,8,02,00,02,00,00,00,04,04,
7024161,00000122,false,Rx,0,8,D3,23,00,CA,1C,BB,06,9B,
7029161,00000010,false,Rx,0,8,00,FF,61,30,00,00,01,AF,
7034161,00000231,false,Rx,0,8,00,01,00,00,00,00,08,09,
7039161,00000517,false,Rx,0,8,00,00,00,00,00,00,00,00,
7044161,00000102,false,Rx,0,8,00,00,19,50,51,CD,05,D0,
7049161,00000103,false,Rx,0,8,02,00,02,00,00,00,05,05,
7054161,00000122,false,Rx,0,8,D3,23,00,CA,1C,BB,07,9A,
7059161,00000110,false,Rx,0,8,00,00,00,7B,01,05,03,7C,
7064161,00000300,false,Rx,0,8,00,00,0D,8C,00,66,00,00,
7069161,00000308,false,Rx,0,8,00,12,00,00,00,00,82,00,
7074161,00000316,false,Rx,0,8,13,AD,01,27,4E,00,00,00,
7079161,00000320,false,Rx,0,8,20,00,00,00,F0,00,82,00,
7084161,00000342,false,Rx,0,8,03,C2,99,99,94,00,03,90,
7089161,00000516,false,Rx,0,8,00,00,00,00,00,00,00,00,
7094161,00000010,false,Rx,0,8,00,FF,61,30,00,00,02,AC,
7099161,00000012,false,Rx,0,8,99,99,32,00,01,00,01,32,
7104161,00000013,false,Rx,0,8,FF,01,09,00,00,00,00,00,
7109161,00000400,false,Rx,0,8,00,0B,56,F0,00,01,04,A8,
7114161,00000408,false,Rx,0,8,00,41,33,0A,FF,FF,04,7C,
7119161,00000410,false,Rx,0,8,3F,00,C4,00,00,FF,03,07,
7124161,00000411,false,Rx,0,8,32,60,00,00,00,00,00,00,
7129161,00000022,false,Rx,0,8,FF,FF,FF,FF,00,00,03,03,
7134161,00000231,false,Rx,0,8,00,01,00,00,00,00,09,08,
7139161,00000102,false,Rx,0,8,00,00,19,50,51,CD,06,D3,
7144161,00000103,false,Rx,0,8,02,00,02,00,00,00,06,06,
7149161,00000122,false,Rx,0,8,D3,23,00,CA,1C,BB,08,95,
7154161,00000517,false,Rx,0,8,01,00,00,00,00,00,00,00,
7159161,00000010,false,Rx,0,8,00,FF,61,30,00,00,03,AD,
7164161,00000102,false,Rx,0,8,00,00,19,50,51,CD,07,D2,
7169161,00000103,false,Rx,0,8,02,00,02,00,00,00,07,07,
7174161,00000122,false,Rx,0,8,D3,23,00,CA,1C,BB,09,94,
7179161,00000231,false,Rx,0,8,00,01,00,00,00,00,0A,0B,
7184161,00000110,false,Rx,0,8,00,00,00,7B,01,05,04,7B,
7189161,00000300,false,Rx,0,8,00,00,0D,8C,00,66,00,00,
7194161,00000308,false,Rx,0,8,00,12,00,00,00,00,82,00,
7199161,00000316,false,Rx,0,8,13,AD,01,27,4E,00,00,00,
7204161,00000320,false,Rx,0,8,20,00,00,00,F0,00,82,00,
7209161,00000342,false,Rx,0,8,03,C2,99,99,94,00,03,90,
7214161,00000516,false,Rx,0,8,00,00,00,00,00,00,00,00,
7219161,00000517,false,Rx,0,8,01,00,00,00,00,00,00,00,
7224161,00000010,false,Rx,0,8,00,FF,61,30,00,00,04,AA,
7229161,00000012,false,Rx,0,8,99,99,32,00,00,00,02,30,
7234161,00000400,false,Rx,0,8,00,0B,56,F0,00,01,05,A9,
7239161,00000408,false,Rx,0,8,00,41,33,0A,FF,FF,05,7D,
7244161,00000410,false,Rx,0,8,3F,00,AA,30,00,FF,04,5E,
7249161,00000102,false,Rx,0,8,00,00,19,50,51,CD,08,DD,
7254161,00000103,false,Rx,0,8,02,00,02,00,00,00,08,08,
7259161,00000122,false,Rx,0,8,D3,23,00,CA,1C,BB,0A,97,
7264161,00000411,false,Rx,0,8,32,60,00,00,00,00,00,00,
7269161,00000022,false,Rx,0,8,FF,FF,FF,FF,00,00,04,04,
7274161,00000231,false,Rx,0,8,00,01,00,00,00,00,0B,0A,
7279161,00000517,false,Rx,0,8,00,00,00,00,00,00,00,00,
7284161,00000010,false,Rx,0,8,00,FF,61,30,00,00,05,AB,
7289161,00000102,false,Rx,0,8,00,00,19,50,51,CD,09,DC,
7294161,00000103,false,Rx,0,8,02,00,02,00,00,00,09,09,
7299161,00000122,false,Rx,0,8,D3,23,00,CA,1C,BB,0B,96,
7304161,00000110,false,Rx,0,8,00,00,00,7B,01,05,05,7A,
7309161,00000300,false,Rx,0,8,00,00,0D,8C,00,66,00,00,
7314161,00000308,false,Rx,0,8,00,12,00,00,00,00,82,00,
7319161,00000316,false,Rx,0,8,13,AD,01,27,4E,00,00,00,
7324161,00000320,false,Rx,0,8,20,00,00,00,F0,00,82,00,
7329161,00000342,false,Rx,0,8,03,C2,99,99,94,00,03,90,
7334161,00000516,false,Rx,0,8,00,00,00,00,00,00,00,00,
7339161,00000231,false,Rx,0,8,00,01,00,00,00,00,0C,0D,
7344161,00000517,false,Rx,0,8,00,00,00,00,00,00,00,00,
7349161,00000010,false,Rx,0,8,00,FF,61,30,00,00,06,A8,
7354161,00000012,false,Rx,0,8,99,99,32,00,01,00,03,30,
7359161,00000102,false,Rx,0,8,00,00,19,50,51,CD,0A,DF,
7364161,00000103,false,Rx,0,8,02,00,02,00,00,00,0A,0A,
7369161,00000122,false,Rx,0,8,D3,23,00,CA,1C,BB,0C,91,
7374161,00000400,false,Rx,0,8,00,0B,56,F0,00,01,06,AA,
7379161,00000408,false,Rx,0,8,00,41,33,0A,FF,FF,06,7E,
7384161,00000410,false,Rx,0,8,3F,00,AA,30,00,FF,05,5F,
7389161,00000411,false,Rx,0,8,32,60,00,00,00,00,00,00,
7394161,00000022,false,Rx,0,8,FF,FF,FF,FF,00,00,05,05,
7399161,00000231,false,Rx,0,8,00,01,00,00,00,00,0E,0F,
7404161,00000517,false,Rx,0,8,01,00,00,00,00,00,00,00,
7409161,00000010,false,Rx,0,8,00,FF,61,30,00,00,07,A9,
7414161,00000013,false,Rx,0,8,FF,01,09,00,00,00,00,00,
7419161,00000102,false,Rx,0,8,00,00,19,50,51,CD,0B,DE,
7424161,00000103,false,Rx,0,8,02,00,02,00,00,00,0B,0B,
7429161,00000122,false,Rx,0,8,D3,23,00,CA,1C,BB,0D,90,
7434161,00000110,false,Rx,0,8,00,00,00,7B,01,05,06,79,
7439161,00000308,false,Rx,0,8,00,12,00,00,00,00,82,00,
7444161,00000300,false,Rx,0,8,00,00,0D,8C,00,66,00,00,
7449161,00000316,false,Rx,0,8,13,AD,01,27,4E,00,00,00,
7454161,00000320,false,Rx,0,8,20,00,00,00,F0,00,82,00,
7459161,00000342,false,Rx,0,8,03,C2,99,99,94,00,03,90,
7464161,00000516,false,Rx,0,8,00,00,00,00,00,00,00,00,
7469161,00000231,false,Rx,0,8,00,01,00,00,00,00,0E,0F,
7474161,00000517,false,Rx,0,8,01,00,00,00,00,00,00,00,
7479161,00000010,false,Rx,0,8,00,FF,61,30,00,00,08,A6,
7484161,00000102,false,Rx,0,8,00,00,19,50,51,CD,0C,D9,
7489161,00000012,false,Rx,0,8,99,99,32,00,00,00,04,36,
7494161,00000103,false,Rx,0,8,02,00,02,00,00,00,0C,0C,
7499161,00000122,false,Rx,0,8,D3,23,00,CA,1C,BB,0E,93,
7504161,00000400,false,Rx,0,8,00,0B,56,F0,00,01,07,AB,
7509161,00000408,false,Rx,0,8,00,41,33,0A,FF,FF,07,7F,
7514161,00000410,false,Rx,0,8,33,00,AA,30,00,FF,06,50,
7519161,00000411,false,Rx,0,8,32,60,00,00,00,00,00,00,
7524161,00000332,false,Rx,0,8,01,00,00,00,00,00,00,01,
7529161,00000022,false,Rx,0,8,FF,FF,FF,FF,00,00,06,06,
7534161,00000530,false,Rx,0,8,FF,FF,6A,52,64,04,49,00,
7539161,00000231,false,Rx,0,8,00,01,00,00,00,00,00,01,
7544161,00000517,false,Rx,0,8,00,00,00,00,00,00,00,00,
7549161,00000102,false,Rx,0,8,00,00,19,50,51,CD,0D,D8,
7554161,00000103,false,Rx,0,8,02,00,02,00,00,00,0D,0D,
7559161,00000122,false,Rx,0,8,D3,23,00,CA,1C,BB,0F,92,
7564161,00000110,false,Rx,0,8,00,00,00,7B,01,05,07,78,
7569161,00000010,false,Rx,0,8,00,FF,61,30,00,00,09,A7,
7574161,00000300,false,Rx,0,8,00,00,0D,8C,00,66,00,00,
7579161,00000308,false,Rx,0,8,00,12,00,00,00,00,82,00,
7584161,00000316,false,Rx,0,8,13,AD,01,27,4E,00,00,00,
7589161,00000320,false,Rx,0,8,20,00,00,00,F0,00,82,00,
7594161,00000342,false,Rx,0,8,03,C2,99,99,94,00,03,90,
7599161,00000516,false,Rx,0,8,00,00,00,00,00,00,00,00,
7604161,00000231,false,Rx,0,8,00,01,00,00,00,00,01,00,
7609161,00000517,false,Rx,0,8,00,00,00,00,00,00,00,00,
7614161,00000102,false,Rx,0,8,00,00,19,50,51,CD,0E,DB,
7619161,00000103,false,Rx,0,8,02,00,02,00,00,00,0E,0E,
7624161,00000122,false,Rx,0,8,D3,23,00,CA,1C,BB,00,9D,
7629161,00000010,false,Rx,0,8,00,FF,61,30,00,00,0A,A4,
7634161,00000012,false,Rx,0,8,99,99,32,00,01,00,05,36,
7639161,00000400,false,Rx,0,8,00,0B,56,F0,00,01,08,A4,
7644161,00000408,false,Rx,0,8,00,41,33,0A,FF,FF,08,70,
7649161,00000410,false,Rx,0,8,33,00,AA,30,00,FF,07,51,
7654161,00000411,false,Rx,0,8,32,60,00,00,00,00,00,00,
7659161,00000022,false,Rx,0,8,FF,FF,FF,FF,00,00,07,07,
7664161,00000231,false,Rx,0,8,00,01,00,00,00,00,02,03,
7669161,00000517,false,Rx,0,8,01,00,00,00,00,00,00,00,
7674161,00000102,false,Rx,0,8,00,00,19,50,51,CD,0F,DA,
7679161,00000103,false,Rx,0,8,02,00,02,00,00,00,0F,0F,
7684161,00000122,false,Rx,0,8,D3,23,00,CA,1C,BB,01,9C,
7689161,00000110,false,Rx,0,8,00,00,00,7B,01,05,08,77,
7694161,00000308,false,Rx,0,8,00,12,00,00,00,00,82,00,
7699161,00000300,false,Rx,0,8,00,00,0D,8C,00,66,00,00,
7704161,00000316,false,Rx,0,8,13,AD,01,27,4E,00,00,00,
7709161,00000320,false,Rx,0,8,20,00,00,00,F0,00,82,00,
7714161,00000342,false,Rx,0,8,03,C2,99,99,94,00,03,90,
7719161,00000516,false,Rx,0,8,00,00,00,00,00,00,00,00,
7724161,00000010,false,Rx,0,8,00,FF,61,30,00,00,0B,A5,
7729161,00000231,false,Rx,0,8,00,01,00,00,00,00,03,02,
7734161,00000517,false,Rx,0,8,00,00,00,00,00,00,00,00,
7739161,00000102,false,Rx,0,8,00,00,19,50,51,CD,00,D5,
7744161,00000103,false,Rx,0,8,02,00,02,00,00,00,00,00,
7749161,00000122,false,Rx,0,8,D3,23,00,CA,1C,BB,02,9F,
7754161,00000400,false,Rx,0,8,00,0B,56,F0,00,01,09,A5,
7759161,00000408,false,Rx,0,8,00,41,33,0A,FF,FF,09,71,
7764161,00000010,false,Rx,0,8,00,FF,61,30,00,00,0C,A2,
7769161,00000410,false,Rx,0,8,33,00,AA,31,00,FF,09,5E,
7774161,00000012,false,Rx,0,8,99,99,32,00,00,00,06,34,
7779161,00000411,false,Rx,0,8,32,60,00,00,00,00,00,00,
7784161,00000013,false,Rx,0,8,FF,01,09,00,00,00,00,00,
7789161,00000022,false,Rx,0,8,FF,FF,FF,FF,00,00,09,09,
7794161,00000231,false,Rx,0,8,00,01,00,00,00,00,04,05,
7799161,00000517,false,Rx,0,8,00,00,00,00,00,00,00,00,
7804161,00000102,false,Rx,0,8,00,00,19,50,51,CD,01,D4,
7809161,00000103,false,Rx,0,8,02,00,02,00,00,00,01,01,
7814161,00000122,false,Rx,0,8,D3,23,00,CA,1C,BB,03,9E,
7819161,00000110,false,Rx,0,8,00,00,00,7B,01,05,09,76,
7824161,00000300,false,Rx,0,8,00,00,0D,8C,00,66,00,00,
7829161,00000308,false,Rx,0,8,00,12,00,00,00,00,82,00,
7834161,00000316,false,Rx,0,8,13,AD,01,27,4E,00,00,00,
7839161,00000320,false,Rx,0,8,20,00,00,00,F0,00,82,00,
7844161,00000342,false,Rx,0,8,03,C2,99,99,94,00,03,90,
7849161,00000516,false,Rx,0,8,00,00,00,00,00,00,00,00,
7854161,00000010,false,Rx,0,8,00,FF,61,30,00,00,0D,A3,
7859161,00000102,false,Rx,0,8,00,00,19,50,51,CD,02,D7,
7864161,00000103,false,Rx,0,8,02,00,02,00,00,00,02,02,
7869161,00000122,false,Rx,0,8,D3,23,00,CA,1C,BB,04,99,
7874161,00000231,false,Rx,0,8,00,01,00,00,00,00,05,04,
7879161,00000517,false,Rx,0,8,01,00,00,00,00,00,00,00,
7884161,00000400,false,Rx,0,8,00,0B,56,F0,00,01,0A,A6,
7889161,00000408,false,Rx,0,8,00,41,33,0A,FF,FF,0A,72,
7894161,00000410,false,Rx,0,8,33,00,AA,31,00,FF,0A,5D,
7899161,00000411,false,Rx,0,8,32,60,00,00,00,00,00,00,
7904161,00000022,false,Rx,0,8,FF,FF,FF,FF,00,00,0A,0A,
7909161,00000010,false,Rx,0,8,00,FF,61,30,00,00,0E,A0,
7914161,00000012,false,Rx,0,8,99,99,32,00,01,00,07,34,
7919161,00000102,false,Rx,0,8,00,00,19,50,51,CD,03,D6,
7924161,00000103,false,Rx,0,8,02,00,02,00,00,00,03,03,
7929161,00000122,false,Rx,0,8,D3,23,00,CA,1C,BB,05,98,
7934161,00000110,false,Rx,0,8,00,00,00,7B,01,05,0A,75,
7939161,00000308,false,Rx,0,8,00,12,00,00,00,00,82,00,
7944161,00000231,false,Rx,0,8,00,01,00,00,00,00,06,07,
7949161,00000300,false,Rx,0,8,00,00,0D,8C,00,66,00,00,
7954161,00000316,false,Rx,0,8,13,AD,01,27,4E,00,00,00,
7959161,00000320,false,Rx,0,8,20,00,00,00,F0,00,82,00,
7964161,00000342,false,Rx,0,8,03,C2,99,99,94,00,03,90,
7969161,00000516,false,Rx,0,8,00,00,00,00,00,00,00,00,
7974161,00000517,false,Rx,0,8,01,00,00,00,00,00,00,00,
7979161,00000010,false,Rx,0,8,00,FF,61,30,00,00,0F,A1,
7984161,00000102,false,Rx,0,8,00,00,19,50,51,CD,04,D1,
7989161,00000103,false,Rx,0,8,02,00,02,00,00,00,04,04,
7994161,00000122,false,Rx,0,8,D3,23,00,CA,1C,BB,06,9B,
7999161,00000231,false,Rx,0,8,00,01,00,00,00,00,07,06,
8004161,00000517,false,Rx,0,8,00,00,00,00,00,00,00,00,
8009161,00000400,false,Rx,0,8,00,0B,56,F0,00,01,0B,A7,
8014161,00000408,false,Rx,0,8,00,41,33,0A,FF,FF,0B,73,
8019161,00000410,false,Rx,0,8,33,00,AA,31,00,FF,0B,5C,
8024161,00000411,false,Rx,0,8,32,60,00,00,00,00,00,00,
8029161,00000022,false,Rx,0,8,FF,FF,FF,FF,00,00,0B,0B,
8034161,00000010,false,Rx,0,8,00,FF,61,30,00,00,00,AE,
8039161,00000012,false,Rx,0,8,99,99,32,00,00,00,08,3A,
8044161,00000102,false,Rx,0,8,00,00,19,50,51,CD,05,D0,
8049161,00000103,false,Rx,0,8,02,00,02,00,00,00,05,05,
8054161,00000122,false,Rx,0,8,D3,23,00,CA,1C,BB,07,9A,
8059161,00000110,false,Rx,0,8,00,00,00,7B,01,05,0B,74,
8064161,00000300,false,Rx,0,8,00,00,0D,8C,00,66,00,00,
8069161,00000308,false,Rx,0,8,00,12,00,00,00,00,82,00,
8074161,00000316,false,Rx,0,8,13,AD,01,27,4E,00,00,00,
8079161,00000320,false,Rx,0,8,20,00,00,00,F0,00,82,00,
8084161,00000342,false,Rx,0,8,03,C2,99,99,94,00,03,90,
8089161,00000516,false,Rx,0,8,00,00,00,00,00,00,00,00,
8094161,00000231,false,Rx,0,8,00,01,00,00,00,00,08,09,
8099161,00000517,false,Rx,0,8,00,00,00,00,00,00,00,00,
8104161,00000010,false,Rx,0,8,00,FF,61,30,00,00,01,AF,
8109161,00000013,false,Rx,0,8,FF,01,09,00,00,00,00,00,
8114161,00000102,false,Rx,0,8,00,00,19,50,51,CD,06,D3,
8119161,00000103,false,Rx,0,8,02,00,02,00,00,00,06,06,
8124161,00000122,false,Rx,0,8,D3,23,00,CA,1C,BB,08,95,
8129161,00000332,false,Rx,0,8,01,00,00,00,00,00,01,00,
8134161,00000530,false,Rx,0,8,FF,FF,6A,52,64,04,49,00,
8139161,00000231,false,Rx,0,8,00,01,00,00,00,00,0A,0B,
8144161,00000517,false,Rx,0,8,01,00,00,00,00,00,00,00,
8149161,00000400,false,Rx,0,8,00,0B,56,F0,00,01,0C,A0,
8154161,00000408,false,Rx,0,8,00,41,33,0A,FF,FF,0C,74,
8159161,00000410,false,Rx,0,8,33,00,C4,00,00,FF,0C,04,
8164161,00000411,false,Rx,0,8,32,60,00,00,00,00,00,00,
8169161,00000022,false,Rx,0,8,FF,FF,FF,FF,00,00,0C,0C,
8174161,00000010,false,Rx,0,8,00,FF,61,30,00,00,02,AC,
8179161,00000012,false,Rx,0,8,99,99,32,00,01,00,09,3A,
8184161,00000102,false,Rx,0,8,00,00,19,50,51,CD,07,D2,
8189161,00000103,false,Rx,0,8,02,00,02,00,00,00,07,07,
8194161,00000122,false,Rx,0,8,D3,23,00,CA,1C,BB,09,94,
8199161,00000110,false,Rx,0,8,00,00,00,7B,01,05,0C,73,
8204161,00000308,false,Rx,0,8,00,12,00,00,00,00,82,00,
8209161,00000300,false,Rx,0,8,00,00,0D,8C,00,66,00,00,
8214161,00000316,false,Rx,0,8,13,AD,01,27,4E,00,00,00,
8219161,00000320,false,Rx,0,8,20,00,00,00,F0,00,82,00,
8224161,00000342,false,Rx,0,8,03,C2,99,99,94,00,03,90,
8229161,00000516,false,Rx,0,8,00,00,00,00,00,00,00,00,
8234161,00000231,false,Rx,0,8,00,01,00,00,00,00,0A,0B,
8239161,00000517,false,Rx,0,8,01,00,00,00,00,00,00,00,
8244161,00000102,false,Rx,0,8,00,00,19,50,51,CD,08,DD,
8249161,00000103,false,Rx,0,8,02,00,02,00,00,00,08,08,
8254161,00000122,false,Rx,0,8,D3,23,00,CA,1C,BB,0A,97,
8259161,00000010,false,Rx,0,8,00,FF,61,30,00,00,03,AD,
8264161,00000231,false,Rx,0,8,00,01,00,00,00,00,0C,0D,
8269161,00000517,false,Rx,0,8,00,00,00,00,00,00,00,00,
8274161,00000400,false,Rx,0,8,00,0B,56,F0,00,01,0D,A1,
8279161,00000408,false,Rx,0,8,00,41,33,0A,FF,FF,0D,75,
8284161,00000410,false,Rx,0,8,33,00,C4,00,00,FF,0D,05,
8289161,00000411,false,Rx,0,8,32,60,00,00,00,00,00,00,
8294161,00000022,false,Rx,0,8,FF,FF,FF,FF,00,00,0D,0D,
8299161,00000102,false,Rx,0,8,00,00,19,50,51,CD,09,DC,
8304161,00000103,false,Rx,0,8,02,00,02,00,00,00,09,09,
8309161,00000122,false,Rx,0,8,D3,23,00,CA,1C,BB,0B,96,
8314161,00000110,false,Rx,0,8,00,00,00,7B,01,05,0D,72,
8319161,00000300,false,Rx,0,8,00,00,0D,8C,00,66,00,00,
8324161,00000308,false,Rx,0,8,00,12,00,00,00,00,82,00,
8329161,00000316,false,Rx,0,8,13,AD,01,27,4E,00,00,00,
8334161,00000320,false,Rx,0,8,20,00,00,00,F0,00,82,00,
8339161,00000010,false,Rx,0,8,00,FF,61,30,00,00,04,AA,
8344161,00000342,false,Rx,0,8,03,C2,99,99,94,00,03,90,
8349161,00000012,false,Rx,0,8,99,99,32,00,00,00,0A,38,
8354161,00000516,false,Rx,0,8,00,00,00,00,00,00,00,00,
8359161,00000231,false,Rx,0,8,00,01,00,00,00,00,0D,0C,
8364161,00000517,false,Rx,0,8,01,00,00,00,00,00,00,00,
8369161,00000102,false,Rx,0,8,00,00,19,50,51,CD,0A,DF,
8374161,00000103,false,Rx,0,8,02,00,02,00,00,00,0A,0A,
8379161,00000122,false,Rx,0,8,D3,23,00,CA,1C,BB,0C,91,
8384161,00000010,false,Rx,0,8,00,FF,61,30,00,00,05,AB,
8389161,00000231,false,Rx,0,8,00,01,00,00,00,00,0E,0F,
8394161,00000400,false,Rx,0,8,00,0B,56,F0,00,01,0E,A2,
8399161,00000408,false,Rx,0,8,00,41,33,0A,FF,FF,0E,76,
8404161,00000410,false,Rx,0,8,33,00,C4,00,00,FF,0E,06,
8409161,00000411,false,Rx,0,8,32,60,00,00,00,00,00,00,
8414161,00000022,false,Rx,0,8,FF,FF,FF,FF,00,00,0E,0E,
8419161,00000102,false,Rx,0,8,00,00,19,50,51,CD,0B,DE,
8424161,00000103,false,Rx,0,8,02,00,02,00,00,00,0B,0B,
8429161,00000122,false,Rx,0,8,D3,23,00,CA,1C,BB,0D,90,
8434161,00000517,false,Rx,0,8,01,00,00,00,00,00,00,00,
8439161,00000110,false,Rx,0,8,00,00,00,7B,01,05,0E,71,
8444161,00000300,false,Rx,0,8,00,00,0D,8C,00,66,00,00,
8449161,00000308,false,Rx,0,8,00,12,00,00,00,00,82,00,
8454161,00000316,false,Rx,0,8,13,AD,01,27,4E,00,00,00,
8459161,00000320,false,Rx,0,8,20,00,00,00,F0,00,82,00,
8464161,00000342,false,Rx,0,8,03,C2,99,99,94,00,03,90,
8469161,00000516,false,Rx,0,8,00,00,00,00,00,00,00,00,
8474161,00000010,false,Rx,0,8,00,FF,61,30,00,00,06,A8,
8479161,00000012,false,Rx,0,8,99,99,32,00,01,00,0B,38,
8484161,00000013,false,Rx,0,8,FF,01,09,00,00,00,00,00,
8489161,00000231,false,Rx,0,8,00,01,00,00,00,00,0F,0E,
8494161,00000517,false,Rx,0,8,00,00,00,00,00,00,00,00,
8499161,00000102,false,Rx,0,8,00,00,19,50,51,CD,0C,D9,
8504161,00000103,false,Rx,0,8,02,00,02,00,00,00,0C,0C,
8509161,00000122,false,Rx,0,8,D3,23,00,CA,1C,BB,0E,93,
8514161,00000010,false,Rx,0,8,00,FF,61,30,00,00,07,A9,
8519161,00000400,false,Rx,0,8,00,0B,56,F0,00,01,0F,A3,
8524161,00000408,false,Rx,0,8,00,41,33,0A,FF,FF,0F,77,
8529161,00000410,false,Rx,0,8,33,00,C4,00,00,FF,0F,07,
8534161,00000102,false,Rx,0,8,00,00,19,50,51,CD,0D,D8,
8539161,00000103,false,Rx,0,8,02,00,02,00,00,00,0D,0D,
8544161,00000122,false,Rx,0,8,D3,23,00,CA,1C,BB,0F,92,
8549161,00000110,false,Rx,0,8,00,00,00,7B,01,05,0F,70,
8554161,00000300,false,Rx,0,8,00,00,0D,8C,00,66,00,00,
8559161,00000308,false,Rx,0,8,00,12,00,00,00,00,82,00,
8564161,00000316,false,Rx,0,8,13,AD,01,27,4E,00,00,00,
8569161,00000320,false,Rx,0,8,20,00,00,00,F0,00,82,00,
8574161,00000342,false,Rx,0,8,03,C2,99,99,94,00,03,90,
8579161,00000411,false,Rx,0,8,32,60,00,00,00,00,00,00,
8584161,00000516,false,Rx,0,8,00,00,00,00,00,00,00,00,
8589161,00000022,false,Rx,0,8,FF,FF,FF,FF,00,00,0F,0F,
8594161,00000231,false,Rx,0,8,00,01,00,00,00,00,00,01,
8599161,00000517,false,Rx,0,8,00,00,00,00,00,00,00,00,
8604161,00000010,false,Rx,0,8,00,FF,61,30,00,00,08,A6,
8609161,00000012,false,Rx,0,8,99,99,32,00,00,00,0C,3E,
8614161,00000102,false,Rx,0,8,00,00,19,50,51,CD,0E,DB,
8619161,00000103,false,Rx,0,8,02,00,02,00,00,00,0E,0E,
8624161,00000122,false,Rx,0,8,D3,23,00,CA,1C,BB,00,9D,
8629161,00000231,false,Rx,0,8,00,01,00,00,00,00,01,00,
8634161,00000517,false,Rx,0,8,01,00,00,00,00,00,00,00,
8639161,00000010,false,Rx,0,8,00,FF,61,30,00,00,09,A7,
8644161,00000102,false,Rx,0,8,00,00,19,50,51,CD,0F,DA,
8649161,00000103,false,Rx,0,8,02,00,02,00,00,00,0F,0F,
8654161,00000122,false,Rx,0,8,D3,23,00,CA,1C,BB,01,9C,
8659161,00000400,false,Rx,0,8,00,0B,56,F0,00,01,00,AC,
8664161,00000110,false,Rx,0,8,00,00,00,7B,01,05,00,7F,
8669161,00000300,false,Rx,0,8,00,00,0D,8C,00,66,00,00,
8674161,00000308,false,Rx,0,8,00,12,00,00,00,00,82,00,
8679161,00000316,false,Rx,0,8,13,AD,01,27,4E,00,00,00,
8684161,00000320,false,Rx,0,8,20,00,00,00,F0,00,82,00,
8689161,00000342,false,Rx,0,8,03,C2,99,99,94,00,03,90,
8694161,00000408,false,Rx,0,8,00,41,33,0A,FF,FF,00,78,
8699161,00000516,false,Rx,0,8,00,00,00,00,00,00,00,00,
8704161,00000410,false,Rx,0,8,33,00,AA,30,00,FF,00,56,
8709161,00000411,false,Rx,0,8,32,60,00,00,00,00,00,00,
8714161,00000022,false,Rx,0,8,FF,FF,FF,FF,00,00,00,00,
8719161,00000231,false,Rx,0,8,00,01,00,00,00,00,02,03,
8724161,00000517,false,Rx,0,8,01,00,00,00,00,00,00,00,
8729161,00000010,false,Rx,0,8,00,FF,61,30,00,00,0A,A4,
8734161,00000012,false,Rx,0,8,99,99,32,00,01,00,0D,3E,
8739161,00000102,false,Rx,0,8,00,00,19,50,51,CD,00,D5,
8744161,00000103,false,Rx,0,8,02,00,02,00,00,00,00,00,
8749161,00000122,false,Rx,0,8,D3,23,00,CA,1C,BB,02,9F,
8754161,00000231,false,Rx,0,8,00,00,00,00,00,00,04,04,
8759161,00000332,false,Rx,0,8,01,00,00,00,00,00,03,02,
8764161,00000517,false,Rx,0,8,00,00,00,00,00,00,00,00,
8769161,00000530,false,Rx,0,8,FF,FF,6A,52,64,04,49,00,
8774161,00000010,false,Rx,0,8,00,FF,61,30,00,00,0B,A5,
8779161,00000013,false,Rx,0,8,FF,01,09,00,00,00,00,00,
8784161,00000102,false,Rx,0,8,00,00,19,50,51,CD,01,D4,
8789161,00000103,false,Rx,0,8,02,00,02,00,00,00,01,01,
8794161,00000122,false,Rx,0,8,D3,23,00,CA,1C,BB,03,9E,
8799161,00000110,false,Rx,0,8,00,00,00,7B,01,05,01,7E,
8804161,00000300,false,Rx,0,8,00,00,0D,8C,00,66,00,00,
8809161,00000308,false,Rx,0,8,00,12,00,00,00,00,82,00,
8814161,00000316,false,Rx,0,8,13,AD,01,27,4E,00,00,00,
8819161,00000320,false,Rx,0,8,20,00,00,00,F0,00,82,00,
8824161,00000342,false,Rx,0,8,03,C2,99,99,94,00,03,90,
8829161,00000400,false,Rx,0,8,00,0B,56,F0,00,01,01,AD,
8834161,00000516,false,Rx,0,8,00,00,00,00,00,00,00,00,
8839161,00000408,false,Rx,0,8,00,41,33,0A,FF,FF,01,79,
8844161,00000410,false,Rx,0,8,33,00,AA,30,00,FF,01,57,
8849161,00000411,false,Rx,0,8,32,60,00,00,00,00,00,00,
8854161,00000022,false,Rx,0,8,FF,FF,FF,FF,00,00,01,01,
8859161,00000231,false,Rx,0,8,00,00,00,00,00,00,04,04,
8864161,00000517,false,Rx,0,8,00,00,00,00,00,00,00,00,
8869161,00000010,false,Rx,0,8,00,FF,61,30,00,00,0C,A2,
8874161,00000012,false,Rx,0,8,99,99,32,00,00,00,0E,3C,
8879161,00000102,false,Rx,0,8,00,00,19,50,51,CD,02,D7,
8884161,00000103,false,Rx,0,8,02,00,02,00,00,00,02,02,
8889161,00000122,false,Rx,0,8,D3,23,00,CA,1C,BB,04,99,
8894161,00000231,false,Rx,0,8,00,00,00,00,00,00,06,06,
8899161,00000517,false,Rx,0,8,01,00,00,00,00,00,00,00,
8904161,00000102,false,Rx,0,8,00,00,19,50,51,CD,03,D6,
8909161,00000103,false,Rx,0,8,02,00,02,00,00,00,03,03,
8914161,00000122,false,Rx,0,8,D3,23,00,CA,1C,BB,05,98,
8919161,00000010,false,Rx,0,8,00,FF,61,30,00,00,0D,A3,
8924161,00000110,false,Rx,0,8,00,00,00,7B,01,05,02,7D,
8929161,00000300,false,Rx,0,8,00,00,0D,8C,00,66,00,00,
8934161,00000308,false,Rx,0,8,00,12,00,00,00,00,82,00,
8939161,00000316,false,Rx,0,8,13,AD,01,27,4E,00,00,00,
8944161,00000320,false,Rx,0,8,20,00,00,00,F0,00,82,00,
8949161,00000342,false,Rx,0,8,03,C2,99,99,94,00,03,90,
8954161,00000400,false,Rx,0,8,00,0B,56,F0,00,01,02,AE,
8959161,00000516,false,Rx,0,8,00,00,00,00,00,00,00,00,
8964161,00000408,false,Rx,0,8,00,41,33,0A,FF,FF,02,7A,
8969161,00000410,false,Rx,0,8,33,00,AA,30,00,FF,02,54,
8974161,00000411,false,Rx,0,8,32,60,00,00,00,00,00,00,
8979161,00000022,false,Rx,0,8,FF,FF,FF,FF,00,00,02,02,
8984161,00000231,false,Rx,0,8,00,00,00,00,00,00,06,06,
8989161,00000517,false,Rx,0,8,01,00,00,00,00,00,00,00,
8994161,00000102,false,Rx,0,8,00,00,19,50,51,CD,04,D1,
8999161,00000103,false,Rx,0,8,02,00,02,00,00,00,04,04,
9004161,00000122,false,Rx,0,8,D3,23,00,CA,1C,BB,06,9B,
9009161,00000010,false,Rx,0,8,00,FF,61,30,00,00,0E,A0,
9014161,00000012,false,Rx,0,8,99,99,32,00,01,00,0F,3C,
9019161,00000231,false,Rx,0,8,00,00,00,00,00,00,08,08,
9024161,00000517,false,Rx,0,8,00,00,00,00,00,00,00,00,
9029161,00000102,false,Rx,0,8,00,00,19,50,51,CD,05,D0,
9034161,00000103,false,Rx,0,8,02,00,02,00,00,00,05,05,
9039161,00000122,false,Rx,0,8,D3,23,00,CA,1C,BB,07,9A,
9044161,00000110,false,Rx,0,8,00,00,00,7B,01,05,03,7C,
9049161,00000300,false,Rx,0,8,00,00,0D,8C,00,66,00,00,
9054161,00000308,false,Rx,0,8,00,12,00,00,00,00,82,00,
9059161,00000316,false,Rx,0,8,13,AD,01,27,4E,00,00,00,
9064161,00000320,false,Rx,0,8,20,00,00,00,F0,00,82,00,
9069161,00000342,false,Rx,0,8,03,C2,99,99,94,00,03,90,
9074161,00000516,false,Rx,0,8,00,00,00,00,00,00,00,00,
9079161,00000010,false,Rx,0,8,00,FF,61,30,00,00,0F,A1,
9084161,00000400,false,Rx,0,8,00,0B,56,F0,00,01,03,AF,
9089161,00000408,false,Rx,0,8,00,41,33,0A,FF,FF,03,7B,
9094161,00000410,false,Rx,0,8,33,00,AA,30,00,FF,03,55,
9099161,00000411,false,Rx,0,8,32,60,00,00,00,00,00,00,
9104161,00000022,false,Rx,0,8,FF,FF,FF,FF,00,00,03,03,
9109161,00000231,false,Rx,0,8,00,00,00,00,00,00,09,09,
9114161,00000517,false,Rx,0,8,01,00,00,00,00,00,00,00,
9119161,00000102,false,Rx,0,8,00,00,19,50,51,CD,06,D3,
9124161,00000103,false,Rx,0,8,02,00,02,00,00,00,06,06,
9129161,00000122,false,Rx,0,8,D3,23,00,CA,1C,BB,08,95,
9134161,00000010,false,Rx,0,8,00,FF,61,30,00,00,00,AE,
9139161,00000012,false,Rx,0,8,99,99,32,00,00,00,00,32,
9144161,00000013,false,Rx,0,8,FF,01,09,00,00,00,00,00,
9149161,00000231,false,Rx,0,8,00,00,00,00,00,00,0A,0A,
9154161,00000517,false,Rx,0,8,01,00,00,00,00,00,00,00,
9159161,00000102,false,Rx,0,8,00,00,19,50,51,CD,07,D2,
9164161,00000103,false,Rx,0,8,02,00,02,00,00,00,07,07,
9169161,00000122,false,Rx,0,8,D3,23,00,CA,1C,BB,09,94,
9174161,00000110,false,Rx,0,8,00,00,00,7B,01,05,04,7B,
9179161,00000308,false,Rx,0,8,00,12,00,00,00,00,82,00,
9184161,00000300,false,Rx,0,8,00,00,0D,8C,00,66,00,00,
